(0.167000) can0 3FD#0100020000080280
(0.669000) can0 3FD#0100020000080280
(0.736000) can0 3FD#0100020000080280
(0.841000) can0 247#D30EFF0B00990100
(0.843000) can0 247#F20EFF0B009F0100
(0.844000) can0 247#D10EFF0B00A50100
(0.846000) can0 247#D00EFF0B00A90100
(0.848000) can0 247#ED0EFF0B00AD0100
(0.850000) can0 247#CB0EFF0B00B20100
(0.852000) can0 247#D30EFF0B00B80100
(0.854000) can0 247#CF0EFF0B00BF0100
(0.856000) can0 247#DB0EFF0B00C50100
(0.859000) can0 247#CF0EFF0B00CB0100
(0.861000) can0 247#E60EFF0B00D00100
(0.863000) can0 247#E90EFF0B00D50100
(0.865000) can0 247#DC0EFF0B00DC0100
(0.867000) can0 247#E60EFF0B00E20100
(0.869000) can0 247#F20EFF0B00E90100
(0.871000) can0 247#CC0EFF0B00ED0100
(0.873000) can0 247#E20EFF0B00F20100
(0.875000) can0 247#D20EFF0B00F70100
(0.877000) can0 247#E70EFF0B00FE0100
(0.879000) can0 247#E60EFF0B00060200
(0.881000) can0 247#C80EFF0B000E0200
(0.883000) can0 247#F40EFF0B00160200
(0.885000) can0 247#F60EFF0B001C0200
(0.887000) can0 247#E30EFF0B00220200
(0.889000) can0 247#E70EFF0B00290200
(0.893000) can0 247#D60EFF0B002D0200
(0.897000) can0 247#CE0EFF0B00330200
(0.903000) can0 247#E70EFF0B00370200
(0.907000) can0 247#DE0EFF0B003E0200
(0.911000) can0 247#D80EFF0B00430200
(0.913000) can0 247#DC0EFF0B00490200
(0.915000) can0 247#EB0EFF0B004F0200
(0.917000) can0 247#E70EFF0B00540200
(0.919000) can0 247#D60EFF0B00580200
(0.921000) can0 247#F40EFF0B005E0200
(0.923000) can0 247#D00EFF0B00620200
(0.925000) can0 247#E40EFF0B006A0200
(0.932000) can0 247#CC0EFF0B00720200
(0.938000) can0 247#CC0EFF0B007A0200
(0.944000) can0 247#D70EFF0B007E0200
(0.946000) can0 247#DF0EFF0B00830200
(0.948000) can0 247#CB0EFF0B00880200
(0.950000) can0 247#CD0EFF0B008D0200
(0.952000) can0 247#D50EFF0B00930200
(0.953000) can0 247#F00EFF0B00980200
(0.955000) can0 247#D50EFF0B009D0200
(0.957000) can0 247#E90EFF0B00A10200
(0.959000) can0 247#E20EFF0B00A70200
(0.961000) can0 247#D70EFF0B00AE0200
(0.963000) can0 247#EB0EFF0B00B50200
(0.965000) can0 247#ED0EFF0B00BD0200
(0.967000) can0 247#D80EFF0B00C10200
(0.969000) can0 247#E10EFF0B00C70200
(0.972000) can0 247#D10EFF0B00CD0200
(0.974000) can0 247#C80EFF0B00D50200
(0.976000) can0 247#D80EFF0B00DB0200
(0.978000) can0 247#C80EFF0B00E10200
(0.980000) can0 247#DD0EFF0B00E70200
(0.982000) can0 247#EE0EFF0B00ED0200
(0.983000) can0 247#E20EFF0B00F20200
(0.985000) can0 247#E40EFF0B00F90200
(0.987000) can0 247#D30EFF0B00FE0200
(0.989000) can0 247#D90EFF0B00020300
(0.991000) can0 247#F40EFF0B000A0300
(0.993000) can0 247#DD0EFF0B000F0300
(0.995000) can0 247#CC0EFF0B00170300
(0.997000) can0 247#F20EFF0B001F0300
(1.000000) can0 247#ED0EFF0B00230300
(1.003000) can0 247#D50EFF0B002A0300
(1.009000) can0 247#CA0EFF0B002F0300
(1.013000) can0 247#D70EFF0B00370300
(1.017000) can0 247#E90EFF0B003E0300
(1.022000) can0 247#D30EFF0B00420300
(1.024000) can0 247#DE0EFF0B004A0300
(1.026000) can0 247#E70EFF0B00510300
(1.028000) can0 247#F30EFF0B00550300
(1.030000) can0 247#E70EFF0B005C0300
(1.032000) can0 247#D50EFF0B00620300
(1.034000) can0 247#D50EFF0B00670300
(1.036000) can0 247#F20EFF0B006C0300
(1.039000) can0 247#CB0EFF0B00710300
(1.041000) can0 247#CB0EFF0B00750300
(1.043000) can0 247#E20EFF0B007B0300
(1.045000) can0 247#D50EFF0B007F0300
(1.047000) can0 247#F20EFF0B00860300
(1.049000) can0 247#EE0EFF0B008B0300
(1.051000) can0 247#DF0EFF0B00920300
(1.053000) can0 247#DD0EFF0B009A0300
(1.055000) can0 247#F30EFF0B00A10300
(1.057000) can0 247#CA0EFF0B00A90300
(1.059000) can0 247#ED0EFF0B00AD0300
(1.061000) can0 247#E40EFF0B00B50300
(1.063000) can0 247#E20EFF0B00B90300
(1.065000) can0 247#E00EFF0B00C10300
(1.068000) can0 247#CA0EFF0B00C90300
(1.070000) can0 247#E00EFF0B00CE0300
(1.072000) can0 247#EB0EFF0B00D30300
(1.074000) can0 247#E70EFF0B00DA0300
(1.076000) can0 247#E10EFF0B00E00300
(1.078000) can0 247#E80EFF0B00E40300
(1.084000) can0 247#DD0EFF0B00EA0300
(1.086000) can0 247#F50EFF0B00F20300
(1.088000) can0 247#EB0EFF0B00F90300
(1.090000) can0 247#DC0EFF0B00FE0300
(1.091000) can0 247#D60EFF0B00060400
(1.094000) can0 247#D90EFF0B000A0400
(1.095000) can0 247#F40EFF0B000E0400
(1.097000) can0 247#E60EFF0B00150400
(1.105000) can0 247#EC0EFF0B00190400
(1.109000) can0 247#E60EFF0B00210400
(1.113000) can0 247#E50EFF0B00280400
(1.118000) can0 247#D50EFF0B002E0400
(1.120000) can0 247#DA0EFF0B00360400
(1.122000) can0 247#E20EFF0B003A0400
(1.124000) can0 247#E60EFF0B003E0400
(1.126000) can0 247#CA0EFF0B00440400
(1.128000) can0 247#F30EFF0B00480400
(1.129000) can0 247#E10EFF0B00500400
(1.131000) can0 247#CC0EFF0B00580400
(1.133000) can0 247#F10EFF0B005C0400
(1.135000) can0 247#E00EFF0B00600400
(1.137000) can0 247#F40EFF0B00680400
(1.141000) can0 247#E50EFF0B006F0400
(1.143000) can0 247#CB0EFF0B00750400
(1.145000) can0 247#E20EFF0B007A0400
(1.147000) can0 247#CF0EFF0B007F0400
(1.148000) can0 247#D80EFF0B00860400
(1.150000) can0 247#EF0EFF0B008B0400
(1.152000) can0 247#DD0EFF0B00930400
(1.154000) can0 247#CA0EFF0B00990400
(1.156000) can0 247#D40EFF0B009F0400
(1.158000) can0 247#EE0EFF0B00A30400
(1.160000) can0 247#D30EFF0B00AA0400
(1.162000) can0 247#DB0EFF0B00B20400
(1.164000) can0 247#F30EFF0B00B80400
(1.166000) can0 247#ED0EFF0B00BD0400
(1.169000) can0 247#E30EFF0B00C40400
(1.169000) can0 3FD#0100020000080280
(1.172000) can0 247#C80EFF0B00CA0400
(1.174000) can0 247#E90EFF0B00CF0400
(1.176000) can0 247#E90EFF0B00D50400
(1.178000) can0 247#E20EFF0B00DA0400
(1.180000) can0 247#D50EFF0B00E20400
(1.182000) can0 247#D00EFF0B00E60400
(1.184000) can0 247#F50EFF0B00ED0400
(1.186000) can0 247#D50EFF0B00F20400
(1.188000) can0 247#DD0EFF0B00FA0400
(1.190000) can0 247#EA0EFF0B00FE0400
(1.192000) can0 247#EF0EFF0B00030500
(1.194000) can0 247#F50EFF0B000A0500
(1.197000) can0 247#DB0EFF0B00100500
(1.198000) can0 247#E70EFF0B00160500
(1.201000) can0 247#CA0EFF0B001A0500
(1.203000) can0 247#CB0EFF0B001F0500
(1.205000) can0 247#CE0EFF0B00240500
(1.207000) can0 247#EE0EFF0B00290500
(1.209000) can0 247#CC0EFF0B00300500
(1.211000) can0 247#ED0EFF0B00340500
(1.213000) can0 247#F60EFF0B003A0500
(1.215000) can0 247#E10EFF0B00410500
(1.217000) can0 247#E20EFF0B00460500
(1.219000) can0 247#CD0EFF0B004B0500
(1.221000) can0 247#DA0EFF0B00530500
(1.223000) can0 247#F20EFF0B00590500
(1.225000) can0 247#E30EFF0B00600500
(1.227000) can0 247#F10EFF0B00680500
(1.230000) can0 247#E60EFF0B006E0500
(1.232000) can0 247#DF0EFF0B00760500
(1.234000) can0 247#D30EFF0B007D0500
(1.236000) can0 247#DC0EFF0B00850500
(1.237000) can0 247#E60EFF0B008C0500
(1.239000) can0 247#EA0EFF0B00930500
(1.242000) can0 247#CC0EFF0B00970500
(1.244000) can0 247#DB0EFF0B009E0500
(1.246000) can0 247#E20EFF0B00A40500
(1.247000) can0 247#C80EFF0B00AB0500
(1.249000) can0 247#ED0EFF0B00B30500
(1.254000) can0 247#DB0EFF0B00B80500
(1.264000) can0 247#E70EFF0B00BF0500
(1.273000) can0 247#EA0EFF0B00C50500
(1.280000) can0 247#EB0EFF0B00CA0500
(1.285000) can0 247#F40EFF0B00CE0500
(1.287000) can0 247#D00EFF0B00D30500
(1.289000) can0 247#E80EFF0B00DA0500
(1.291000) can0 247#D70EFF0B00DE0500
(1.293000) can0 247#ED0EFF0B00E40500
(1.295000) can0 247#CE0EFF0B00E80500
(1.297000) can0 247#F20EFF0B00EF0500
(1.299000) can0 247#F40EFF0B00F60500
(1.301000) can0 247#DC0EFF0B00FC0500
(1.303000) can0 247#D60EFF0B00020600
(1.307000) can0 247#D20EFF0B00080600
(1.313000) can0 247#D30EFF0B000F0600
(1.317000) can0 247#CB0EFF0B00160600
(1.324000) can0 247#F00EFF0B001B0600
(1.325000) can0 247#D60EFF0B00200600
(1.327000) can0 247#CD0EFF0B00260600
(1.329000) can0 247#DC0EFF0B002A0600
(1.331000) can0 247#DB0EFF0B002E0600
(1.333000) can0 247#F70EFF0B00320600
(1.335000) can0 247#F30EFF0B00370600
(1.337000) can0 247#D60EFF0B003D0600
(1.339000) can0 247#ED0EFF0B00450600
(1.341000) can0 247#EE0EFF0B004A0600
(1.343000) can0 247#DB0EFF0B00520600
(1.346000) can0 247#D30EFF0B00590600
(1.348000) can0 247#DD0EFF0B00600600
(1.350000) can0 247#EA0EFF0B00650600
(1.352000) can0 247#E00EFF0B006B0600
(1.354000) can0 247#E80EFF0B006F0600
(1.356000) can0 247#C90EFF0B00730600
(1.358000) can0 247#CE0EFF0B00770600
(1.364000) can0 247#D20EFF0B007F0600
(1.366000) can0 247#F70EFF0B00830600
(1.368000) can0 247#CE0EFF0B008B0600
(1.370000) can0 247#E50EFF0B00900600
(1.372000) can0 247#E30EFF0B00940600
(1.373000) can0 247#D50EFF0B009C0600
(1.375000) can0 247#F70EFF0B00A00600
(1.378000) can0 247#E80EFF0B00A60600
(1.380000) can0 247#DF0EFF0B00AC0600
(1.382000) can0 247#DA0EFF0B00B30600
(1.385000) can0 247#D90EFF0B00BB0600
(1.387000) can0 247#E60EFF0B00C10600
(1.388000) can0 247#DB0EFF0B00C90600
(1.390000) can0 247#CF0EFF0B00CF0600
(1.393000) can0 247#ED0EFF0B00D70600
(1.395000) can0 247#CF0EFF0B00DE0600
(1.397000) can0 247#E60EFF0B00E60600
(1.398000) can0 247#E10EFF0B00ED0600
(1.400000) can0 247#EB0EFF0B00F30600
(1.402000) can0 247#E30EFF0B00F70600
(1.404000) can0 247#CA0EFF0B00FF0600
(1.407000) can0 247#E80EFF0B00060700
(1.409000) can0 247#DF0EFF0B000A0700
(1.411000) can0 247#CF0EFF0B000E0700
(1.413000) can0 247#E30EFF0B00140700
(1.415000) can0 247#DA0EFF0B001A0700
(1.417000) can0 247#F70EFF0B00200700
(1.419000) can0 247#D50EFF0B00260700
(1.421000) can0 247#F60EFF0B002E0700
(1.423000) can0 247#F10EFF0B00360700
(1.425000) can0 247#DE0EFF0B003D0700
(1.427000) can0 247#DB0EFF0B00420700
(1.429000) can0 247#DE0EFF0B00470700
(1.430000) can0 247#F20EFF0B004B0700
(1.432000) can0 247#E90EFF0B00520700
(1.435000) can0 247#D70EFF0B00590700
(1.437000) can0 247#D40EFF0B005E0700
(1.439000) can0 247#F10EFF0B00640700
(1.441000) can0 247#CD0EFF0B00680700
(1.443000) can0 247#F30EFF0B006C0700
(1.445000) can0 247#D40EFF0B00740700
(1.447000) can0 247#D10EFF0B007C0700
(1.453000) can0 247#CA0EFF0B00810700
(1.455000) can0 247#F40EFF0B00860700
(1.457000) can0 247#EA0EFF0B008A0700
(1.458000) can0 247#D80EFF0B00920700
(1.460000) can0 247#CE0EFF0B009A0700
(1.462000) can0 247#D50EFF0B00A10700
(1.465000) can0 247#F70EFF0B00A70700
(1.467000) can0 247#F20EFF0B00AE0700
(1.469000) can0 247#E50EFF0B00B20700
(1.471000) can0 247#D30EFF0B00B80700
(1.473000) can0 247#F00EFF0B00BF0700
(1.475000) can0 247#E90EFF0B00C40700
(1.477000) can0 247#F70EFF0B00CC0700
(1.479000) can0 247#F50EFF0B00D20700
(1.481000) can0 247#E40EFF0B00D60700
(1.483000) can0 247#F50EFF0B00DB0700
(1.485000) can0 247#DE0EFF0B00E00700
(1.487000) can0 247#DE0EFF0B00E80700
(1.489000) can0 247#DE0EFF0B00EC0700
(1.491000) can0 247#D60EFF0B00F10700
(1.495000) can0 247#E50EFF0B00F80700
(1.499000) can0 247#F30EFF0B00000800
(1.503000) can0 247#EC0EFF0B00050800
(1.507000) can0 247#E90EFF0B000D0800
(1.512000) can0 247#CC0EFF0B00140800
(1.522000) can0 247#CC0EFF0B00180800
(1.528000) can0 247#D20EFF0B001F0800
(1.533000) can0 247#DD0EFF0B00230800
(1.534000) can0 247#D70EFF0B002B0800
(1.536000) can0 247#E50EFF0B00320800
(1.538000) can0 247#DF0EFF0B00380800
(1.540000) can0 247#D50EFF0B003E0800
(1.542000) can0 247#F70EFF0B00460800
(1.544000) can0 247#D70EFF0B004E0800
(1.547000) can0 247#CB0EFF0B00520800
(1.549000) can0 247#DB0EFF0B00580800
(1.551000) can0 247#CD0EFF0B005E0800
(1.553000) can0 247#E40EFF0B00640800
(1.555000) can0 247#DD0EFF0B006C0800
(1.557000) can0 247#F60EFF0B00720800
(1.559000) can0 247#F30EFF0B00770800
(1.561000) can0 247#D70EFF0B007B0800
(1.563000) can0 247#E50EFF0B00830800
(1.565000) can0 247#DB0EFF0B00890800
(1.567000) can0 247#E20EFF0B008E0800
(1.569000) can0 247#EC0EFF0B00920800
(1.575000) can0 247#D70EFF0B009A0800
(1.577000) can0 247#D50EFF0B009E0800
(1.580000) can0 247#D20EFF0B00A50800
(1.582000) can0 247#DB0EFF0B00AB0800
(1.583000) can0 247#EE0EFF0B00B00800
(1.585000) can0 247#C80EFF0B00B60800
(1.587000) can0 247#E10EFF0B00BB0800
(1.589000) can0 247#E50EFF0B00BF0800
(1.596000) can0 247#E30EFF0B00C30800
(1.602000) can0 247#F20EFF0B00C80800
(1.606000) can0 247#D00EFF0B00CC0800
(1.609000) can0 247#C80EFF0B00D30800
(1.611000) can0 247#D50EFF0B00D90800
(1.613000) can0 247#E30EFF0B00E10800
(1.615000) can0 247#D90EFF0B00E90800
(1.617000) can0 247#D70EFF0B00EF0800
(1.620000) can0 247#D80EFF0B00F30800
(1.621000) can0 247#DF0EFF0B00FA0800
(1.624000) can0 247#EE0EFF0B00020900
(1.625000) can0 247#EA0EFF0B00090900
(1.627000) can0 247#CF0EFF0B000F0900
(1.629000) can0 247#F60EFF0B00130900
(1.632000) can0 247#D60EFF0B00180900
(1.638000) can0 247#E50EFF0B001D0900
(1.640000) can0 247#CA0EFF0B00230900
(1.642000) can0 247#E10EFF0B00270900
(1.644000) can0 247#E60EFF0B002E0900
(1.646000) can0 247#D60EFF0B00350900
(1.648000) can0 247#D50EFF0B003A0900
(1.650000) can0 247#D30EFF0B00400900
(1.653000) can0 247#D30EFF0B00440900
(1.655000) can0 247#D90EFF0B00490900
(1.656000) can0 247#F00EFF0B004E0900
(1.658000) can0 247#DC0EFF0B00560900
(1.660000) can0 247#F60EFF0B005E0900
(1.662000) can0 247#E50EFF0B00650900
(1.665000) can0 247#DF0EFF0B00690900
(1.671000) can0 247#EA0EFF0B00710900
(1.671000) can0 3FD#0100020000080280
(1.686000) can0 247#EC0EFF0B00780900
(1.689000) can0 247#D80EFF0B007C0900
(1.691000) can0 247#E90EFF0B00820900
(1.693000) can0 247#E90EFF0B008A0900
(1.697000) can0 247#CB0EFF0B008F0900
(1.703000) can0 247#DB0EFF0B00970900
(1.707000) can0 247#E00EFF0B009C0900
(1.711000) can0 247#D40EFF0B00A30900
(1.715000) can0 247#EB0EFF0B00AB0900
(1.717000) can0 247#F30EFF0B00AF0900
(1.719000) can0 247#D70EFF0B00B30900
(1.721000) can0 247#E70EFF0B00BB0900
(1.723000) can0 247#F20EFF0B00C10900
(1.726000) can0 247#D40EFF0B00C60900
(1.727000) can0 247#DF0EFF0B00CC0900
(1.729000) can0 247#EE0EFF0B00D40900
(1.731000) can0 247#EF0EFF0B00D80900
(1.733000) can0 247#C80EFF0B00DE0900
(1.736000) can0 247#D40EFF0B00E50900
(1.738000) can0 247#C80EFF0B00EB0900
(1.738000) can0 3FD#0100020000080280
(1.741000) can0 247#DC0EFF0B00F00900
(1.743000) can0 247#F40EFF0B00F50900
(1.745000) can0 247#ED0EFF0B00FA0900
(1.747000) can0 247#E30EFF0B00020A00
(1.749000) can0 247#ED0EFF0B00090A00
(1.751000) can0 247#E40EFF0B000D0A00
(1.753000) can0 247#F50EFF0B00140A00
(1.756000) can0 247#CB0EFF0B00180A00
(1.757000) can0 247#CE0EFF0B00200A00
(1.770000) can0 247#F30EFF0B00250A00
(1.776000) can0 247#CB0EFF0B00290A00
(1.785000) can0 247#DE0EFF0B00300A00
(1.791000) can0 247#CA0EFF0B00370A00
(1.795000) can0 247#EB0EFF0B003C0A00
(1.798000) can0 247#F40EFF0B00430A00
(1.800000) can0 247#D70EFF0B004A0A00
(1.802000) can0 247#DF0EFF0B004F0A00
(1.804000) can0 247#DD0EFF0B00550A00
(1.806000) can0 247#C80EFF0B005C0A00
(1.808000) can0 247#E70EFF0B00600A00
(1.809000) can0 247#CD0EFF0B00670A00
(1.812000) can0 247#D70EFF0B006C0A00
(1.814000) can0 247#E20EFF0B00730A00
(1.816000) can0 247#E80EFF0B00780A00
(1.818000) can0 247#D30EFF0B007E0A00
(1.821000) can0 247#CC0EFF0B00820A00
(1.823000) can0 247#E90EFF0B00870A00
(1.825000) can0 247#DA0EFF0B008D0A00
(1.827000) can0 247#F10EFF0B00920A00
(1.829000) can0 247#DB0EFF0B00980A00
(1.831000) can0 247#F10EFF0B009C0A00
(1.833000) can0 247#F50EFF0B00A40A00
(1.834000) can0 247#D90EFF0B00A90A00
(1.836000) can0 247#E30EFF0B00AF0A00
(1.838000) can0 247#D00EFF0B00B30A00
(1.844000) can0 247#F40EFF0B00BB0A00
(1.847000) can0 247#D80EFF0B00BF0A00
(1.849000) can0 247#D00EFF0B00C30A00
(1.850000) can0 247#DE0EFF0B00C90A00
(1.853000) can0 247#DF0EFF0B00CE0A00
(1.855000) can0 247#F00EFF0B00D60A00
(1.857000) can0 247#D70EFF0B00DB0A00
(1.859000) can0 247#F00EFF0B00E00A00
(1.861000) can0 247#F40EFF0B00E80A00
(1.863000) can0 247#DB0EFF0B00F00A00
(1.865000) can0 247#E30EFF0B00F60A00
(1.867000) can0 247#D80EFF0B00FA0A00
(1.869000) can0 247#E70EFF0B00FF0A00
(1.870000) can0 247#F20EFF0B00070B00
(1.872000) can0 247#EA0EFF0B000F0B00
(1.875000) can0 247#CE0EFF0B00130B00
(1.877000) can0 247#E80EFF0B00180B00
(1.879000) can0 247#E50EFF0B001C0B00
(1.882000) can0 247#EE0EFF0B00240B00
(1.883000) can0 247#CA0EFF0B00290B00
(1.885000) can0 247#D40EFF0B002D0B00
(1.887000) can0 247#E30EFF0B00330B00
(1.889000) can0 247#CA0EFF0B00370B00
(1.891000) can0 247#E80EFF0B003E0B00
(1.893000) can0 247#EB0EFF0B00440B00
(1.895000) can0 247#E90EFF0B004B0B00
(1.897000) can0 247#DF0EFF0B00510B00
(1.899000) can0 247#DF0EFF0B00560B00
(1.901000) can0 247#ED0EFF0B005E0B00
(1.906000) can0 247#F00EFF0B00650B00
(1.910000) can0 247#D60EFF0B006C0B00
(1.917000) can0 247#C90EFF0B00740B00
(1.924000) can0 247#F20EFF0B007A0B00
(1.926000) can0 247#CC0EFF0B00800B00
(1.928000) can0 247#D60EFF0B00870B00
(1.930000) can0 247#CF0EFF0B008E0B00
(1.932000) can0 247#E10EFF0B00950B00
(1.934000) can0 247#CB0EFF0B00990B00
(1.936000) can0 247#CB0EFF0B009D0B00
(1.937000) can0 247#F40EFF0B00A40B00
(1.939000) can0 247#F50EFF0B00AA0B00
(1.941000) can0 247#CB0EFF0B00B20B00
(1.943000) can0 247#D60EFF0B00B90B00
(1.945000) can0 247#E70EFF0B00BE0B00
(1.952000) can0 247#D30EFF0B00C30B00
(1.957000) can0 247#DF0EFF0B00C70B00
(1.961000) can0 247#DD0EFF0B00CB0B00
(1.966000) can0 247#CE0EFF0B00D00B00
(1.968000) can0 247#F30EFF0B00D80B00
(1.970000) can0 247#C90EFF0B00E00B00
(1.972000) can0 247#E60EFF0B00E70B00
(1.974000) can0 247#DC0EFF0B00EF0B00
(1.976000) can0 247#E00EFF0B00F30B00
(1.978000) can0 247#DB0EFF0B00FB0B00
(1.980000) can0 247#F70EFF0B00030C00
(1.981000) can0 247#EE0EFF0B00090C00
(1.983000) can0 247#F00EFF0B000E0C00
(1.985000) can0 247#EF0EFF0B00130C00
(1.987000) can0 247#EC0EFF0B00170C00
(1.991000) can0 247#EB0EFF0B001E0C00
(1.992000) can0 247#CF0EFF0B00260C00
(1.994000) can0 247#F70EFF0B002A0C00
(1.996000) can0 247#D90EFF0B002F0C00
(1.998000) can0 247#DD0EFF0B00350C00
(2.000000) can0 247#E10EFF0B00390C00
(2.002000) can0 247#ED0EFF0B003D0C00
(2.004000) can0 247#E80EFF0B00420C00
(2.005000) can0 247#E20EFF0B00470C00
(2.007000) can0 247#F70EFF0B004F0C00
(2.010000) can0 247#EF0EFF0B00560C00
(2.018000) can0 247#D30EFF0B005D0C00
(2.024000) can0 247#CB0EFF0B00610C00
(2.028000) can0 247#F00EFF0B00660C00
(2.032000) can0 247#F30EFF0B006D0C00
(2.034000) can0 247#E90EFF0B00740C00
(2.036000) can0 247#D80EFF0B00790C00
(2.038000) can0 247#EE0EFF0B007F0C00
(2.039000) can0 247#D80EFF0B00830C00
(2.041000) can0 247#E80EFF0B00880C00
(2.043000) can0 247#E20EFF0B00900C00
(2.045000) can0 247#D80EFF0B00960C00
(2.047000) can0 247#CE0EFF0B009A0C00
(2.049000) can0 247#DB0EFF0B009E0C00
(2.051000) can0 247#E10EFF0B00A30C00
(2.053000) can0 247#CD0EFF0B00A70C00
(2.055000) can0 247#F60EFF0B00AD0C00
(2.057000) can0 247#CC0EFF0B00B50C00
(2.060000) can0 247#F00EFF0B00BC0C00
(2.062000) can0 247#E00EFF0B00C40C00
(2.064000) can0 247#F60EFF0B00C80C00
(2.066000) can0 247#E00EFF0B00D00C00
(2.068000) can0 247#F70EFF0B00D60C00
(2.070000) can0 247#F50EFF0B00DB0C00
(2.072000) can0 247#CF0EFF0B00E30C00
(2.074000) can0 247#F50EFF0B00EB0C00
(2.076000) can0 247#DB0EFF0B00F20C00
(2.078000) can0 247#DC0EFF0B00FA0C00
(2.084000) can0 247#D00EFF0B00FE0C00
(2.086000) can0 247#D80EFF0B00020D00
(2.088000) can0 247#D50EFF0B000A0D00
(2.090000) can0 247#D80EFF0B00120D00
(2.094000) can0 247#D10EFF0B00190D00
(2.101000) can0 247#CD0EFF0B001E0D00
(2.105000) can0 247#ED0EFF0B00250D00
(2.109000) can0 247#E90EFF0B002C0D00
(2.112000) can0 247#CA0EFF0B00310D00
(2.114000) can0 247#CD0EFF0B00360D00
(2.116000) can0 247#ED0EFF0B003C0D00
(2.118000) can0 247#D10EFF0B00420D00
(2.124000) can0 247#F50EFF0B00480D00
(2.126000) can0 247#ED0EFF0B004E0D00
(2.128000) can0 247#EF0EFF0B00530D00
(2.130000) can0 247#E00EFF0B00590D00
(2.131000) can0 247#D80EFF0B005D0D00
(2.134000) can0 247#D40EFF0B00650D00
(2.136000) can0 247#E20EFF0B006C0D00
(2.139000) can0 247#F50EFF0B00720D00
(2.141000) can0 247#DF0EFF0B00770D00
(2.143000) can0 247#DD0EFF0B007C0D00
(2.145000) can0 247#D50EFF0B00810D00
(2.147000) can0 247#D30EFF0B00880D00
(2.149000) can0 247#F00EFF0B008F0D00
(2.151000) can0 247#C90EFF0B00930D00
(2.152000) can0 247#F60EFF0B00970D00
(2.154000) can0 247#CB0EFF0B009D0D00
(2.156000) can0 247#DD0EFF0B00A30D00
(2.158000) can0 247#ED0EFF0B00AB0D00
(2.164000) can0 247#D80EFF0B00B00D00
(2.167000) can0 247#D50EFF0B00B60D00
(2.168000) can0 247#E60EFF0B00BD0D00
(2.168000) can0 3FD#0100020000080280
(2.172000) can0 247#EC0EFF0B00C50D00
(2.174000) can0 247#EB0EFF0B00CD0D00
(2.176000) can0 247#EA0EFF0B00D20D00
(2.178000) can0 247#EC0EFF0B00D60D00
(2.180000) can0 247#D80EFF0B00DA0D00
(2.182000) can0 247#D50EFF0B00E10D00
(2.184000) can0 247#F50EFF0B00E50D00
(2.186000) can0 247#CB0EFF0B00EA0D00
(2.188000) can0 247#F10EFF0B00F00D00
(2.190000) can0 247#D70EFF0B00F80D00
(2.192000) can0 247#F60EFF0B00000E00
(2.195000) can0 247#D50EFF0B00080E00
(2.197000) can0 247#DF0EFF0B000F0E00
(2.199000) can0 247#D50EFF0B00140E00
(2.201000) can0 247#E70EFF0B00190E00
(2.203000) can0 247#E80EFF0B00200E00
(2.205000) can0 247#CA0EFF0B00260E00
(2.207000) can0 247#D50EFF0B002A0E00
(2.209000) can0 247#D10EFF0B00320E00
(2.211000) can0 247#EF0EFF0B00370E00
(2.213000) can0 247#DD0EFF0B003D0E00
(2.215000) can0 247#CF0EFF0B00450E00
(2.217000) can0 247#D30EFF0B004B0E00
(2.219000) can0 247#F60EFF0B00530E00
(2.221000) can0 247#DF0EFF0B00590E00
(2.223000) can0 247#E60EFF0B005F0E00
(2.225000) can0 247#F50EFF0B00660E00
(2.227000) can0 247#C80EFF0B006C0E00
(2.230000) can0 247#EC0EFF0B00700E00
(2.232000) can0 247#F20EFF0B00770E00
(2.233000) can0 247#DD0EFF0B007D0E00
(2.235000) can0 247#F40EFF0B00830E00
(2.237000) can0 247#D00EFF0B00870E00
(2.239000) can0 247#F30EFF0B008B0E00
(2.241000) can0 247#E10EFF0B00900E00
(2.243000) can0 247#F00EFF0B00960E00
(2.245000) can0 247#CE0EFF0B009C0E00
(2.247000) can0 247#F40EFF0B00A10E00
(2.249000) can0 247#EA0EFF0B00A80E00
(2.254000) can0 247#E80EFF0B00AC0E00
(2.258000) can0 247#DB0EFF0B00B00E00
(2.267000) can0 247#E10EFF0B00B70E00
(2.276000) can0 247#CD0EFF0B00BC0E00
(2.282000) can0 247#F10EFF0B00C00E00
(2.288000) can0 247#CC0EFF0B00C40E00
(2.290000) can0 247#EE0EFF0B00CC0E00
(2.296000) can0 247#EC0EFF0B00D30E00
(2.298000) can0 247#F30EFF0B00D80E00
(2.300000) can0 247#F60EFF0B00DE0E00
(2.302000) can0 247#CB0EFF0B00E30E00
(2.304000) can0 247#D50EFF0B00E80E00
(2.305000) can0 247#EC0EFF0B00EE0E00
(2.307000) can0 247#DF0EFF0B00F20E00
(2.311000) can0 247#E90EFF0B00FA0E00
(2.315000) can0 247#E70EFF0B00FE0E00
(2.319000) can0 247#E80EFF0B00050F00
(2.326000) can0 247#F40EFF0B000B0F00
(2.330000) can0 247#DA0EFF0B00130F00
(2.332000) can0 247#CB0EFF0B00180F00
(2.334000) can0 247#CA0EFF0B001D0F00
(2.336000) can0 247#F10EFF0B00210F00
(2.338000) can0 247#EA0EFF0B00250F00
(2.340000) can0 247#D60EFF0B002C0F00
(2.342000) can0 247#DA0EFF0B00300F00
(2.344000) can0 247#D80EFF0B00370F00
(2.346000) can0 247#E30EFF0B003B0F00
(2.347000) can0 247#CB0EFF0B00430F00
(2.350000) can0 247#D60EFF0B004A0F00
(2.352000) can0 247#D40EFF0B004E0F00
(2.354000) can0 247#C80EFF0B00540F00
(2.356000) can0 247#EC0EFF0B005C0F00
(2.359000) can0 247#E80EFF0B00620F00
(2.361000) can0 247#CB0EFF0B00670F00
(2.363000) can0 247#DF0EFF0B006B0F00
(2.365000) can0 247#CC0EFF0B00700F00
(2.367000) can0 247#E30EFF0B00740F00
(2.369000) can0 247#F40EFF0B007B0F00
(2.375000) can0 247#EA0EFF0B00820F00
(2.377000) can0 247#E40EFF0B00890F00
(2.379000) can0 247#C80EFF0B00910F00
(2.381000) can0 247#ED0EFF0B00970F00
(2.383000) can0 247#DF0EFF0B009B0F00
(2.385000) can0 247#D60EFF0B00A30F00
(2.387000) can0 247#F40EFF0B00AA0F00
(2.389000) can0 247#F30EFF0B00AE0F00
(2.392000) can0 247#E30EFF0B00B50F00
(2.394000) can0 247#EB0EFF0B00BA0F00
(2.395000) can0 247#C90EFF0B00BE0F00
(2.397000) can0 247#D30EFF0B00C40F00
(2.399000) can0 247#E50EFF0B00CA0F00
(2.401000) can0 247#C80EFF0B00D00F00
(2.403000) can0 247#D90EFF0B00D40F00
(2.405000) can0 247#F10EFF0B00D90F00
(2.407000) can0 247#E70EFF0B00DE0F00
(2.410000) can0 247#E40EFF0B00E30F00
(2.412000) can0 247#DC0EFF0B00EB0F00
(2.413000) can0 247#D20EFF0B00F10F00
(2.415000) can0 247#E30EFF0B00F90F00
(2.417000) can0 247#DF0EFF0B00FF0F00
(2.420000) can0 247#DD0EFF0B00071000
(2.422000) can0 247#EF0EFF0B000B1000
(2.424000) can0 247#EC0EFF0B00121000
(2.425000) can0 247#E60EFF0B001A1000
(2.427000) can0 247#D90EFF0B001E1000
(2.429000) can0 247#C80EFF0B00261000
(2.431000) can0 247#D00EFF0B002A1000
(2.433000) can0 247#CC0EFF0B00321000
(2.435000) can0 247#D60EFF0B00381000
(2.437000) can0 247#F60EFF0B003E1000
(2.439000) can0 247#F30EFF0B00421000
(2.441000) can0 247#EF0EFF0B004A1000
(2.443000) can0 247#DF0EFF0B004E1000
(2.445000) can0 247#E10EFF0B00541000
(2.448000) can0 247#CF0EFF0B005C1000
(2.450000) can0 247#E40EFF0B00621000
(2.452000) can0 247#E00EFF0B00661000
(2.454000) can0 247#DD0EFF0B006E1000
(2.455000) can0 247#DF0EFF0B00761000
(2.457000) can0 247#F60EFF0B007D1000
(2.459000) can0 247#DA0EFF0B00821000
(2.461000) can0 247#DC0EFF0B00861000
(2.463000) can0 247#EF0EFF0B008E1000
(2.466000) can0 247#F40EFF0B00951000
(2.468000) can0 247#D50EFF0B009A1000
(2.469000) can0 247#DD0EFF0B00A21000
(2.471000) can0 247#CE0EFF0B00AA1000
(2.473000) can0 247#EA0EFF0B00B01000
(2.476000) can0 247#CB0EFF0B00B41000
(2.478000) can0 247#F50EFF0B00BA1000
(2.480000) can0 247#F00EFF0B00BF1000
(2.482000) can0 247#C90EFF0B00C41000
(2.484000) can0 247#CA0EFF0B00CB1000
(2.486000) can0 247#EC0EFF0B00CF1000
(2.488000) can0 247#CB0EFF0B00D51000
(2.490000) can0 247#DD0EFF0B00DD1000
(2.491000) can0 247#F50EFF0B00E41000
(2.496000) can0 247#D10EFF0B00EC1000
(2.500000) can0 247#DD0EFF0B00F31000
(2.506000) can0 247#F10EFF0B00F91000
(2.510000) can0 247#D00EFF0B00FE1000
(2.515000) can0 247#EE0EFF0B00031100
(2.521000) can0 247#D80EFF0B00081100
(2.525000) can0 247#EE0EFF0B000E1100
(2.531000) can0 247#EA0EFF0B00151100
(2.538000) can0 247#F50EFF0B00191100
(2.544000) can0 247#CE0EFF0B001F1100
(2.548000) can0 247#D50EFF0B00251100
(2.553000) can0 247#CD0EFF0B002D1100
(2.555000) can0 247#D30EFF0B00311100
(2.557000) can0 247#EB0EFF0B00381100
(2.559000) can0 247#D70EFF0B00401100
(2.561000) can0 247#DC0EFF0B00441100
(2.563000) can0 247#EC0EFF0B004C1100
(2.565000) can0 247#E80EFF0B00521100
(2.567000) can0 247#ED0EFF0B00591100
(2.574000) can0 247#CA0EFF0B005F1100
(2.576000) can0 247#F10EFF0B00671100
(2.578000) can0 247#F50EFF0B006B1100
(2.580000) can0 247#F40EFF0B006F1100
(2.582000) can0 247#DF0EFF0B00751100
(2.584000) can0 247#F70EFF0B007C1100
(2.585000) can0 247#F40EFF0B00821100
(2.587000) can0 247#E50EFF0B00861100
(2.591000) can0 247#E50EFF0B008C1100
(2.595000) can0 247#E10EFF0B00941100
(2.599000) can0 247#F10EFF0B009C1100
(2.603000) can0 247#F60EFF0B00A21100
(2.610000) can0 247#DE0EFF0B00AA1100
(2.611000) can0 247#C90EFF0B00B21100
(2.613000) can0 247#ED0EFF0B00B61100
(2.616000) can0 247#E00EFF0B00BB1100
(2.618000) can0 247#D80EFF0B00C21100
(2.624000) can0 247#D20EFF0B00CA1100
(2.626000) can0 247#EC0EFF0B00D21100
(2.628000) can0 247#F10EFF0B00D71100
(2.630000) can0 247#F60EFF0B00DC1100
(2.631000) can0 247#ED0EFF0B00E41100
(2.634000) can0 247#C90EFF0B00E81100
(2.636000) can0 247#D50EFF0B00EF1100
(2.638000) can0 247#CC0EFF0B00F51100
(2.640000) can0 247#DE0EFF0B00FD1100
(2.642000) can0 247#D50EFF0B00041200
(2.644000) can0 247#F30EFF0B000C1200
(2.646000) can0 247#DF0EFF0B00141200
(2.648000) can0 247#D70EFF0B00181200
(2.650000) can0 247#DA0EFF0B001D1200
(2.652000) can0 247#E20EFF0B00251200
(2.654000) can0 247#CE0EFF0B002C1200
(2.656000) can0 247#EA0EFF0B00321200
(2.658000) can0 247#D20EFF0B00391200
(2.660000) can0 247#F60EFF0B00411200
(2.662000) can0 247#E10EFF0B00471200
(2.664000) can0 247#C80EFF0B004D1200
(2.666000) can0 247#E80EFF0B00521200
(2.668000) can0 247#D30EFF0B00571200
(2.670000) can0 247#CE0EFF0B005D1200
(2.675000) can0 247#D80EFF0B00631200
(2.675000) can0 3FD#0100020000080280
(2.683000) can0 247#E10EFF0B00671200
(2.688000) can0 247#CF0EFF0B006E1200
(2.691000) can0 247#CA0EFF0B00751200
(2.692000) can0 247#DB0EFF0B007B1200
(2.694000) can0 247#EC0EFF0B00821200
(2.696000) can0 247#D50EFF0B00881200
(2.698000) can0 247#C80EFF0B008D1200
(2.702000) can0 247#D30EFF0B00951200
(2.708000) can0 247#CB0EFF0B009B1200
(2.714000) can0 247#DC0EFF0B009F1200
(2.718000) can0 247#CD0EFF0B00A61200
(2.720000) can0 247#D70EFF0B00AA1200
(2.722000) can0 247#EE0EFF0B00AF1200
(2.724000) can0 247#F60EFF0B00B41200
(2.726000) can0 247#D80EFF0B00BC1200
(2.729000) can0 247#E80EFF0B00C21200
(2.731000) can0 247#D40EFF0B00C71200
(2.732000) can0 247#D90EFF0B00CE1200
(2.734000) can0 247#CA0EFF0B00D41200
(2.736000) can0 247#ED0EFF0B00DA1200
(2.738000) can0 247#E80EFF0B00E21200
(2.746000) can0 247#EA0EFF0B00E91200
(2.746000) can0 3FD#0100020000080280
(2.749000) can0 247#F10EFF0B00ED1200
(2.751000) can0 247#DE0EFF0B00F21200
(2.753000) can0 247#EE0EFF0B00F71200
(2.755000) can0 247#DE0EFF0B00FD1200
(2.757000) can0 247#DB0EFF0B00051300
(2.759000) can0 247#DE0EFF0B000A1300
(2.765000) can0 247#EE0EFF0B00111300
(2.770000) can0 247#E60EFF0B00181300
(2.777000) can0 247#D30EFF0B00201300
(2.783000) can0 247#D20EFF0B00251300
(2.787000) can0 247#F10EFF0B002C1300
(2.795000) can0 247#F10EFF0B00321300
(2.798000) can0 247#D30EFF0B00381300
(2.800000) can0 247#F10EFF0B003F1300
(2.801000) can0 247#CD0EFF0B00451300
(2.803000) can0 247#F30EFF0B00491300
(2.805000) can0 247#EF0EFF0B004E1300
(2.807000) can0 247#C90EFF0B00541300
(2.809000) can0 247#DE0EFF0B005C1300
(2.811000) can0 247#C80EFF0B00621300
(2.813000) can0 247#EB0EFF0B00691300
(2.815000) can0 247#F30EFF0B00701300
(2.817000) can0 247#E40EFF0B00781300
(2.819000) can0 247#F00EFF0B007C1300
(2.821000) can0 247#CE0EFF0B00821300
(2.824000) can0 247#EE0EFF0B00891300
(2.826000) can0 247#DF0EFF0B008E1300
(2.828000) can0 247#F40EFF0B00951300
(2.830000) can0 247#DB0EFF0B009D1300
(2.832000) can0 247#E10EFF0B00A21300
(2.834000) can0 247#CC0EFF0B00A71300
(2.836000) can0 247#D80EFF0B00AC1300
(2.838000) can0 247#DC0EFF0B00B31300
(2.840000) can0 247#E70EFF0B00B71300
(2.841000) can0 247#F60EFF0B00BD1300
(2.843000) can0 247#D20EFF0B00C21300
(2.846000) can0 247#E20EFF0B00C71300
(2.848000) can0 247#E20EFF0B00CB1300
(2.850000) can0 247#F50EFF0B00CF1300
(2.853000) can0 247#F70EFF0B00D41300
(2.855000) can0 247#D40EFF0B00DB1300
(2.857000) can0 247#F40EFF0B00DF1300
(2.863000) can0 247#D40EFF0B00E71300
(2.865000) can0 247#D80EFF0B00ED1300
(2.867000) can0 247#E30EFF0B00F51300
(2.869000) can0 247#D30EFF0B00FA1300
(2.871000) can0 247#D30EFF0B00FF1300
(2.873000) can0 247#E60EFF0B00061400
(2.875000) can0 247#DA0EFF0B000D1400
(2.877000) can0 247#EB0EFF0B00121400
(2.879000) can0 247#F70EFF0B001A1400
(2.881000) can0 247#F20EFF0B00221400
(2.883000) can0 247#D90EFF0B002A1400
(2.886000) can0 247#F50EFF0B00311400
(2.888000) can0 247#F40EFF0B00391400
(2.890000) can0 247#DD0EFF0B003D1400
(2.892000) can0 247#F70EFF0B00421400
(2.894000) can0 247#D40EFF0B00471400
(2.896000) can0 247#F40EFF0B004D1400
(2.898000) can0 247#F60EFF0B00511400
(2.900000) can0 247#CC0EFF0B00571400
(2.902000) can0 247#D60EFF0B005C1400
(2.904000) can0 247#E30EFF0B00621400
(2.905000) can0 247#EB0EFF0B00661400
(2.912000) can0 247#E20EFF0B006B1400
(2.916000) can0 247#ED0EFF0B00721400
(2.922000) can0 247#D40EFF0B00791400
(2.928000) can0 247#D30EFF0B00801400
(2.934000) can0 247#F70EFF0B00841400
(2.940000) can0 247#E40EFF0B00891400
(2.944000) can0 247#C80EFF0B00911400
(2.947000) can0 247#DA0EFF0B00961400
(2.948000) can0 247#F10EFF0B009E1400
(2.950000) can0 247#CC0EFF0B00A41400
(2.952000) can0 247#D30EFF0B00AA1400
(2.954000) can0 247#E20EFF0B00B21400
(2.956000) can0 247#DA0EFF0B00B91400
(2.958000) can0 247#D40EFF0B00C11400
(2.960000) can0 247#F60EFF0B00C71400
(2.962000) can0 247#E60EFF0B00CC1400
(2.964000) can0 247#E30EFF0B00D41400
(2.967000) can0 247#CF0EFF0B00DC1400
(2.969000) can0 247#D30EFF0B00E01400
(2.971000) can0 247#DB0EFF0B00E41400
(2.973000) can0 247#EF0EFF0B00E91400
(2.975000) can0 247#D00EFF0B00EF1400
(2.977000) can0 247#EE0EFF0B00F51400
(2.979000) can0 247#DB0EFF0B00F91400
(2.981000) can0 247#F00EFF0B00FF1400
(2.983000) can0 247#F10EFF0B00061500
(2.985000) can0 247#EC0EFF0B000A1500
(2.987000) can0 247#D60EFF0B000F1500
(2.989000) can0 247#ED0EFF0B00141500
(2.991000) can0 247#D20EFF0B001A1500
(2.993000) can0 247#EA0EFF0B001E1500
(2.996000) can0 247#CF0EFF0B00231500
(2.998000) can0 247#E60EFF0B002B1500
(3.000000) can0 247#D00EFF0B00301500
(3.002000) can0 247#E20EFF0B00361500
(3.003000) can0 247#CB0EFF0B003B1500
(3.005000) can0 247#F40EFF0B00431500
(3.007000) can0 247#D40EFF0B004B1500
(3.009000) can0 247#E30EFF0B00501500
(3.011000) can0 247#DD0EFF0B00561500
(3.013000) can0 247#D10EFF0B005C1500
(3.015000) can0 247#D50EFF0B00611500
(3.018000) can0 247#EE0EFF0B00671500
(3.025000) can0 247#DB0EFF0B006D1500
(3.032000) can0 247#EA0EFF0B00741500
(3.039000) can0 247#E30EFF0B007A1500
(3.045000) can0 247#F50EFF0B007F1500
(3.051000) can0 247#DD0EFF0B00851500
(3.055000) can0 247#C80EFF0B00891500
(3.057000) can0 247#F30EFF0B00901500
(3.059000) can0 247#DE0EFF0B00951500
(3.061000) can0 247#E20EFF0B009B1500
(3.063000) can0 247#DE0EFF0B00A31500
(3.065000) can0 247#EF0EFF0B00A91500
(3.067000) can0 247#C80EFF0B00AF1500
(3.069000) can0 247#EB0EFF0B00B71500
(3.071000) can0 247#D50EFF0B00BC1500
(3.073000) can0 247#D10EFF0B00C31500
(3.076000) can0 247#F70EFF0B00CA1500
(3.078000) can0 247#E80EFF0B00D01500
(3.080000) can0 247#F60EFF0B00D81500
(3.082000) can0 247#CE0EFF0B00DE1500
(3.084000) can0 247#E80EFF0B00E61500
(3.086000) can0 247#ED0EFF0B00EB1500
(3.092000) can0 247#DE0EFF0B00F21500
(3.094000) can0 247#DB0EFF0B00F71500
(3.096000) can0 247#EB0EFF0B00FF1500
(3.097000) can0 247#F60EFF0B00041600
(3.099000) can0 247#D50EFF0B000C1600
(3.101000) can0 247#EE0EFF0B00141600
(3.103000) can0 247#ED0EFF0B00181600
(3.105000) can0 247#E40EFF0B001C1600
(3.113000) can0 247#DA0EFF0B00211600
(3.119000) can0 247#CF0EFF0B00291600
(3.124000) can0 247#DD0EFF0B002D1600
(3.126000) can0 247#CB0EFF0B00311600
(3.128000) can0 247#D20EFF0B00391600
(3.130000) can0 247#E40EFF0B003D1600
(3.132000) can0 247#E50EFF0B00411600
(3.133000) can0 247#F40EFF0B00481600
(3.135000) can0 247#D10EFF0B004E1600
(3.137000) can0 247#EF0EFF0B00541600
(3.139000) can0 247#CA0EFF0B00591600
(3.141000) can0 247#F50EFF0B005E1600
(3.143000) can0 247#E00EFF0B00661600
(3.145000) can0 247#D50EFF0B006C1600
(3.148000) can0 247#F70EFF0B00711600
(3.150000) can0 247#F10EFF0B00771600
(3.152000) can0 247#E80EFF0B007F1600
(3.154000) can0 247#F40EFF0B00851600
(3.156000) can0 247#DE0EFF0B00891600
(3.158000) can0 247#DA0EFF0B008F1600
(3.160000) can0 247#F60EFF0B00941600
(3.162000) can0 247#E10EFF0B009C1600
(3.164000) can0 247#D20EFF0B00A21600
(3.166000) can0 247#F10EFF0B00A91600
(3.168000) can0 247#E00EFF0B00AD1600
(3.168000) can0 3FD#0100020000080280
(3.171000) can0 247#D20EFF0B00B51600
(3.173000) can0 247#CA0EFF0B00BC1600
(3.176000) can0 247#ED0EFF0B00C41600
(3.179000) can0 247#F40EFF0B00CA1600
(3.181000) can0 247#D90EFF0B00D01600
(3.183000) can0 247#DF0EFF0B00D71600
(3.185000) can0 247#E50EFF0B00DC1600
(3.186000) can0 247#E90EFF0B00E21600
(3.188000) can0 247#F10EFF0B00E81600
(3.190000) can0 247#D30EFF0B00ED1600
(3.192000) can0 247#F20EFF0B00F51600
(3.194000) can0 247#F10EFF0B00FB1600
(3.196000) can0 247#E90EFF0B00021700
(3.198000) can0 247#CF0EFF0B000A1700
(3.204000) can0 247#F30EFF0B000E1700
(3.210000) can0 247#E10EFF0B00121700
(3.213000) can0 247#DC0EFF0B00161700
(3.215000) can0 247#C80EFF0B001A1700
(3.219000) can0 247#C90EFF0B00211700
(3.220000) can0 247#CB0EFF0B00251700
(3.222000) can0 247#ED0EFF0B002C1700
(3.224000) can0 247#C90EFF0B00331700
(3.226000) can0 247#E60EFF0B00371700
(3.228000) can0 247#E20EFF0B003B1700
(3.230000) can0 247#ED0EFF0B003F1700
(3.232000) can0 247#E50EFF0B00451700
(3.234000) can0 247#D30EFF0B004C1700
(3.236000) can0 247#F40EFF0B00541700
(3.238000) can0 247#F10EFF0B00591700
(3.240000) can0 247#CC0EFF0B00611700
(3.242000) can0 247#C80EFF0B00671700
(3.245000) can0 247#F10EFF0B006B1700
(3.247000) can0 247#E00EFF0B00721700
(3.249000) can0 247#E40EFF0B00771700
(3.251000) can0 247#EA0EFF0B007D1700
(3.252000) can0 247#CA0EFF0B00811700
(3.254000) can0 247#DB0EFF0B00871700
(3.256000) can0 247#EC0EFF0B008F1700
(3.258000) can0 247#CC0EFF0B00961700
(3.260000) can0 247#D30EFF0B009E1700
(3.262000) can0 247#E90EFF0B00A21700
(3.264000) can0 247#CE0EFF0B00A71700
(3.266000) can0 247#E50EFF0B00AD1700
(3.279000) can0 247#EE0EFF0B00B21700
(3.288000) can0 247#F70EFF0B00BA1700
(3.295000) can0 247#C80EFF0B00C01700
(3.300000) can0 247#EC0EFF0B00C41700
(3.302000) can0 247#D60EFF0B00CC1700
(3.304000) can0 247#DD0EFF0B00D31700
(3.306000) can0 247#DB0EFF0B00DA1700
(3.308000) can0 247#CE0EFF0B00DE1700
(3.310000) can0 247#E80EFF0B00E61700
(3.312000) can0 247#DE0EFF0B00ED1700
(3.313000) can0 247#F10EFF0B00F11700
(3.315000) can0 247#D60EFF0B00F61700
(3.317000) can0 247#DD0EFF0B00FB1700
(3.323000) can0 247#CC0EFF0B00011800
(3.327000) can0 247#F40EFF0B00051800
(3.331000) can0 247#ED0EFF0B00091800
(3.335000) can0 247#D00EFF0B00111800
(3.340000) can0 247#F00EFF0B00171800
(3.346000) can0 247#E90EFF0B001B1800
(3.348000) can0 247#E10EFF0B00221800
(3.350000) can0 247#F60EFF0B00261800
(3.352000) can0 247#D20EFF0B002E1800
(3.354000) can0 247#EE0EFF0B00341800
(3.356000) can0 247#DF0EFF0B003A1800
(3.358000) can0 247#E60EFF0B003E1800
(3.359000) can0 247#DA0EFF0B00441800
(3.361000) can0 247#DE0EFF0B004B1800
(3.363000) can0 247#D20EFF0B00501800
(3.366000) can0 247#DC0EFF0B00571800
(3.368000) can0 247#ED0EFF0B005F1800
(3.370000) can0 247#DA0EFF0B00641800
(3.373000) can0 247#EE0EFF0B006A1800
(3.375000) can0 247#D60EFF0B00711800
(3.377000) can0 247#CF0EFF0B00781800
(3.379000) can0 247#EA0EFF0B007D1800
(3.380000) can0 247#CD0EFF0B00821800
(3.382000) can0 247#F40EFF0B00861800
(3.384000) can0 247#F30EFF0B008D1800
(3.386000) can0 247#D80EFF0B00911800
(3.388000) can0 247#DA0EFF0B00961800
(3.390000) can0 247#F20EFF0B009C1800
(3.392000) can0 247#CC0EFF0B00A31800
(3.394000) can0 247#D30EFF0B00A81800
(3.396000) can0 247#EF0EFF0B00AF1800
(3.398000) can0 247#E20EFF0B00B51800
(3.400000) can0 247#E20EFF0B00BD1800
(3.403000) can0 247#D40EFF0B00C51800
(3.405000) can0 247#EC0EFF0B00CA1800
(3.407000) can0 247#E70EFF0B00D01800
(3.409000) can0 247#D90EFF0B00D41800
(3.411000) can0 247#E40EFF0B00DA1800
(3.413000) can0 247#ED0EFF0B00DE1800
(3.415000) can0 247#F50EFF0B00E31800
(3.417000) can0 247#F40EFF0B00E91800
(3.419000) can0 247#EB0EFF0B00EF1800
(3.420000) can0 247#D70EFF0B00F51800
(3.423000) can0 247#C90EFF0B00F91800
(3.425000) can0 247#D60EFF0B00011900
(3.427000) can0 247#D40EFF0B00081900
(3.429000) can0 247#D10EFF0B000C1900
(3.432000) can0 247#E50EFF0B00111900
(3.434000) can0 247#DF0EFF0B00191900
(3.436000) can0 247#D70EFF0B001D1900
(3.438000) can0 247#E30EFF0B00221900
(3.444000) can0 247#E30EFF0B00271900
(3.446000) can0 247#D60EFF0B002E1900
(3.448000) can0 247#D10EFF0B00331900
(3.450000) can0 247#F20EFF0B003A1900
(3.452000) can0 247#E30EFF0B003E1900
(3.454000) can0 247#CF0EFF0B00461900
(3.456000) can0 247#F20EFF0B004B1900
(3.458000) can0 247#F70EFF0B00511900
(3.460000) can0 247#D20EFF0B00581900
(3.462000) can0 247#EA0EFF0B005D1900
(3.465000) can0 247#E10EFF0B00621900
(3.467000) can0 247#D40EFF0B00671900
(3.469000) can0 247#F10EFF0B006B1900
(3.471000) can0 247#D80EFF0B00721900
(3.473000) can0 247#F10EFF0B00781900
(3.475000) can0 247#D40EFF0B007C1900
(3.477000) can0 247#DF0EFF0B00811900
(3.479000) can0 247#DF0EFF0B00861900
(3.481000) can0 247#DA0EFF0B008D1900
(3.484000) can0 247#EA0EFF0B00931900
(3.485000) can0 247#F70EFF0B009A1900
(3.487000) can0 247#F70EFF0B009F1900
(3.489000) can0 247#E30EFF0B00A51900
(3.491000) can0 247#F20EFF0B00AB1900
(3.498000) can0 247#F30EFF0B00B01900
(3.504000) can0 247#E40EFF0B00B81900
(3.510000) can0 247#CD0EFF0B00BE1900
(3.512000) can0 247#E40EFF0B00C41900
(3.513000) can0 247#CB0EFF0B00CC1900
(3.515000) can0 247#DD0EFF0B00D21900
(3.517000) can0 247#D60EFF0B00D71900
(3.520000) can0 247#C80EFF0B00DD1900
(3.526000) can0 247#E90EFF0B00E41900
(3.531000) can0 247#E00EFF0B00E81900
(3.537000) can0 247#D40EFF0B00EC1900
(3.541000) can0 247#E60EFF0B00F21900
(3.543000) can0 247#F30EFF0B00F91900
(3.545000) can0 247#E40EFF0B00011A00
(3.547000) can0 247#E30EFF0B00071A00
(3.554000) can0 247#D90EFF0B000D1A00
(3.556000) can0 247#EE0EFF0B00111A00
(3.558000) can0 247#D40EFF0B00181A00
(3.564000) can0 247#D70EFF0B001D1A00
(3.566000) can0 247#CC0EFF0B00251A00
(3.568000) can0 247#E70EFF0B00291A00
(3.570000) can0 247#F50EFF0B00311A00
(3.572000) can0 247#D90EFF0B00391A00
(3.575000) can0 247#CB0EFF0B003F1A00
(3.576000) can0 247#DB0EFF0B00471A00
(3.579000) can0 247#EF0EFF0B004C1A00
(3.580000) can0 247#F70EFF0B00511A00
(3.582000) can0 247#EA0EFF0B00571A00
(3.589000) can0 247#C90EFF0B005F1A00
(3.593000) can0 247#DF0EFF0B00661A00
(3.599000) can0 247#F70EFF0B006A1A00
(3.603000) can0 247#DF0EFF0B006F1A00
(3.605000) can0 247#CA0EFF0B00741A00
(3.607000) can0 247#D70EFF0B00791A00
(3.609000) can0 247#EC0EFF0B00801A00
(3.611000) can0 247#E70EFF0B00851A00
(3.613000) can0 247#DB0EFF0B008A1A00
(3.615000) can0 247#CA0EFF0B008E1A00
(3.617000) can0 247#F40EFF0B00951A00
(3.619000) can0 247#E60EFF0B009C1A00
(3.621000) can0 247#D00EFF0B00A21A00
(3.623000) can0 247#DA0EFF0B00A91A00
(3.626000) can0 247#CE0EFF0B00AF1A00
(3.628000) can0 247#F10EFF0B00B41A00
(3.630000) can0 247#CE0EFF0B00BC1A00
(3.631000) can0 247#F30EFF0B00C21A00
(3.633000) can0 247#C80EFF0B00C61A00
(3.635000) can0 247#CA0EFF0B00CC1A00
(3.637000) can0 247#D50EFF0B00D31A00
(3.639000) can0 247#CB0EFF0B00D91A00
(3.641000) can0 247#D70EFF0B00DD1A00
(3.644000) can0 247#EA0EFF0B00E21A00
(3.646000) can0 247#DE0EFF0B00E91A00
(3.648000) can0 247#DA0EFF0B00EF1A00
(3.650000) can0 247#D50EFF0B00F41A00
(3.652000) can0 247#E30EFF0B00FC1A00
(3.654000) can0 247#C90EFF0B00001B00
(3.656000) can0 247#E80EFF0B00041B00
(3.658000) can0 247#F60EFF0B000A1B00
(3.660000) can0 247#F00EFF0B00101B00
(3.662000) can0 247#D70EFF0B00171B00
(3.664000) can0 247#F00EFF0B001B1B00
(3.666000) can0 247#F60EFF0B00211B00
(3.668000) can0 247#EB0EFF0B00261B00
(3.670000) can0 247#EC0EFF0B002A1B00
(3.670000) can0 3FD#0100020000080280
(3.680000) can0 247#E40EFF0B00311B00
(3.686000) can0 247#E30EFF0B00351B00
(3.689000) can0 247#EC0EFF0B003B1B00
(3.691000) can0 247#DE0EFF0B003F1B00
(3.693000) can0 247#DE0EFF0B00451B00
(3.695000) can0 247#C80EFF0B00491B00
(3.702000) can0 247#D70EFF0B004F1B00
(3.708000) can0 247#F40EFF0B00571B00
(3.714000) can0 247#E20EFF0B005D1B00
(3.715000) can0 247#D20EFF0B00631B00
(3.717000) can0 247#E40EFF0B00671B00
(3.719000) can0 247#C80EFF0B006B1B00
(3.722000) can0 247#D50EFF0B006F1B00
(3.724000) can0 247#F60EFF0B00751B00
(3.726000) can0 247#DE0EFF0B007D1B00
(3.728000) can0 247#D60EFF0B00841B00
(3.730000) can0 247#E60EFF0B00891B00
(3.731000) can0 247#DD0EFF0B008E1B00
(3.733000) can0 247#E10EFF0B00941B00
(3.735000) can0 247#C80EFF0B009C1B00
(3.738000) can0 247#DD0EFF0B00A31B00
(3.738000) can0 3FD#0100020000080280
(3.741000) can0 247#F60EFF0B00A91B00
(3.743000) can0 247#C90EFF0B00AE1B00
(3.745000) can0 247#F50EFF0B00B31B00
(3.747000) can0 247#D60EFF0B00B91B00
(3.750000) can0 247#C90EFF0B00BE1B00
(3.752000) can0 247#E10EFF0B00C21B00
(3.753000) can0 247#E90EFF0B00C91B00
(3.755000) can0 247#F50EFF0B00D01B00
(3.757000) can0 247#E80EFF0B00D61B00
(3.759000) can0 247#EE0EFF0B00DB1B00
(3.761000) can0 247#E90EFF0B00E11B00
(3.763000) can0 247#CE0EFF0B00E71B00
(3.765000) can0 247#E00EFF0B00ED1B00
(3.767000) can0 247#EA0EFF0B00F21B00
(3.778000) can0 247#DC0EFF0B00F61B00
(3.786000) can0 247#C80EFF0B00FD1B00
(3.792000) can0 247#E10EFF0B00011C00
(3.798000) can0 247#E50EFF0B00071C00
(3.800000) can0 247#F10EFF0B000E1C00
(3.802000) can0 247#C90EFF0B00151C00
(3.804000) can0 247#D50EFF0B001A1C00
(3.806000) can0 247#EE0EFF0B00221C00
(3.808000) can0 247#DC0EFF0B00281C00
(3.810000) can0 247#F30EFF0B002D1C00
(3.811000) can0 247#F00EFF0B00321C00
(3.813000) can0 247#D20EFF0B00381C00
(3.815000) can0 247#E80EFF0B00401C00
(3.819000) can0 247#E60EFF0B00451C00
(3.821000) can0 247#EC0EFF0B004A1C00
(3.823000) can0 247#D90EFF0B004E1C00
(3.825000) can0 247#E20EFF0B00531C00
(3.827000) can0 247#D30EFF0B005A1C00
(3.829000) can0 247#DB0EFF0B005E1C00
(3.831000) can0 247#CB0EFF0B00631C00
(3.833000) can0 247#E20EFF0B00691C00
(3.835000) can0 247#F00EFF0B00711C00
(3.837000) can0 247#E90EFF0B00751C00
(3.839000) can0 247#D20EFF0B00791C00
(3.841000) can0 247#ED0EFF0B00801C00
(3.843000) can0 247#D40EFF0B00861C00
(3.845000) can0 247#EF0EFF0B008B1C00
(3.847000) can0 247#D50EFF0B00931C00
(3.850000) can0 247#D90EFF0B00971C00
(3.852000) can0 247#F30EFF0B009D1C00
(3.854000) can0 247#D10EFF0B00A11C00
(3.855000) can0 247#CE0EFF0B00A61C00
(3.858000) can0 247#F60EFF0B00AB1C00
(3.860000) can0 247#CE0EFF0B00B21C00
(3.862000) can0 247#E40EFF0B00B91C00
(3.864000) can0 247#EA0EFF0B00C11C00
(3.866000) can0 247#CD0EFF0B00C51C00
(3.868000) can0 247#CB0EFF0B00CD1C00
(3.870000) can0 247#EF0EFF0B00D41C00
(3.872000) can0 247#E10EFF0B00DB1C00
(3.874000) can0 247#D40EFF0B00E21C00
(3.876000) can0 247#F70EFF0B00E61C00
(3.879000) can0 247#E80EFF0B00EC1C00
(3.881000) can0 247#D30EFF0B00F41C00
(3.882000) can0 247#E50EFF0B00F91C00
(3.884000) can0 247#D30EFF0B00FF1C00
(3.887000) can0 247#E60EFF0B00031D00
(3.889000) can0 247#E50EFF0B000B1D00
(3.891000) can0 247#CE0EFF0B000F1D00
(3.893000) can0 247#C90EFF0B00141D00
(3.895000) can0 247#D10EFF0B00191D00
(3.897000) can0 247#C80EFF0B001F1D00
(3.899000) can0 247#EE0EFF0B00231D00
(3.900000) can0 247#CE0EFF0B002B1D00
(3.902000) can0 247#C90EFF0B002F1D00
(3.904000) can0 247#E60EFF0B00361D00
(3.909000) can0 247#DE0EFF0B003B1D00
(3.915000) can0 247#D80EFF0B00411D00
(3.921000) can0 247#EE0EFF0B00491D00
(3.927000) can0 247#EA0EFF0B004F1D00
(3.933000) can0 247#F20EFF0B00571D00
(3.939000) can0 247#CD0EFF0B005E1D00
(3.943000) can0 247#C80EFF0B00661D00
(3.945000) can0 247#DC0EFF0B006B1D00
(3.947000) can0 247#F50EFF0B00701D00
(3.949000) can0 247#D40EFF0B00741D00
(3.951000) can0 247#EB0EFF0B00791D00
(3.953000) can0 247#D90EFF0B007D1D00
(3.955000) can0 247#E00EFF0B00811D00
(3.957000) can0 247#F70EFF0B00871D00
(3.959000) can0 247#F30EFF0B008E1D00
(3.962000) can0 247#F30EFF0B00921D00
(3.964000) can0 247#DF0EFF0B009A1D00
(3.966000) can0 247#F00EFF0B009F1D00
(3.969000) can0 247#E10EFF0B00A31D00
(3.970000) can0 247#F40EFF0B00A71D00
(3.972000) can0 247#CE0EFF0B00AB1D00
(3.974000) can0 247#CC0EFF0B00B21D00
(3.976000) can0 247#F60EFF0B00B81D00
(3.978000) can0 247#EB0EFF0B00C01D00
(3.980000) can0 247#D20EFF0B00C61D00
(3.982000) can0 247#E60EFF0B00CC1D00
(3.984000) can0 247#D20EFF0B00D31D00
(3.986000) can0 247#CD0EFF0B00DA1D00
(3.988000) can0 247#CF0EFF0B00DE1D00
(3.990000) can0 247#D30EFF0B00E41D00
(3.992000) can0 247#D10EFF0B00EC1D00
(3.995000) can0 247#D60EFF0B00F41D00
(3.997000) can0 247#ED0EFF0B00FB1D00
(3.999000) can0 247#CA0EFF0B00031E00
(4.001000) can0 247#CE0EFF0B00071E00
(4.003000) can0 247#CA0EFF0B000F1E00
(4.005000) can0 247#F60EFF0B00161E00
(4.007000) can0 247#EE0EFF0B001C1E00
(4.009000) can0 247#F10EFF0B00231E00
(4.011000) can0 247#E20EFF0B002A1E00
(4.013000) can0 247#D60EFF0B00311E00
(4.014000) can0 247#E50EFF0B00351E00
(4.021000) can0 247#EA0EFF0B003D1E00
(4.025000) can0 247#ED0EFF0B00421E00
(4.031000) can0 247#D90EFF0B004A1E00
(4.036000) can0 247#F10EFF0B00511E00
(4.040000) can0 247#F70EFF0B00551E00
(4.047000) can0 247#E20EFF0B005C1E00
(4.053000) can0 247#F60EFF0B00641E00
(4.059000) can0 247#E70EFF0B00681E00
(4.063000) can0 247#E00EFF0B006C1E00
(4.065000) can0 247#DC0EFF0B00701E00
(4.067000) can0 247#DD0EFF0B00781E00
(4.069000) can0 247#EE0EFF0B007F1E00
(4.071000) can0 247#D90EFF0B00831E00
(4.073000) can0 247#CF0EFF0B00871E00
(4.075000) can0 247#D80EFF0B008D1E00
(4.077000) can0 247#DA0EFF0B00931E00
(4.079000) can0 247#EE0EFF0B00991E00
(4.082000) can0 247#ED0EFF0B009D1E00
(4.084000) can0 247#D50EFF0B00A51E00
(4.086000) can0 247#D00EFF0B00AA1E00
(4.088000) can0 247#CA0EFF0B00B01E00
(4.090000) can0 247#D00EFF0B00B81E00
(4.092000) can0 247#DC0EFF0B00BC1E00
(4.094000) can0 247#D80EFF0B00C21E00
(4.095000) can0 247#E50EFF0B00C71E00
(4.097000) can0 247#D40EFF0B00CF1E00
(4.099000) can0 247#D30EFF0B00D51E00
(4.101000) can0 247#D70EFF0B00DA1E00
(4.103000) can0 247#CF0EFF0B00DF1E00
(4.105000) can0 247#DE0EFF0B00E61E00
(4.107000) can0 247#E40EFF0B00EB1E00
(4.115000) can0 247#E40EFF0B00F11E00
(4.119000) can0 247#E80EFF0B00F71E00
(4.126000) can0 247#D80EFF0B00FD1E00
(4.128000) can0 247#F20EFF0B00011F00
(4.130000) can0 247#CF0EFF0B00061F00
(4.132000) can0 247#DD0EFF0B000D1F00
(4.134000) can0 247#E00EFF0B00131F00
(4.136000) can0 247#DA0EFF0B00181F00
(4.138000) can0 247#C80EFF0B001F1F00
(4.140000) can0 247#E80EFF0B00251F00
(4.141000) can0 247#E70EFF0B00291F00
(4.143000) can0 247#CC0EFF0B002E1F00
(4.145000) can0 247#EF0EFF0B00351F00
(4.148000) can0 247#CE0EFF0B003D1F00
(4.151000) can0 247#D10EFF0B00431F00
(4.153000) can0 247#CA0EFF0B004A1F00
(4.155000) can0 247#CD0EFF0B00511F00
(4.156000) can0 247#E60EFF0B00591F00
(4.158000) can0 247#D80EFF0B005F1F00
(4.160000) can0 247#CF0EFF0B00651F00
(4.162000) can0 247#CE0EFF0B006C1F00
(4.164000) can0 247#EF0EFF0B00721F00
(4.166000) can0 247#D80EFF0B00771F00
(4.168000) can0 247#F60EFF0B007B1F00
(4.170000) can0 247#DE0EFF0B00801F00
(4.170000) can0 3FD#0100020000080280
(4.173000) can0 247#E80EFF0B00881F00
(4.176000) can0 247#CC0EFF0B008F1F00
(4.178000) can0 247#D40EFF0B00941F00
(4.180000) can0 247#CF0EFF0B009A1F00
(4.182000) can0 247#CE0EFF0B00A01F00
(4.184000) can0 247#D40EFF0B00A81F00
(4.186000) can0 247#D40EFF0B00AC1F00
(4.188000) can0 247#CF0EFF0B00B11F00
(4.190000) can0 247#D40EFF0B00B61F00
(4.192000) can0 247#CF0EFF0B00BA1F00
(4.194000) can0 247#D20EFF0B00BF1F00
(4.196000) can0 247#DE0EFF0B00C51F00
(4.198000) can0 247#CD0EFF0B00CC1F00
(4.204000) can0 247#E40EFF0B00D11F00
(4.206000) can0 247#E70EFF0B00D61F00
(4.208000) can0 247#D80EFF0B00DB1F00
(4.210000) can0 247#E70EFF0B00E31F00
(4.212000) can0 247#EE0EFF0B00E71F00
(4.215000) can0 247#E60EFF0B00EE1F00
(4.219000) can0 247#DD0EFF0B00F21F00
(4.221000) can0 247#DE0EFF0B00F71F00
(4.223000) can0 247#D20EFF0B00FC1F00
(4.224000) can0 247#D10EFF0B00032000
(4.226000) can0 247#EF0EFF0B000B2000
(4.228000) can0 247#D50EFF0B00102000
(4.230000) can0 247#D30EFF0B00182000
(4.232000) can0 247#D30EFF0B001E2000
(4.234000) can0 247#E80EFF0B00222000
(4.236000) can0 247#C90EFF0B00292000
(4.239000) can0 247#D80EFF0B002F2000
(4.241000) can0 247#CC0EFF0B00372000
(4.243000) can0 247#E90EFF0B003D2000
(4.246000) can0 247#CD0EFF0B00452000
(4.248000) can0 247#F00EFF0B004A2000
(4.250000) can0 247#E00EFF0B00522000
(4.252000) can0 247#EA0EFF0B00592000
(4.254000) can0 247#E10EFF0B005F2000
(4.255000) can0 247#ED0EFF0B00652000
(4.257000) can0 247#D70EFF0B006D2000
(4.259000) can0 247#F30EFF0B00722000
(4.261000) can0 247#F20EFF0B00782000
(4.263000) can0 247#D50EFF0B007C2000
(4.265000) can0 247#EA0EFF0B00812000
(4.269000) can0 247#CF0EFF0B00872000
(4.275000) can0 247#DA0EFF0B008D2000
(4.282000) can0 247#E90EFF0B00922000
(4.292000) can0 247#D10EFF0B00962000
(4.298000) can0 247#E50EFF0B009C2000
(4.302000) can0 247#DE0EFF0B00A02000
(4.305000) can0 247#CF0EFF0B00A72000
(4.307000) can0 247#DC0EFF0B00AF2000
(4.309000) can0 247#E50EFF0B00B72000
(4.311000) can0 247#D90EFF0B00BF2000
(4.313000) can0 247#DC0EFF0B00C62000
(4.315000) can0 247#E40EFF0B00CB2000
(4.317000) can0 247#F00EFF0B00CF2000
(4.319000) can0 247#E60EFF0B00D52000
(4.323000) can0 247#D40EFF0B00DD2000
(4.329000) can0 247#E30EFF0B00E12000
(4.333000) can0 247#F70EFF0B00E92000
(4.338000) can0 247#F50EFF0B00F12000
(4.342000) can0 247#F10EFF0B00F82000
(4.344000) can0 247#E80EFF0B00002100
(4.346000) can0 247#E70EFF0B00072100
(4.347000) can0 247#F00EFF0B000F2100
(4.354000) can0 247#D20EFF0B00172100
(4.356000) can0 247#E00EFF0B001B2100
(4.357000) can0 247#C90EFF0B001F2100
(4.359000) can0 247#C90EFF0B00252100
(4.361000) can0 247#D20EFF0B002B2100
(4.364000) can0 247#D30EFF0B00322100
(4.366000) can0 247#F70EFF0B00392100
(4.368000) can0 247#F40EFF0B003F2100
(4.370000) can0 247#EA0EFF0B00472100
(4.372000) can0 247#E70EFF0B004D2100
(4.375000) can0 247#ED0EFF0B00532100
(4.377000) can0 247#EA0EFF0B00572100
(4.379000) can0 247#EF0EFF0B005F2100
(4.381000) can0 247#C80EFF0B00672100
(4.383000) can0 247#EC0EFF0B006E2100
(4.385000) can0 247#E90EFF0B00762100
(4.386000) can0 247#E20EFF0B007D2100
(4.388000) can0 247#D10EFF0B00852100
(4.390000) can0 247#D50EFF0B008C2100
(4.393000) can0 247#E20EFF0B00932100
(4.395000) can0 247#F60EFF0B00992100
(4.397000) can0 247#E60EFF0B00A12100
(4.399000) can0 247#D60EFF0B00A82100
(4.401000) can0 247#E50EFF0B00B02100
(4.403000) can0 247#EF0EFF0B00B62100
(4.405000) can0 247#E00EFF0B00BA2100
(4.407000) can0 247#E10EFF0B00BE2100
(4.409000) can0 247#F50EFF0B00C42100
(4.411000) can0 247#CA0EFF0B00CC2100
(4.413000) can0 247#E80EFF0B00D12100
(4.415000) can0 247#D30EFF0B00D62100
(4.417000) can0 247#F70EFF0B00DC2100
(4.419000) can0 247#D90EFF0B00E32100
(4.421000) can0 247#DB0EFF0B00EA2100
(4.423000) can0 247#E30EFF0B00F12100
(4.425000) can0 247#D10EFF0B00F72100
(4.427000) can0 247#E20EFF0B00FD2100
(4.429000) can0 247#F40EFF0B00032200
(4.432000) can0 247#D70EFF0B00082200
(4.434000) can0 247#F70EFF0B000F2200
(4.435000) can0 247#EA0EFF0B00132200
(4.437000) can0 247#DC0EFF0B001A2200
(4.439000) can0 247#E90EFF0B00222200
(4.441000) can0 247#EB0EFF0B00282200
(4.443000) can0 247#CE0EFF0B002C2200
(4.445000) can0 247#CE0EFF0B00302200
(4.447000) can0 247#E20EFF0B00342200
(4.450000) can0 247#E10EFF0B00392200
(4.452000) can0 247#D70EFF0B003F2200
(4.453000) can0 247#E00EFF0B00472200
(4.455000) can0 247#E20EFF0B004F2200
(4.457000) can0 247#F40EFF0B00562200
(4.460000) can0 247#D70EFF0B005A2200
(4.462000) can0 247#D40EFF0B00602200
(4.464000) can0 247#F60EFF0B00652200
(4.466000) can0 247#D50EFF0B006C2200
(4.467000) can0 247#F10EFF0B00742200
(4.469000) can0 247#D10EFF0B007B2200
(4.471000) can0 247#CF0EFF0B007F2200
(4.473000) can0 247#D50EFF0B00872200
(4.475000) can0 247#CD0EFF0B008B2200
(4.478000) can0 247#F50EFF0B00932200
(4.480000) can0 247#DE0EFF0B00972200
(4.482000) can0 247#DB0EFF0B009D2200
(4.484000) can0 247#DC0EFF0B00A42200
(4.486000) can0 247#D80EFF0B00A92200
(4.489000) can0 247#D90EFF0B00B02200
(4.491000) can0 247#C80EFF0B00B42200
(4.493000) can0 247#EC0EFF0B00BB2200
(4.494000) can0 247#EA0EFF0B00C02200
(4.496000) can0 247#CC0EFF0B00C82200
(4.498000) can0 247#E30EFF0B00CE2200
(4.500000) can0 247#F00EFF0B00D52200
(4.502000) can0 247#CF0EFF0B00DD2200
(4.504000) can0 247#CA0EFF0B00E42200
(4.508000) can0 247#CB0EFF0B00EC2200
(4.514000) can0 247#EE0EFF0B00F32200
(4.520000) can0 247#D40EFF0B00F92200
(4.525000) can0 247#DE0EFF0B00FD2200
(4.536000) can0 247#DE0EFF0B00022300
(4.545000) can0 247#E20EFF0B00082300
(4.550000) can0 247#EE0EFF0B000E2300
(4.557000) can0 247#DB0EFF0B00162300
(4.559000) can0 247#C80EFF0B001D2300
(4.561000) can0 247#DE0EFF0B00232300
(4.563000) can0 247#E90EFF0B002A2300
(4.565000) can0 247#D30EFF0B002F2300
(4.571000) can0 247#D20EFF0B00352300
(4.574000) can0 247#D40EFF0B003B2300
(4.576000) can0 247#ED0EFF0B00402300
(4.577000) can0 247#DD0EFF0B00452300
(4.579000) can0 247#D40EFF0B004B2300
(4.581000) can0 247#EF0EFF0B004F2300
(4.583000) can0 247#CB0EFF0B00572300
(4.585000) can0 247#E20EFF0B005C2300
(4.592000) can0 247#D20EFF0B00622300
(4.598000) can0 247#CD0EFF0B00662300
(4.604000) can0 247#F20EFF0B006B2300
(4.606000) can0 247#C80EFF0B00702300
(4.607000) can0 247#E60EFF0B00772300
(4.609000) can0 247#D80EFF0B007F2300
(4.611000) can0 247#D40EFF0B00852300
(4.614000) can0 247#F10EFF0B008B2300
(4.616000) can0 247#E80EFF0B008F2300
(4.618000) can0 247#D90EFF0B00952300
(4.620000) can0 247#CB0EFF0B009A2300
(4.622000) can0 247#E10EFF0B00A02300
(4.624000) can0 247#EA0EFF0B00A82300
(4.625000) can0 247#C90EFF0B00AF2300
(4.628000) can0 247#CB0EFF0B00B72300
(4.630000) can0 247#CD0EFF0B00BF2300
(4.632000) can0 247#EB0EFF0B00C32300
(4.634000) can0 247#F40EFF0B00CB2300
(4.636000) can0 247#E50EFF0B00CF2300
(4.638000) can0 247#EF0EFF0B00D52300
(4.644000) can0 247#D40EFF0B00DB2300
(4.647000) can0 247#D10EFF0B00E12300
(4.649000) can0 247#D30EFF0B00E92300
(4.651000) can0 247#EB0EFF0B00EF2300
(4.653000) can0 247#E90EFF0B00F32300
(4.655000) can0 247#E70EFF0B00FA2300
(4.656000) can0 247#EA0EFF0B00022400
(4.658000) can0 247#F20EFF0B00082400
(4.661000) can0 247#CC0EFF0B000F2400
(4.663000) can0 247#CC0EFF0B00172400
(4.665000) can0 247#CF0EFF0B001F2400
(4.667000) can0 247#D90EFF0B00272400
(4.667000) can0 3FD#0100020000080280
(4.670000) can0 247#DA0EFF0B002B2400
(4.675000) can0 247#E50EFF0B002F2400
(4.682000) can0 247#CE0EFF0B00342400
(4.687000) can0 247#D60EFF0B00392400
(4.689000) can0 247#E10EFF0B003F2400
(4.691000) can0 247#ED0EFF0B00472400
(4.697000) can0 247#F30EFF0B004D2400
(4.699000) can0 247#F30EFF0B00532400
(4.701000) can0 247#C80EFF0B00582400
(4.703000) can0 247#DC0EFF0B00602400
(4.710000) can0 247#ED0EFF0B00652400
(4.714000) can0 247#D80EFF0B00692400
(4.721000) can0 247#EB0EFF0B006F2400
(4.723000) can0 247#E40EFF0B00742400
(4.725000) can0 247#E20EFF0B007B2400
(4.727000) can0 247#D80EFF0B00812400
(4.730000) can0 247#E00EFF0B00852400
(4.732000) can0 247#D90EFF0B00892400
(4.734000) can0 247#D30EFF0B00902400
(4.736000) can0 247#E30EFF0B00972400
(4.738000) can0 247#EB0EFF0B009F2400
(4.740000) can0 247#CA0EFF0B00A32400
(4.742000) can0 247#E00EFF0B00A72400
(4.744000) can0 247#D10EFF0B00AF2400
(4.746000) can0 247#DD0EFF0B00B72400
(4.748000) can0 247#EB0EFF0B00BF2400
(4.750000) can0 247#F70EFF0B00C72400
(4.752000) can0 247#CA0EFF0B00CB2400
(4.754000) can0 247#D50EFF0B00D32400
(4.756000) can0 247#D20EFF0B00D82400
(4.758000) can0 247#EB0EFF0B00DE2400
(4.760000) can0 247#E00EFF0B00E32400
(4.762000) can0 247#CF0EFF0B00EA2400
(4.764000) can0 247#EA0EFF0B00F02400
(4.766000) can0 247#EC0EFF0B00F52400
(4.768000) can0 247#EE0EFF0B00FC2400
(4.770000) can0 247#ED0EFF0B00022500
(4.772000) can0 247#F70EFF0B00082500
(4.774000) can0 247#E30EFF0B00102500
(4.776000) can0 247#DB0EFF0B00182500
(4.788000) can0 247#CB0EFF0B00202500
(4.796000) can0 247#D20EFF0B00262500
(4.802000) can0 247#F60EFF0B002C2500
(4.808000) can0 247#DD0EFF0B00312500
(4.811000) can0 247#DB0EFF0B00382500
(4.813000) can0 247#E20EFF0B003E2500
(4.815000) can0 247#E00EFF0B00432500
(4.817000) can0 247#E40EFF0B00482500
(4.819000) can0 247#EA0EFF0B004F2500
(4.821000) can0 247#F30EFF0B00552500
(4.823000) can0 247#E50EFF0B00592500
(4.824000) can0 247#CA0EFF0B00602500
(4.827000) can0 247#F20EFF0B00642500
(4.829000) can0 247#F70EFF0B00682500
(4.831000) can0 247#DE0EFF0B006F2500
(4.833000) can0 247#D90EFF0B00732500
(4.835000) can0 247#EC0EFF0B00782500
(4.838000) can0 247#ED0EFF0B007D2500
(4.840000) can0 247#E70EFF0B00822500
(4.840000) can0 3FD#0100020000080280
(4.843000) can0 247#F60EFF0B00892500
(4.844000) can0 247#D20EFF0B008F2500
(4.846000) can0 247#C90EFF0B00952500
(4.848000) can0 247#DE0EFF0B009D2500
(4.850000) can0 247#E20EFF0B00A52500
(4.852000) can0 247#EB0EFF0B00AD2500
(4.854000) can0 247#E50EFF0B00B22500
(4.857000) can0 247#F30EFF0B00BA2500
(4.859000) can0 247#E70EFF0B00BE2500
(4.861000) can0 247#EF0EFF0B00C22500
(4.863000) can0 247#EB0EFF0B00C72500
(4.865000) can0 247#D80EFF0B00CE2500
(4.867000) can0 247#E00EFF0B00D52500
(4.869000) can0 247#F00EFF0B00DA2500
(4.871000) can0 247#DA0EFF0B00E02500
(4.873000) can0 247#CE0EFF0B00E42500
(4.875000) can0 247#D20EFF0B00EC2500
(4.877000) can0 247#CB0EFF0B00F12500
(4.879000) can0 247#DB0EFF0B00F62500
(4.881000) can0 247#D00EFF0B00FE2500
(4.883000) can0 247#F50EFF0B00032600
(4.885000) can0 247#C80EFF0B000B2600
(4.888000) can0 247#E40EFF0B00112600
(4.890000) can0 247#D20EFF0B00152600
(4.892000) can0 247#F70EFF0B001D2600
(4.896000) can0 247#E90EFF0B00242600
(4.902000) can0 247#F30EFF0B002C2600
(4.908000) can0 247#E40EFF0B00332600
(4.912000) can0 247#CD0EFF0B003B2600
(4.914000) can0 247#E10EFF0B00422600
(4.916000) can0 247#C80EFF0B00492600
(4.918000) can0 247#CE0EFF0B004F2600
(4.920000) can0 247#CD0EFF0B00562600
(4.921000) can0 247#CC0EFF0B005D2600
(4.924000) can0 247#EC0EFF0B00632600
(4.926000) can0 247#D50EFF0B006B2600
(4.931000) can0 247#EA0EFF0B00712600
(4.935000) can0 247#CF0EFF0B00772600
(4.939000) can0 247#E50EFF0B007B2600
(4.944000) can0 247#F10EFF0B007F2600
(4.948000) can0 247#EA0EFF0B00842600
(4.950000) can0 247#E40EFF0B008A2600
(4.952000) can0 247#E10EFF0B008F2600
(4.954000) can0 247#E30EFF0B00932600
(4.956000) can0 247#CA0EFF0B009B2600
(4.958000) can0 247#EE0EFF0B00A12600
(4.960000) can0 247#DF0EFF0B00A52600
(4.961000) can0 247#F20EFF0B00AB2600
(4.963000) can0 247#D10EFF0B00B02600
(4.965000) can0 247#E80EFF0B00B62600
(4.968000) can0 247#E50EFF0B00BA2600
(4.970000) can0 247#F70EFF0B00C12600
(4.972000) can0 247#D30EFF0B00C52600
(4.975000) can0 247#E80EFF0B00C92600
(4.977000) can0 247#D70EFF0B00D12600
(4.978000) can0 247#EA0EFF0B00D52600
(4.980000) can0 247#CD0EFF0B00DD2600
(4.982000) can0 247#E10EFF0B00E12600
(4.984000) can0 247#D70EFF0B00E72600
(4.986000) can0 247#D70EFF0B00EC2600
(4.988000) can0 247#CE0EFF0B00F42600
(4.990000) can0 247#E10EFF0B00F82600
(4.992000) can0 247#D60EFF0B00FD2600
(4.993000) can0 247#DA0EFF0B00042700
(4.995000) can0 247#D80EFF0B00092700
(4.998000) can0 247#C90EFF0B00112700
(5.000000) can0 247#D50EFF0B00162700
(5.002000) can0 247#F50EFF0B001D2700
(5.004000) can0 247#E60EFF0B00232700
(5.006000) can0 247#C90EFF0B00292700
(5.008000) can0 247#D80EFF0B002E2700
(5.010000) can0 247#CB0EFF0B00352700
(5.012000) can0 247#F60EFF0B00392700
(5.013000) can0 247#F50EFF0B003F2700
(5.015000) can0 247#D70EFF0B00462700
(5.017000) can0 247#DD0EFF0B004B2700
(5.019000) can0 247#E30EFF0B00512700
(5.021000) can0 247#E70EFF0B00592700
(5.024000) can0 247#DA0EFF0B005F2700
(5.026000) can0 247#EF0EFF0B00632700
(5.032000) can0 247#E50EFF0B006A2700
(5.041000) can0 247#E80EFF0B006E2700
(5.047000) can0 247#DF0EFF0B00722700
(5.053000) can0 247#E60EFF0B00792700
(5.055000) can0 247#E40EFF0B007E2700
(5.057000) can0 247#F50EFF0B00842700
(5.059000) can0 247#E60EFF0B008B2700
(5.060000) can0 247#F00EFF0B00912700
(5.062000) can0 247#E20EFF0B00992700
(5.065000) can0 247#EF0EFF0B009D2700
(5.067000) can0 247#ED0EFF0B00A52700
(5.068000) can0 247#F60EFF0B00AC2700
(5.070000) can0 247#CF0EFF0B00B42700
(5.073000) can0 247#CD0EFF0B00BB2700
(5.076000) can0 247#EC0EFF0B00BF2700
(5.078000) can0 247#F00EFF0B00C32700
(5.084000) can0 247#E80EFF0B00C82700
(5.086000) can0 247#D90EFF0B00CD2700
(5.088000) can0 247#EA0EFF0B00D12700
(5.090000) can0 247#D90EFF0B00D92700
(5.092000) can0 247#E90EFF0B00DE2700
(5.093000) can0 247#E20EFF0B00E42700
(5.095000) can0 247#EB0EFF0B00EA2700
(5.097000) can0 247#EB0EFF0B00EE2700
(5.099000) can0 247#CC0EFF0B00F22700
(5.101000) can0 247#EA0EFF0B00F72700
(5.103000) can0 247#E90EFF0B00FF2700
(5.110000) can0 247#ED0EFF0B00072800
(5.115000) can0 247#CA0EFF0B000B2800
(5.119000) can0 247#E10EFF0B00112800
(5.124000) can0 247#F60EFF0B00192800
(5.126000) can0 247#EA0EFF0B001E2800
(5.128000) can0 247#D90EFF0B00222800
(5.129000) can0 247#D60EFF0B00262800
(5.131000) can0 247#E00EFF0B002E2800
(5.133000) can0 247#EA0EFF0B00352800
(5.135000) can0 247#CB0EFF0B003A2800
(5.137000) can0 247#C80EFF0B003F2800
(5.139000) can0 247#E30EFF0B00442800
(5.141000) can0 247#CC0EFF0B00482800
(5.143000) can0 247#EA0EFF0B004C2800
(5.146000) can0 247#D30EFF0B00512800
(5.149000) can0 247#D80EFF0B00582800
(5.151000) can0 247#E30EFF0B005E2800
(5.153000) can0 247#C90EFF0B00632800
(5.155000) can0 247#E30EFF0B00672800
(5.157000) can0 247#F20EFF0B006E2800
(5.159000) can0 247#DF0EFF0B00762800
(5.161000) can0 247#E20EFF0B007C2800
(5.162000) can0 247#DA0EFF0B00812800
(5.164000) can0 247#DA0EFF0B00862800
(5.166000) can0 247#F10EFF0B008D2800
(5.168000) can0 247#ED0EFF0B00912800
(5.170000) can0 247#DE0EFF0B00992800
(5.172000) can0 247#EE0EFF0B009E2800
(5.172000) can0 3FD#0100020000080280
(5.176000) can0 247#DB0EFF0B00A42800
(5.179000) can0 247#E90EFF0B00AB2800
(5.181000) can0 247#DD0EFF0B00B32800
(5.183000) can0 247#CF0EFF0B00BB2800
(5.185000) can0 247#E60EFF0B00C12800
(5.187000) can0 247#F70EFF0B00C72800
(5.189000) can0 247#E50EFF0B00CB2800
(5.191000) can0 247#CF0EFF0B00D12800
(5.193000) can0 247#EF0EFF0B00D92800
(5.195000) can0 247#EE0EFF0B00DD2800
(5.196000) can0 247#F10EFF0B00E32800
(5.198000) can0 247#EE0EFF0B00E82800
(5.200000) can0 247#E70EFF0B00EE2800
(5.202000) can0 247#CC0EFF0B00F22800
(5.205000) can0 247#F30EFF0B00F92800
(5.207000) can0 247#D80EFF0B00002900
(5.209000) can0 247#CF0EFF0B00042900
(5.211000) can0 247#E90EFF0B00082900
(5.213000) can0 247#C80EFF0B000C2900
(5.215000) can0 247#E30EFF0B00122900
(5.217000) can0 247#E20EFF0B00192900
(5.219000) can0 247#D60EFF0B00212900
(5.221000) can0 247#D40EFF0B00282900
(5.223000) can0 247#E70EFF0B002D2900
(5.225000) can0 247#F00EFF0B00342900
(5.227000) can0 247#CE0EFF0B003A2900
(5.229000) can0 247#E90EFF0B003E2900
(5.231000) can0 247#ED0EFF0B00452900
(5.233000) can0 247#ED0EFF0B004B2900
(5.236000) can0 247#F30EFF0B00512900
(5.238000) can0 247#F10EFF0B00582900
(5.244000) can0 247#EE0EFF0B005D2900
(5.246000) can0 247#F50EFF0B00632900
(5.248000) can0 247#D30EFF0B006B2900
(5.250000) can0 247#D60EFF0B00712900
(5.252000) can0 247#E80EFF0B00792900
(5.254000) can0 247#D30EFF0B00802900
(5.256000) can0 247#E70EFF0B00852900
(5.257000) can0 247#DB0EFF0B008C2900
(5.259000) can0 247#F10EFF0B00902900
(5.261000) can0 247#DA0EFF0B00982900
(5.265000) can0 247#DA0EFF0B00A02900
(5.271000) can0 247#D70EFF0B00A72900
(5.278000) can0 247#EE0EFF0B00AD2900
(5.284000) can0 247#EF0EFF0B00B42900
(5.292000) can0 247#CC0EFF0B00BB2900
(5.296000) can0 247#D60EFF0B00C02900
(5.304000) can0 247#CF0EFF0B00C72900
(5.310000) can0 247#CB0EFF0B00CE2900
(5.316000) can0 247#D50EFF0B00D52900
(5.324000) can0 247#DD0EFF0B00DC2900
(5.326000) can0 247#C90EFF0B00E22900
(5.328000) can0 247#D30EFF0B00E92900
(5.330000) can0 247#D40EFF0B00EE2900
(5.332000) can0 247#F30EFF0B00F22900
(5.336000) can0 247#E30EFF0B00F72900
(5.342000) can0 247#F00EFF0B00FC2900
(5.347000) can0 247#D90EFF0B00042A00
(5.353000) can0 247#C80EFF0B000C2A00
(5.355000) can0 247#D90EFF0B00112A00
(5.357000) can0 247#D60EFF0B00172A00
(5.359000) can0 247#F30EFF0B001C2A00
(5.361000) can0 247#DD0EFF0B00212A00
(5.363000) can0 247#C80EFF0B00262A00
(5.365000) can0 247#D30EFF0B002C2A00
(5.366000) can0 247#E90EFF0B00312A00
(5.368000) can0 247#EA0EFF0B00392A00
(5.370000) can0 247#DA0EFF0B00402A00
(5.372000) can0 247#E90EFF0B00472A00
(5.375000) can0 247#CC0EFF0B004E2A00
(5.377000) can0 247#DF0EFF0B00562A00
(5.380000) can0 247#E70EFF0B005B2A00
(5.382000) can0 247#DC0EFF0B00602A00
(5.384000) can0 247#EA0EFF0B00672A00
(5.385000) can0 247#DD0EFF0B006C2A00
(5.387000) can0 247#D20EFF0B00742A00
(5.389000) can0 247#F30EFF0B007A2A00
(5.391000) can0 247#F40EFF0B007E2A00
(5.393000) can0 247#C90EFF0B00832A00
(5.395000) can0 247#DE0EFF0B00882A00
(5.397000) can0 247#F00EFF0B008D2A00
(5.399000) can0 247#F70EFF0B00922A00
(5.400000) can0 247#E10EFF0B00972A00
(5.403000) can0 247#CC0EFF0B009B2A00
(5.405000) can0 247#E20EFF0B00A22A00
(5.407000) can0 247#D80EFF0B00A82A00
(5.410000) can0 247#DE0EFF0B00AC2A00
(5.412000) can0 247#D20EFF0B00B12A00
(5.413000) can0 247#D60EFF0B00B52A00
(5.415000) can0 247#C90EFF0B00B92A00
(5.419000) can0 247#ED0EFF0B00C02A00
(5.421000) can0 247#E60EFF0B00C52A00
(5.422000) can0 247#D30EFF0B00CC2A00
(5.424000) can0 247#CE0EFF0B00D02A00
(5.426000) can0 247#C80EFF0B00D82A00
(5.428000) can0 247#F50EFF0B00DD2A00
(5.430000) can0 247#C90EFF0B00E52A00
(5.432000) can0 247#DC0EFF0B00EB2A00
(5.434000) can0 247#E10EFF0B00F12A00
(5.436000) can0 247#ED0EFF0B00F92A00
(5.439000) can0 247#EE0EFF0B00FE2A00
(5.441000) can0 247#CF0EFF0B00022B00
(5.443000) can0 247#D60EFF0B00062B00
(5.445000) can0 247#CA0EFF0B000D2B00
(5.447000) can0 247#E90EFF0B00152B00
(5.449000) can0 247#D70EFF0B001D2B00
(5.451000) can0 247#F00EFF0B00212B00
(5.453000) can0 247#D20EFF0B00292B00
(5.455000) can0 247#CF0EFF0B002D2B00
(5.457000) can0 247#F20EFF0B00332B00
(5.459000) can0 247#E00EFF0B00372B00
(5.461000) can0 247#D90EFF0B003B2B00
(5.463000) can0 247#D30EFF0B00412B00
(5.465000) can0 247#E70EFF0B00492B00
(5.468000) can0 247#DC0EFF0B004E2B00
(5.470000) can0 247#F70EFF0B00552B00
(5.472000) can0 247#E80EFF0B005C2B00
(5.474000) can0 247#DF0EFF0B00622B00
(5.476000) can0 247#F70EFF0B00672B00
(5.478000) can0 247#D70EFF0B006C2B00
(5.480000) can0 247#CE0EFF0B00732B00
(5.482000) can0 247#E90EFF0B00792B00
(5.483000) can0 247#E90EFF0B00812B00
(5.485000) can0 247#EC0EFF0B00852B00
(5.488000) can0 247#E80EFF0B00892B00
(5.490000) can0 247#D10EFF0B00902B00
(5.492000) can0 247#DF0EFF0B00942B00
(5.494000) can0 247#DE0EFF0B009C2B00
(5.499000) can0 247#F20EFF0B00A02B00
(5.505000) can0 247#DF0EFF0B00A62B00
(5.509000) can0 247#F60EFF0B00AB2B00
(5.513000) can0 247#CF0EFF0B00B12B00
(5.516000) can0 247#E70EFF0B00B72B00
(5.518000) can0 247#E40EFF0B00BD2B00
(5.520000) can0 247#DA0EFF0B00C52B00
(5.521000) can0 247#D10EFF0B00C92B00
(5.523000) can0 247#D30EFF0B00CF2B00
(5.525000) can0 247#F00EFF0B00D72B00
(5.528000) can0 247#CF0EFF0B00DF2B00
(5.532000) can0 247#DF0EFF0B00E72B00
(5.538000) can0 247#EC0EFF0B00EE2B00
(5.542000) can0 247#D40EFF0B00F52B00
(5.546000) can0 247#E40EFF0B00FC2B00
(5.551000) can0 247#DD0EFF0B00032C00
(5.556000) can0 247#E10EFF0B00072C00
(5.558000) can0 247#ED0EFF0B000E2C00
(5.560000) can0 247#EC0EFF0B00132C00
(5.562000) can0 247#EC0EFF0B001A2C00
(5.564000) can0 247#DD0EFF0B001F2C00
(5.566000) can0 247#DB0EFF0B00242C00
(5.568000) can0 247#D80EFF0B00292C00
(5.570000) can0 247#ED0EFF0B002D2C00
(5.572000) can0 247#E50EFF0B00342C00
(5.574000) can0 247#E70EFF0B003A2C00
(5.576000) can0 247#F10EFF0B003F2C00
(5.578000) can0 247#F30EFF0B00432C00
(5.580000) can0 247#F30EFF0B004B2C00
(5.582000) can0 247#F60EFF0B00502C00
(5.589000) can0 247#C80EFF0B00542C00
(5.593000) can0 247#F00EFF0B00582C00
(5.597000) can0 247#E20EFF0B005E2C00
(5.604000) can0 247#CB0EFF0B00662C00
(5.606000) can0 247#E10EFF0B006D2C00
(5.608000) can0 247#EC0EFF0B00752C00
(5.610000) can0 247#C80EFF0B00792C00
(5.612000) can0 247#E00EFF0B00812C00
(5.615000) can0 247#D80EFF0B00852C00
(5.617000) can0 247#DC0EFF0B008C2C00
(5.618000) can0 247#F70EFF0B00932C00
(5.620000) can0 247#CE0EFF0B00982C00
(5.622000) can0 247#F60EFF0B009F2C00
(5.624000) can0 247#CE0EFF0B00A42C00
(5.627000) can0 247#D60EFF0B00A92C00
(5.629000) can0 247#C80EFF0B00B02C00
(5.631000) can0 247#CD0EFF0B00B52C00
(5.633000) can0 247#D90EFF0B00BD2C00
(5.635000) can0 247#D00EFF0B00C32C00
(5.637000) can0 247#F60EFF0B00C92C00
(5.639000) can0 247#DB0EFF0B00D12C00
(5.641000) can0 247#D10EFF0B00D52C00
(5.643000) can0 247#E20EFF0B00DC2C00
(5.645000) can0 247#D70EFF0B00E22C00
(5.647000) can0 247#D60EFF0B00E92C00
(5.654000) can0 247#CE0EFF0B00EE2C00
(5.656000) can0 247#E20EFF0B00F32C00
(5.658000) can0 247#DE0EFF0B00FB2C00
(5.660000) can0 247#DA0EFF0B00FF2C00
(5.662000) can0 247#EA0EFF0B00042D00
(5.664000) can0 247#C80EFF0B000C2D00
(5.666000) can0 247#DB0EFF0B00102D00
(5.668000) can0 247#EF0EFF0B00142D00
(5.670000) can0 247#E40EFF0B001C2D00
(5.675000) can0 247#E10EFF0B00242D00
(5.675000) can0 3FD#0100020000080280
(5.686000) can0 247#E90EFF0B00282D00
(5.688000) can0 247#EA0EFF0B002C2D00
(5.690000) can0 247#EE0EFF0B00332D00
(5.692000) can0 247#F70EFF0B00382D00
(5.694000) can0 247#E60EFF0B003D2D00
(5.696000) can0 247#D80EFF0B00442D00
(5.698000) can0 247#D90EFF0B00492D00
(5.700000) can0 247#D10EFF0B004E2D00
(5.704000) can0 247#E40EFF0B00562D00
(5.710000) can0 247#F10EFF0B005E2D00
(5.716000) can0 247#EF0EFF0B00632D00
(5.724000) can0 247#DA0EFF0B00692D00
(5.726000) can0 247#DC0EFF0B006D2D00
(5.729000) can0 247#E20EFF0B00752D00
(5.731000) can0 247#CB0EFF0B007B2D00
(5.732000) can0 247#F70EFF0B007F2D00
(5.734000) can0 247#E20EFF0B00862D00
(5.736000) can0 247#ED0EFF0B008C2D00
(5.738000) can0 247#ED0EFF0B00912D00
(5.740000) can0 247#DD0EFF0B00982D00
(5.740000) can0 3FD#0100020000080280
(5.743000) can0 247#D60EFF0B009E2D00
(5.745000) can0 247#F10EFF0B00A22D00
(5.747000) can0 247#E30EFF0B00A72D00
(5.750000) can0 247#E10EFF0B00AE2D00
(5.752000) can0 247#DA0EFF0B00B22D00
(5.754000) can0 247#D80EFF0B00B92D00
(5.756000) can0 247#F10EFF0B00BE2D00
(5.758000) can0 247#F20EFF0B00C32D00
(5.760000) can0 247#E10EFF0B00C72D00
(5.762000) can0 247#F10EFF0B00CD2D00
(5.764000) can0 247#DD0EFF0B00D52D00
(5.766000) can0 247#D50EFF0B00DC2D00
(5.768000) can0 247#EF0EFF0B00E22D00
(5.770000) can0 247#CD0EFF0B00E62D00
(5.772000) can0 247#DF0EFF0B00EB2D00
(5.774000) can0 247#ED0EFF0B00F12D00
(5.776000) can0 247#D20EFF0B00F62D00
(5.777000) can0 247#DB0EFF0B00FB2D00
(5.780000) can0 247#CD0EFF0B00002E00
(5.783000) can0 247#CB0EFF0B00062E00
(5.790000) can0 247#E30EFF0B000C2E00
(5.794000) can0 247#E60EFF0B00142E00
(5.800000) can0 247#E00EFF0B001B2E00
(5.804000) can0 247#E70EFF0B00222E00
(5.806000) can0 247#D00EFF0B002A2E00
(5.808000) can0 247#F20EFF0B00312E00
(5.809000) can0 247#E10EFF0B00392E00
(5.811000) can0 247#EA0EFF0B003E2E00
(5.813000) can0 247#CF0EFF0B00432E00
(5.815000) can0 247#D90EFF0B00492E00
(5.817000) can0 247#DD0EFF0B00502E00
(5.819000) can0 247#F20EFF0B00572E00
(5.822000) can0 247#F40EFF0B005B2E00
(5.824000) can0 247#EA0EFF0B00612E00
(5.826000) can0 247#DF0EFF0B00692E00
(5.828000) can0 247#D30EFF0B00712E00
(5.830000) can0 247#F70EFF0B00782E00
(5.832000) can0 247#D60EFF0B007F2E00
(5.834000) can0 247#F00EFF0B00872E00
(5.836000) can0 247#D50EFF0B008E2E00
(5.838000) can0 247#F50EFF0B00932E00
(5.840000) can0 247#CE0EFF0B00972E00
(5.841000) can0 247#DD0EFF0B009C2E00
(5.844000) can0 247#CB0EFF0B00A02E00
(5.845000) can0 247#CF0EFF0B00A42E00
(5.847000) can0 247#D50EFF0B00AC2E00
(5.850000) can0 247#F50EFF0B00B42E00
(5.852000) can0 247#F20EFF0B00B92E00
(5.855000) can0 247#E00EFF0B00BF2E00
(5.856000) can0 247#CE0EFF0B00C42E00
(5.858000) can0 247#D60EFF0B00C82E00
(5.860000) can0 247#CA0EFF0B00CE2E00
(5.862000) can0 247#F70EFF0B00D62E00
(5.864000) can0 247#DE0EFF0B00DE2E00
(5.866000) can0 247#EC0EFF0B00E42E00
(5.868000) can0 247#E60EFF0B00E92E00
(5.870000) can0 247#C80EFF0B00ED2E00
(5.872000) can0 247#EE0EFF0B00F22E00
(5.874000) can0 247#F30EFF0B00F92E00
(5.876000) can0 247#F10EFF0B00FE2E00
(5.878000) can0 247#E40EFF0B00062F00
(5.881000) can0 247#C90EFF0B000A2F00
(5.883000) can0 247#DD0EFF0B00122F00
(5.885000) can0 247#DC0EFF0B00182F00
(5.887000) can0 247#CE0EFF0B001F2F00
(5.889000) can0 247#F10EFF0B00252F00
(5.891000) can0 247#CE0EFF0B002B2F00
(5.893000) can0 247#C90EFF0B00332F00
(5.895000) can0 247#D90EFF0B00392F00
(5.897000) can0 247#F20EFF0B00402F00
(5.899000) can0 247#CE0EFF0B00472F00
(5.901000) can0 247#DA0EFF0B004C2F00
(5.903000) can0 247#ED0EFF0B00512F00
(5.905000) can0 247#DE0EFF0B00572F00
(5.906000) can0 247#F40EFF0B005D2F00
(5.912000) can0 247#F50EFF0B00652F00
(5.918000) can0 247#CA0EFF0B006B2F00
(5.924000) can0 247#EE0EFF0B00712F00
(5.928000) can0 247#D50EFF0B00772F00
(5.929000) can0 247#D90EFF0B007F2F00
(5.931000) can0 247#D60EFF0B00872F00
(5.933000) can0 247#E30EFF0B008B2F00
(5.935000) can0 247#DE0EFF0B00922F00
(5.937000) can0 247#D50EFF0B00982F00
(5.939000) can0 247#D70EFF0B009F2F00
(5.941000) can0 247#D90EFF0B00A72F00
(5.943000) can0 247#DF0EFF0B00AE2F00
(5.945000) can0 247#CD0EFF0B00B52F00
(5.947000) can0 247#E30EFF0B00BC2F00
(5.953000) can0 247#D30EFF0B00C32F00
(5.959000) can0 247#D20EFF0B00C82F00
(5.966000) can0 247#D50EFF0B00CD2F00
(5.968000) can0 247#D60EFF0B00D52F00
(5.970000) can0 247#DE0EFF0B00DD2F00
(5.972000) can0 247#D50EFF0B00E12F00
(5.974000) can0 247#C90EFF0B00E52F00
(5.976000) can0 247#DC0EFF0B00ED2F00
(5.978000) can0 247#D20EFF0B00F22F00
(5.980000) can0 247#E20EFF0B00F92F00
(5.984000) can0 247#F70EFF0B00013000
(5.986000) can0 247#CB0EFF0B00093000
(5.987000) can0 247#E80EFF0B000F3000
(5.989000) can0 247#D10EFF0B00163000
(5.993000) can0 247#CD0EFF0B001B3000
(5.995000) can0 247#DD0EFF0B00213000
(5.997000) can0 247#F50EFF0B00253000
(5.999000) can0 247#CE0EFF0B00293000
(6.000000) can0 247#F00EFF0B00313000
(6.002000) can0 247#DE0EFF0B00383000
(6.004000) can0 247#DF0EFF0B00403000
(6.006000) can0 247#DD0EFF0B00453000
(6.008000) can0 247#F00EFF0B00493000
(6.010000) can0 247#EA0EFF0B004D3000
(6.012000) can0 247#E60EFF0B00553000
(6.013000) can0 247#F60EFF0B005A3000
(6.020000) can0 247#EA0EFF0B005E3000
(6.022000) can0 247#DA0EFF0B00643000
(6.025000) can0 247#F70EFF0B006A3000
(6.027000) can0 247#D00EFF0B00713000
(6.029000) can0 247#F60EFF0B00773000
(6.031000) can0 247#CA0EFF0B007D3000
(6.035000) can0 247#D20EFF0B00853000
(6.041000) can0 247#F50EFF0B008B3000
(6.045000) can0 247#D90EFF0B00933000
(6.051000) can0 247#D40EFF0B00973000
(6.055000) can0 247#D90EFF0B009E3000
(6.059000) can0 247#EA0EFF0B00A33000
(6.060000) can0 247#DC0EFF0B00A93000
(6.067000) can0 247#EA0EFF0B00B03000
(6.069000) can0 247#D20EFF0B00B83000
(6.071000) can0 247#CA0EFF0B00C03000
(6.074000) can0 247#E50EFF0B00C73000
(6.076000) can0 247#D70EFF0B00CF3000
(6.078000) can0 247#D60EFF0B00D73000
(6.080000) can0 247#C80EFF0B00DD3000
(6.082000) can0 247#E70EFF0B00E43000
(6.084000) can0 247#CB0EFF0B00EC3000
(6.086000) can0 247#CC0EFF0B00F23000
(6.088000) can0 247#CC0EFF0B00F83000
(6.090000) can0 247#F20EFF0B00FD3000
(6.092000) can0 247#DC0EFF0B00033100
(6.093000) can0 247#E40EFF0B00083100
(6.095000) can0 247#DF0EFF0B00103100
(6.097000) can0 247#E60EFF0B00163100
(6.099000) can0 247#DA0EFF0B001D3100
(6.103000) can0 247#DD0EFF0B00223100
(6.110000) can0 247#CE0EFF0B00293100
(6.116000) can0 247#C90EFF0B00303100
(6.121000) can0 247#EF0EFF0B00363100
(6.123000) can0 247#CA0EFF0B003A3100
(6.124000) can0 247#DF0EFF0B00403100
(6.126000) can0 247#D60EFF0B00453100
(6.128000) can0 247#CF0EFF0B004D3100
(6.130000) can0 247#D90EFF0B00533100
(6.132000) can0 247#E60EFF0B00593100
(6.134000) can0 247#DF0EFF0B00613100
(6.136000) can0 247#D40EFF0B00653100
(6.138000) can0 247#D20EFF0B006A3100
(6.140000) can0 247#DC0EFF0B006E3100
(6.142000) can0 247#DD0EFF0B00743100
(6.145000) can0 247#F00EFF0B00793100
(6.147000) can0 247#D00EFF0B007E3100
(6.149000) can0 247#E90EFF0B00843100
(6.151000) can0 247#DD0EFF0B008A3100
(6.153000) can0 247#D50EFF0B00923100
(6.155000) can0 247#CC0EFF0B009A3100
(6.157000) can0 247#E60EFF0B00A13100
(6.158000) can0 247#DF0EFF0B00A83100
(6.160000) can0 247#CE0EFF0B00AE3100
(6.162000) can0 247#F60EFF0B00B43100
(6.164000) can0 247#E90EFF0B00B93100
(6.166000) can0 247#E00EFF0B00C03100
(6.169000) can0 247#CA0EFF0B00C73100
(6.169000) can0 3FD#0100020000080280
(6.172000) can0 247#E90EFF0B00CE3100
(6.174000) can0 247#F10EFF0B00D23100
(6.177000) can0 247#E40EFF0B00D63100
(6.178000) can0 247#E80EFF0B00DE3100
(6.181000) can0 247#D30EFF0B00E33100
(6.182000) can0 247#CB0EFF0B00EB3100
(6.184000) can0 247#CB0EFF0B00F03100
(6.186000) can0 247#CA0EFF0B00F43100
(6.188000) can0 247#D10EFF0B00FB3100
(6.190000) can0 247#E90EFF0B00023200
(6.192000) can0 247#DD0EFF0B000A3200
(6.194000) can0 247#DE0EFF0B00113200
(6.197000) can0 247#CF0EFF0B00163200
(6.199000) can0 247#DD0EFF0B001C3200
(6.200000) can0 247#F30EFF0B00243200
(6.202000) can0 247#F70EFF0B002C3200
(6.205000) can0 247#DE0EFF0B00343200
(6.207000) can0 247#E20EFF0B003A3200
(6.209000) can0 247#DE0EFF0B003E3200
(6.211000) can0 247#D50EFF0B00443200
(6.213000) can0 247#D00EFF0B00483200
(6.215000) can0 247#D00EFF0B004E3200
(6.219000) can0 247#E00EFF0B00523200
(6.221000) can0 247#E90EFF0B00583200
(6.222000) can0 247#DC0EFF0B005F3200
(6.224000) can0 247#C90EFF0B00663200
(6.227000) can0 247#D60EFF0B006B3200
(6.229000) can0 247#C80EFF0B00723200
(6.231000) can0 247#D70EFF0B007A3200
(6.233000) can0 247#D50EFF0B007F3200
(6.235000) can0 247#E30EFF0B00843200
(6.238000) can0 247#E10EFF0B008A3200
(6.239000) can0 247#EE0EFF0B00903200
(6.241000) can0 247#CC0EFF0B00963200
(6.243000) can0 247#E30EFF0B009A3200
(6.245000) can0 247#DF0EFF0B00A03200
(6.247000) can0 247#EC0EFF0B00A73200
(6.253000) can0 247#D10EFF0B00AD3200
(6.255000) can0 247#D90EFF0B00B33200
(6.257000) can0 247#CD0EFF0B00B73200
(6.261000) can0 247#D40EFF0B00BD3200
(6.267000) can0 247#D20EFF0B00C43200
(6.273000) can0 247#E30EFF0B00CB3200
(6.278000) can0 247#F50EFF0B00D13200
(6.280000) can0 247#E20EFF0B00D53200
(6.282000) can0 247#EC0EFF0B00DB3200
(6.285000) can0 247#CF0EFF0B00DF3200
(6.297000) can0 247#E70EFF0B00E73200
(6.304000) can0 247#E00EFF0B00EE3200
(6.306000) can0 247#E20EFF0B00F33200
(6.308000) can0 247#F60EFF0B00F73200
(6.309000) can0 247#D10EFF0B00FD3200
(6.311000) can0 247#D40EFF0B00043300
(6.313000) can0 247#D10EFF0B00093300
(6.317000) can0 247#EE0EFF0B000F3300
(6.323000) can0 247#E00EFF0B00173300
(6.329000) can0 247#F50EFF0B001D3300
(6.334000) can0 247#DD0EFF0B00253300
(6.336000) can0 247#EA0EFF0B002A3300
(6.338000) can0 247#D70EFF0B002E3300
(6.340000) can0 247#ED0EFF0B00363300
(6.342000) can0 247#E00EFF0B003A3300
(6.344000) can0 247#D60EFF0B00403300
(6.346000) can0 247#EE0EFF0B00453300
(6.348000) can0 247#F50EFF0B004B3300
(6.350000) can0 247#E10EFF0B00533300
(6.352000) can0 247#D20EFF0B00583300
(6.355000) can0 247#DD0EFF0B00603300
(6.357000) can0 247#DB0EFF0B00673300
(6.358000) can0 247#EA0EFF0B006D3300
(6.360000) can0 247#D40EFF0B00753300
(6.362000) can0 247#CE0EFF0B007C3300
(6.364000) can0 247#D20EFF0B00813300
(6.367000) can0 247#C80EFF0B00883300
(6.369000) can0 247#F00EFF0B008F3300
(6.371000) can0 247#EC0EFF0B00943300
(6.373000) can0 247#EC0EFF0B00983300
(6.375000) can0 247#DF0EFF0B00A03300
(6.376000) can0 247#EB0EFF0B00A63300
(6.378000) can0 247#CD0EFF0B00AB3300
(6.380000) can0 247#CC0EFF0B00B23300
(6.391000) can0 247#E10EFF0B00B63300
(6.393000) can0 247#DE0EFF0B00BC3300
(6.395000) can0 247#D30EFF0B00C03300
(6.397000) can0 247#F30EFF0B00C73300
(6.399000) can0 247#CE0EFF0B00CE3300
(6.401000) can0 247#EC0EFF0B00D63300
(6.403000) can0 247#E90EFF0B00DC3300
(6.406000) can0 247#E70EFF0B00E23300
(6.407000) can0 247#F10EFF0B00E73300
(6.409000) can0 247#D90EFF0B00EE3300
(6.411000) can0 247#E40EFF0B00F23300
(6.413000) can0 247#D50EFF0B00F93300
(6.415000) can0 247#F40EFF0B00FF3300
(6.417000) can0 247#E50EFF0B00033400
(6.419000) can0 247#C90EFF0B000B3400
(6.421000) can0 247#F60EFF0B00113400
(6.423000) can0 247#DA0EFF0B00183400
(6.425000) can0 247#E20EFF0B001D3400
(6.427000) can0 247#F10EFF0B00253400
(6.429000) can0 247#DC0EFF0B002D3400
(6.431000) can0 247#EF0EFF0B00353400
(6.433000) can0 247#F20EFF0B003D3400
(6.435000) can0 247#C90EFF0B00423400
(6.437000) can0 247#C80EFF0B00473400
(6.439000) can0 247#D40EFF0B004B3400
(6.441000) can0 247#C80EFF0B00533400
(6.443000) can0 247#D50EFF0B00573400
(6.445000) can0 247#ED0EFF0B005F3400
(6.448000) can0 247#EB0EFF0B00673400
(6.450000) can0 247#EE0EFF0B006F3400
(6.452000) can0 247#EE0EFF0B00763400
(6.453000) can0 247#CF0EFF0B007D3400
(6.455000) can0 247#E40EFF0B00843400
(6.457000) can0 247#D00EFF0B00883400
(6.459000) can0 247#E70EFF0B00903400
(6.462000) can0 247#DD0EFF0B00953400
(6.464000) can0 247#D50EFF0B009C3400
(6.466000) can0 247#E30EFF0B00A43400
(6.468000) can0 247#E20EFF0B00AA3400
(6.470000) can0 247#F40EFF0B00B23400
(6.472000) can0 247#D60EFF0B00B63400
(6.474000) can0 247#D90EFF0B00BD3400
(6.476000) can0 247#CF0EFF0B00C23400
(6.478000) can0 247#DD0EFF0B00C63400
(6.480000) can0 247#EC0EFF0B00CA3400
(6.482000) can0 247#CC0EFF0B00D13400
(6.484000) can0 247#E20EFF0B00D63400
(6.486000) can0 247#D30EFF0B00DB3400
(6.488000) can0 247#EE0EFF0B00E03400
(6.495000) can0 247#F20EFF0B00E43400
(6.499000) can0 247#E90EFF0B00EB3400
(6.503000) can0 247#F60EFF0B00EF3400
(6.508000) can0 247#CC0EFF0B00F43400
(6.510000) can0 247#E70EFF0B00F83400
(6.512000) can0 247#DA0EFF0B00FE3400
(6.514000) can0 247#EA0EFF0B00063500
(6.521000) can0 247#EF0EFF0B000A3500
(6.523000) can0 247#CA0EFF0B000F3500
(6.525000) can0 247#F70EFF0B00143500
(6.527000) can0 247#C90EFF0B001B3500
(6.529000) can0 247#E40EFF0B00223500
(6.531000) can0 247#EC0EFF0B00273500
(6.533000) can0 247#D70EFF0B002D3500
(6.543000) can0 247#D30EFF0B00353500
(6.550000) can0 247#F00EFF0B00393500
(6.556000) can0 247#F00EFF0B003E3500
(6.562000) can0 247#E50EFF0B00433500
(6.566000) can0 247#DF0EFF0B00493500
(6.567000) can0 247#D30EFF0B004D3500
(6.570000) can0 247#DC0EFF0B00533500
(6.572000) can0 247#DF0EFF0B005A3500
(6.574000) can0 247#DC0EFF0B00623500
(6.576000) can0 247#F20EFF0B00683500
(6.578000) can0 247#DF0EFF0B006D3500
(6.580000) can0 247#CF0EFF0B00753500
(6.582000) can0 247#CA0EFF0B007B3500
(6.584000) can0 247#CC0EFF0B00833500
(6.585000) can0 247#F40EFF0B008A3500
(6.596000) can0 247#DD0EFF0B008E3500
(6.602000) can0 247#F10EFF0B00953500
(6.606000) can0 247#F70EFF0B009A3500
(6.608000) can0 247#CE0EFF0B009E3500
(6.610000) can0 247#E40EFF0B00A33500
(6.613000) can0 247#CB0EFF0B00AB3500
(6.615000) can0 247#E70EFF0B00B03500
(6.617000) can0 247#DC0EFF0B00B83500
(6.623000) can0 247#DE0EFF0B00BC3500
(6.625000) can0 247#E90EFF0B00C33500
(6.627000) can0 247#E10EFF0B00CB3500
(6.628000) can0 247#EA0EFF0B00CF3500
(6.630000) can0 247#F30EFF0B00D33500
(6.632000) can0 247#D10EFF0B00DA3500
(6.634000) can0 247#D10EFF0B00E23500
(6.637000) can0 247#E30EFF0B00E73500
(6.639000) can0 247#CF0EFF0B00EB3500
(6.641000) can0 247#DD0EFF0B00EF3500
(6.642000) can0 247#EE0EFF0B00F73500
(6.645000) can0 247#D70EFF0B00FF3500
(6.647000) can0 247#CB0EFF0B00053600
(6.649000) can0 247#E30EFF0B00093600
(6.651000) can0 247#CF0EFF0B000E3600
(6.653000) can0 247#F00EFF0B00123600
(6.655000) can0 247#E10EFF0B001A3600
(6.657000) can0 247#DD0EFF0B001E3600
(6.658000) can0 247#F40EFF0B00253600
(6.660000) can0 247#E50EFF0B002A3600
(6.662000) can0 247#D10EFF0B002E3600
(6.664000) can0 247#EC0EFF0B00363600
(6.671000) can0 247#E60EFF0B003B3600
(6.671000) can0 3FD#0100020000080280
(6.682000) can0 247#C90EFF0B003F3600
(6.688000) can0 247#F50EFF0B00433600
(6.690000) can0 247#D60EFF0B00493600
(6.692000) can0 247#C90EFF0B004E3600
(6.694000) can0 247#D90EFF0B00523600
(6.695000) can0 247#F50EFF0B00573600
(6.697000) can0 247#F30EFF0B005E3600
(6.699000) can0 247#CA0EFF0B00633600
(6.701000) can0 247#EA0EFF0B006B3600
(6.703000) can0 247#D40EFF0B00723600
(6.705000) can0 247#D70EFF0B007A3600
(6.707000) can0 247#DA0EFF0B00803600
(6.709000) can0 247#EA0EFF0B00883600
(6.714000) can0 247#D70EFF0B008F3600
(6.720000) can0 247#F00EFF0B00973600
(6.727000) can0 247#D50EFF0B009F3600
(6.730000) can0 247#D50EFF0B00A53600
(6.732000) can0 247#CA0EFF0B00AC3600
(6.734000) can0 247#F10EFF0B00B03600
(6.736000) can0 247#CE0EFF0B00B63600
(6.736000) can0 3FD#0100020000080280
(6.739000) can0 247#CE0EFF0B00BE3600
(6.741000) can0 247#CB0EFF0B00C63600
(6.743000) can0 247#ED0EFF0B00CA3600
(6.745000) can0 247#E00EFF0B00CE3600
(6.747000) can0 247#EC0EFF0B00D53600
(6.748000) can0 247#E90EFF0B00D93600
(6.755000) can0 247#C90EFF0B00DD3600
(6.757000) can0 247#CE0EFF0B00E33600
(6.765000) can0 247#DE0EFF0B00EB3600
(6.767000) can0 247#D80EFF0B00F23600
(6.769000) can0 247#EF0EFF0B00F73600
(6.771000) can0 247#C80EFF0B00FF3600
(6.773000) can0 247#D30EFF0B00073700
(6.775000) can0 247#E70EFF0B000B3700
(6.777000) can0 247#F70EFF0B000F3700
(6.779000) can0 247#D00EFF0B00153700
(6.781000) can0 247#DD0EFF0B001B3700
(6.782000) can0 247#D60EFF0B00213700
(6.784000) can0 247#E30EFF0B00283700
(6.787000) can0 247#EA0EFF0B002E3700
(6.795000) can0 247#CD0EFF0B00363700
(6.800000) can0 247#CA0EFF0B003D3700
(6.805000) can0 247#EE0EFF0B00423700
(6.809000) can0 247#E40EFF0B00493700
(6.811000) can0 247#E40EFF0B00513700
(6.813000) can0 247#D80EFF0B00583700
(6.814000) can0 247#DB0EFF0B005C3700
(6.816000) can0 247#F30EFF0B00633700
(6.818000) can0 247#D50EFF0B00673700
(6.820000) can0 247#CF0EFF0B006C3700
(6.822000) can0 247#CD0EFF0B00733700
(6.824000) can0 247#DE0EFF0B007A3700
(6.826000) can0 247#D80EFF0B00823700
(6.827000) can0 247#DF0EFF0B00883700
(6.829000) can0 247#DF0EFF0B008C3700
(6.832000) can0 247#CF0EFF0B00913700
(6.835000) can0 247#D90EFF0B00973700
(6.837000) can0 247#D40EFF0B009E3700
(6.838000) can0 247#E50EFF0B00A23700
(6.840000) can0 247#E90EFF0B00A63700
(6.842000) can0 247#F70EFF0B00AE3700
(6.844000) can0 247#CC0EFF0B00B33700
(6.846000) can0 247#F60EFF0B00B83700
(6.848000) can0 247#E90EFF0B00BE3700
(6.850000) can0 247#D10EFF0B00C63700
(6.852000) can0 247#D60EFF0B00CC3700
(6.854000) can0 247#D50EFF0B00D33700
(6.856000) can0 247#CA0EFF0B00DB3700
(6.858000) can0 247#E20EFF0B00DF3700
(6.860000) can0 247#CF0EFF0B00E73700
(6.862000) can0 247#F50EFF0B00ED3700
(6.865000) can0 247#D90EFF0B00F33700
(6.871000) can0 247#D20EFF0B00F73700
(6.873000) can0 247#CB0EFF0B00FF3700
(6.875000) can0 247#DD0EFF0B00043800
(6.877000) can0 247#DF0EFF0B00083800
(6.879000) can0 247#E60EFF0B00103800
(6.881000) can0 247#F20EFF0B00183800
(6.883000) can0 247#CE0EFF0B001E3800
(6.885000) can0 247#ED0EFF0B00263800
(6.887000) can0 247#DD0EFF0B002E3800
(6.893000) can0 247#D20EFF0B00323800
(6.895000) can0 247#D90EFF0B003A3800
(6.899000) can0 247#E50EFF0B00413800
(6.903000) can0 247#CC0EFF0B00453800
(6.910000) can0 247#C80EFF0B004D3800
(6.914000) can0 247#D60EFF0B00533800
(6.918000) can0 247#ED0EFF0B00593800
(6.920000) can0 247#E00EFF0B00613800
(6.922000) can0 247#E30EFF0B00673800
(6.924000) can0 247#E70EFF0B006E3800
(6.926000) can0 247#D90EFF0B00723800
(6.928000) can0 247#D90EFF0B00783800
(6.930000) can0 247#D70EFF0B007C3800
(6.932000) can0 247#EF0EFF0B00843800
(6.934000) can0 247#EF0EFF0B008C3800
(6.936000) can0 247#EE0EFF0B00923800
(6.940000) can0 247#E40EFF0B00983800
(6.946000) can0 247#D50EFF0B009E3800
(6.953000) can0 247#CB0EFF0B00A53800
(6.957000) can0 247#D90EFF0B00A93800
(6.959000) can0 247#D00EFF0B00AE3800
(6.961000) can0 247#D20EFF0B00B43800
(6.963000) can0 247#F40EFF0B00BB3800
(6.965000) can0 247#DE0EFF0B00C03800
(6.967000) can0 247#D50EFF0B00C83800
(6.968000) can0 247#C90EFF0B00D03800
(6.970000) can0 247#CD0EFF0B00D63800
(6.972000) can0 247#CC0EFF0B00DA3800
(6.974000) can0 247#F60EFF0B00E03800
(6.976000) can0 247#E20EFF0B00E63800
(6.979000) can0 247#C80EFF0B00EE3800
(6.981000) can0 247#D30EFF0B00F33800
(6.984000) can0 247#F40EFF0B00FA3800
(6.986000) can0 247#F60EFF0B00003900
(6.987000) can0 247#D70EFF0B00063900
(6.989000) can0 247#E70EFF0B000B3900
(6.991000) can0 247#D00EFF0B00113900
(6.993000) can0 247#CA0EFF0B00193900
(6.995000) can0 247#DD0EFF0B001F3900
(6.997000) can0 247#DE0EFF0B00253900
(6.999000) can0 247#F70EFF0B002B3900
(7.001000) can0 247#CC0EFF0B00323900
(7.003000) can0 247#D30EFF0B00383900
(7.006000) can0 247#EB0EFF0B003E3900
(7.008000) can0 247#CC0EFF0B00423900
(7.010000) can0 247#DE0EFF0B004A3900
(7.012000) can0 247#CC0EFF0B00523900
(7.015000) can0 247#C90EFF0B00563900
(7.017000) can0 247#D60EFF0B005E3900
(7.018000) can0 247#CE0EFF0B00643900
(7.020000) can0 247#D60EFF0B00683900
(7.022000) can0 247#E10EFF0B006D3900
(7.024000) can0 247#F50EFF0B00733900
(7.026000) can0 247#D20EFF0B00783900
(7.028000) can0 247#CE0EFF0B007C3900
(7.030000) can0 247#D80EFF0B00813900
(7.031000) can0 247#F60EFF0B00883900
(7.034000) can0 247#DA0EFF0B008F3900
(7.037000) can0 247#E10EFF0B00933900
(7.049000) can0 247#EC0EFF0B009A3900
(7.053000) can0 247#C80EFF0B00A03900
(7.058000) can0 247#DC0EFF0B00A63900
(7.060000) can0 247#DA0EFF0B00AB3900
(7.062000) can0 247#EE0EFF0B00B23900
(7.064000) can0 247#F60EFF0B00B83900
(7.066000) can0 247#F20EFF0B00BF3900
(7.068000) can0 247#EB0EFF0B00C63900
(7.070000) can0 247#F00EFF0B00CE3900
(7.072000) can0 247#DA0EFF0B00D53900
(7.074000) can0 247#EA0EFF0B00DA3900
(7.076000) can0 247#CE0EFF0B00DE3900
(7.078000) can0 247#CB0EFF0B00E23900
(7.080000) can0 247#C80EFF0B00E83900
(7.082000) can0 247#F60EFF0B00F03900
(7.084000) can0 247#EC0EFF0B00F53900
(7.087000) can0 247#D50EFF0B00F93900
(7.089000) can0 247#F10EFF0B00FF3900
(7.091000) can0 247#E60EFF0B00033A00
(7.093000) can0 247#EC0EFF0B00073A00
(7.094000) can0 247#F60EFF0B000D3A00
(7.096000) can0 247#D70EFF0B00123A00
(7.098000) can0 247#E20EFF0B00173A00
(7.100000) can0 247#F50EFF0B001F3A00
(7.102000) can0 247#CF0EFF0B00273A00
(7.104000) can0 247#DA0EFF0B002C3A00
(7.108000) can0 247#F10EFF0B00333A00
(7.114000) can0 247#DC0EFF0B003A3A00
(7.120000) can0 247#D80EFF0B00423A00
(7.125000) can0 247#EB0EFF0B00493A00
(7.127000) can0 247#E60EFF0B00513A00
(7.129000) can0 247#E90EFF0B00553A00
(7.131000) can0 247#EC0EFF0B005A3A00
(7.133000) can0 247#D10EFF0B005E3A00
(7.135000) can0 247#F40EFF0B00643A00
(7.137000) can0 247#DD0EFF0B006A3A00
(7.139000) can0 247#CB0EFF0B006E3A00
(7.141000) can0 247#CF0EFF0B00743A00
(7.142000) can0 247#F10EFF0B00793A00
(7.144000) can0 247#DB0EFF0C007F3A00
(7.147000) can0 247#CC0EFF0C00843A00
(7.149000) can0 247#DA0EFF0C008B3A00
(7.151000) can0 247#DE0EFF0C00923A00
(7.153000) can0 247#EA0EFF0C009A3A00
(7.155000) can0 247#F60EFF0C00A13A00
(7.157000) can0 247#CC0EFF0C00A73A00
(7.164000) can0 247#E30EFF0C00AD3A00
(7.166000) can0 247#CE0EFF0C00B33A00
(7.168000) can0 247#D60EFF0C00B93A00
(7.170000) can0 247#F40EFF0C00C13A00
(7.170000) can0 3FD#0100020000080280
(7.173000) can0 247#D30EFF0C00C83A00
(7.175000) can0 247#D10EFF0C00CF3A00
(7.177000) can0 247#CE0EFF0C00D33A00
(7.180000) can0 247#E10EFF0C00D73A00
(7.181000) can0 247#F60EFF0C00DC3A00
(7.184000) can0 247#F00EFF0C00E23A00
(7.185000) can0 247#EE0EFF0C00E63A00
(7.187000) can0 247#E50EFF0C00EA3A00
(7.189000) can0 247#D30EFF0C00EF3A00
(7.192000) can0 247#CB0EFF0C00F63A00
(7.194000) can0 247#CC0EFF0C00FB3A00
(7.196000) can0 247#DF0EFF0C00023B00
(7.198000) can0 247#EA0EFF0C00093B00
(7.199000) can0 247#F30EFF0C00103B00
(7.201000) can0 247#CB0EFF0C00163B00
(7.203000) can0 247#CF0EFF0C001A3B00
(7.206000) can0 247#F00EFF0C001E3B00
(7.208000) can0 247#C90EFF0C00263B00
(7.210000) can0 247#EF0EFF0C002A3B00
(7.212000) can0 247#DF0EFF0C00303B00
(7.214000) can0 247#ED0EFF0C00343B00
(7.216000) can0 247#E10EFF0C003B3B00
(7.218000) can0 247#CB0EFF0C003F3B00
(7.220000) can0 247#E00EFF0C00473B00
(7.222000) can0 247#EB0EFF0C004E3B00
(7.224000) can0 247#EF0EFF0C00523B00
(7.226000) can0 247#E60EFF0C00573B00
(7.228000) can0 247#E90EFF0C005B3B00
(7.230000) can0 247#E80EFF0C00623B00
(7.232000) can0 247#CE0EFF0C00693B00
(7.235000) can0 247#F20EFF0C006E3B00
(7.237000) can0 247#E30EFF0C00753B00
(7.239000) can0 247#EF0EFF0C007A3B00
(7.240000) can0 247#E80EFF0C00803B00
(7.242000) can0 247#DB0EFF0C00853B00
(7.244000) can0 247#F20EFF0C008C3B00
(7.246000) can0 247#CF0EFF0C00913B00
(7.253000) can0 247#E70EFF0C00953B00
(7.259000) can0 247#F40EFF0C009C3B00
(7.263000) can0 247#E70EFF0C00A43B00
(7.267000) can0 247#F40EFF0C00A83B00
(7.273000) can0 247#D30EFF0C00AE3B00
(7.275000) can0 247#F10EFF0C00B23B00
(7.277000) can0 247#F20EFF0C00B63B00
(7.280000) can0 247#DB0EFF0C00BD3B00
(7.284000) can0 247#F30EFF0C00C23B00
(7.295000) can0 247#D50EFF0C00C93B00
(7.304000) can0 247#F00EFF0C00CF3B00
(7.310000) can0 247#F40EFF0C00D73B00
(7.315000) can0 247#DE0EFF0C00DE3B00
(7.317000) can0 247#DB0EFF0C00E63B00
(7.324000) can0 247#CC0EFF0C00EC3B00
(7.330000) can0 247#E70EFF0C00F13B00
(7.336000) can0 247#CA0EFF0C00F53B00
(7.338000) can0 247#E30EFF0C00FD3B00
(7.340000) can0 247#D50EFF0C00033C00
(7.342000) can0 247#E20EFF0C000B3C00
(7.343000) can0 247#D20EFF0C00133C00
(7.346000) can0 247#DB0EFF0C001B3C00
(7.348000) can0 247#DD0EFF0C00223C00
(7.350000) can0 247#D30EFF0C00273C00
(7.352000) can0 247#CD0EFF0C002C3C00
(7.354000) can0 247#D70EFF0C00343C00
(7.356000) can0 247#F40EFF0C00383C00
(7.357000) can0 247#F10EFF0C003D3C00
(7.360000) can0 247#CB0EFF0C00443C00
(7.362000) can0 247#D80EFF0C004B3C00
(7.364000) can0 247#EE0EFF0C00523C00
(7.366000) can0 247#CE0EFF0C005A3C00
(7.368000) can0 247#DE0EFF0C00623C00
(7.370000) can0 247#E90EFF0C006A3C00
(7.372000) can0 247#D40EFF0C006E3C00
(7.375000) can0 247#EB0EFF0C00723C00
(7.377000) can0 247#D80EFF0C00793C00
(7.379000) can0 247#F10EFF0C00813C00
(7.381000) can0 247#D60EFF0C00873C00
(7.382000) can0 247#F00EFF0C008D3C00
(7.384000) can0 247#EB0EFF0C00933C00
(7.386000) can0 247#D90EFF0C009A3C00
(7.389000) can0 247#E80EFF0C009E3C00
(7.391000) can0 247#D30EFF0C00A23C00
(7.393000) can0 247#F20EFF0C00A73C00
(7.395000) can0 247#E50EFF0C00AB3C00
(7.397000) can0 247#E00EFF0C00B13C00
(7.399000) can0 247#DF0EFF0C00B93C00
(7.401000) can0 247#D70EFF0C00C03C00
(7.403000) can0 247#DC0EFF0C00C73C00
(7.405000) can0 247#D20EFF0C00CC3C00
(7.407000) can0 247#DF0EFF0C00D33C00
(7.409000) can0 247#DC0EFF0C00D83C00
(7.411000) can0 247#F30EFF0C00DF3C00
(7.413000) can0 247#D00EFF0C00E43C00
(7.415000) can0 247#F10EFF0C00EA3C00
(7.417000) can0 247#F10EFF0C00F13C00
(7.419000) can0 247#D20EFF0C00F83C00
(7.421000) can0 247#D00EFF0C00FF3C00
(7.423000) can0 247#F60EFF0C00073D00
(7.425000) can0 247#DC0EFF0C000F3D00
(7.427000) can0 247#CA0EFF0C00143D00
(7.429000) can0 247#F00EFF0C001B3D00
(7.432000) can0 247#D30EFF0C00233D00
(7.434000) can0 247#E80EFF0C002A3D00
(7.436000) can0 247#D30EFF0C00313D00
(7.438000) can0 247#CE0EFF0C00383D00
(7.440000) can0 247#D90EFF0C003C3D00
(7.442000) can0 247#F10EFF0C00423D00
(7.444000) can0 247#DB0EFF0C00483D00
(7.447000) can0 247#E80EFF0C004F3D00
(7.449000) can0 247#F00EFF0C00533D00
(7.450000) can0 247#CC0EFF0C00593D00
(7.452000) can0 247#CC0EFF0C005D3D00
(7.454000) can0 247#D80EFF0C00653D00
(7.456000) can0 247#E40EFF0C006B3D00
(7.459000) can0 247#EF0EFF0C00703D00
(7.461000) can0 247#DE0EFF0C00773D00
(7.463000) can0 247#CC0EFF0C007C3D00
(7.465000) can0 247#F20EFF0C00813D00
(7.467000) can0 247#D00EFF0C00873D00
(7.468000) can0 247#DB0EFF0C008C3D00
(7.470000) can0 247#CD0EFF0C00923D00
(7.472000) can0 247#DA0EFF0C00973D00
(7.474000) can0 247#DA0EFF0C009F3D00
(7.477000) can0 247#F50EFF0C00A63D00
(7.479000) can0 247#F10EFF0C00AB3D00
(7.481000) can0 247#CB0EFF0C00B33D00
(7.483000) can0 247#D30EFF0C00BB3D00
(7.485000) can0 247#DA0EFF0C00C23D00
(7.487000) can0 247#D20EFF0C00C73D00
(7.489000) can0 247#E70EFF0C00CD3D00
(7.491000) can0 247#F60EFF0C00D53D00
(7.493000) can0 247#F00EFF0C00DD3D00
(7.495000) can0 247#D60EFF0C00E33D00
(7.497000) can0 247#D80EFF0C00E93D00
(7.498000) can0 247#C90EFF0C00F03D00
(7.500000) can0 247#C80EFF0C00F43D00
(7.502000) can0 247#CA0EFF0C00FC3D00
(7.507000) can0 247#D20EFF0C00033E00
(7.511000) can0 247#DE0EFF0C000A3E00
(7.515000) can0 247#EA0EFF0C00123E00
(7.519000) can0 247#D50EFF0C00163E00
(7.525000) can0 247#C80EFF0C001D3E00
(7.527000) can0 247#F00EFF0C00253E00
(7.529000) can0 247#D60EFF0C00293E00
(7.531000) can0 247#DC0EFF0C00303E00
(7.533000) can0 247#D40EFF0C00383E00
(7.535000) can0 247#D50EFF0C003E3E00
(7.538000) can0 247#C90EFF0C00443E00
(7.544000) can0 247#F20EFF0C004A3E00
(7.550000) can0 247#CD0EFF0C00513E00
(7.558000) can0 247#C90EFF0C00553E00
(7.565000) can0 247#D20EFF0C005B3E00
(7.571000) can0 247#CB0EFF0C00603E00
(7.575000) can0 247#E50EFF0C00653E00
(7.576000) can0 247#D90EFF0C00693E00
(7.578000) can0 247#E70EFF0C006F3E00
(7.582000) can0 247#F50EFF0C00753E00
(7.586000) can0 247#EE0EFF0C007B3E00
(7.596000) can0 247#CA0EFF0C00823E00
(7.601000) can0 247#DE0EFF0C00883E00
(7.603000) can0 247#D00EFF0C008C3E00
(7.605000) can0 247#C90EFF0C00943E00
(7.607000) can0 247#CB0EFF0C009B3E00
(7.609000) can0 247#E10EFF0C00A13E00
(7.611000) can0 247#CC0EFF0C00A53E00
(7.614000) can0 247#DD0EFF0C00AB3E00
(7.616000) can0 247#DF0EFF0C00B13E00
(7.617000) can0 247#D50EFF0C00B93E00
(7.619000) can0 247#ED0EFF0C00C13E00
(7.621000) can0 247#CF0EFF0C00C53E00
(7.624000) can0 247#D50EFF0C00CC3E00
(7.626000) can0 247#D70EFF0C00D23E00
(7.628000) can0 247#E80EFF0C00D63E00
(7.630000) can0 247#E40EFF0C00DB3E00
(7.632000) can0 247#DE0EFF0C00DF3E00
(7.634000) can0 247#D30EFF0C00E43E00
(7.636000) can0 247#EE0EFF0C00EA3E00
(7.637000) can0 247#ED0EFF0C00EF3E00
(7.640000) can0 247#E20EFF0C00F53E00
(7.641000) can0 247#F50EFF0C00FC3E00
(7.644000) can0 247#D20EFF0C00033F00
(7.646000) can0 247#E80EFF0C00083F00
(7.648000) can0 247#EE0EFF0C000E3F00
(7.650000) can0 247#CE0EFF0C00153F00
(7.653000) can0 247#CB0EFF0C001A3F00
(7.655000) can0 247#E00EFF0C00213F00
(7.657000) can0 247#D40EFF0C00263F00
(7.659000) can0 247#CF0EFF0C002A3F00
(7.661000) can0 247#F30EFF0C002F3F00
(7.662000) can0 247#CB0EFF0C00363F00
(7.664000) can0 247#E00EFF0C003C3F00
(7.666000) can0 247#CA0EFF0C00413F00
(7.668000) can0 247#F50EFF0C00453F00
(7.668000) can0 3FD#0100020000080280
(7.675000) can0 247#DF0EFF0C004D3F00
(7.679000) can0 247#E50EFF0C00513F00
(7.683000) can0 247#E00EFF0C00573F00
(7.689000) can0 247#F10EFF0C005F3F00
(7.691000) can0 247#E40EFF0C00633F00
(7.693000) can0 247#D80EFF0C00683F00
(7.695000) can0 247#F20EFF0C006E3F00
(7.697000) can0 247#F50EFF0C00733F00
(7.699000) can0 247#E00EFF0C00793F00
(7.701000) can0 247#D00EFF0C00813F00
(7.703000) can0 247#E30EFF0C00893F00
(7.704000) can0 247#CA0EFF0C008D3F00
(7.706000) can0 247#EE0EFF0C00933F00
(7.708000) can0 247#E70EFF0C00993F00
(7.710000) can0 247#DD0EFF0C00A13F00
(7.715000) can0 247#ED0EFF0C00A83F00
(7.719000) can0 247#E80EFF0C00B03F00
(7.726000) can0 247#CB0EFF0C00B63F00
(7.731000) can0 247#EE0EFF0C00BE3F00
(7.733000) can0 247#CB0EFF0C00C23F00
(7.735000) can0 247#D10EFF0C00C93F00
(7.737000) can0 247#EE0EFF0C00CF3F00
(7.739000) can0 247#E80EFF0C00D43F00
(7.739000) can0 3FD#0100020000080280
(7.742000) can0 247#F10EFF0C00DC3F00
(7.744000) can0 247#F00EFF0C00E43F00
(7.746000) can0 247#E10EFF0C00E93F00
(7.748000) can0 247#DA0EFF0C00EF3F00
(7.750000) can0 247#E80EFF0C00F33F00
(7.752000) can0 247#F60EFF0C00FB3F00
(7.754000) can0 247#D20EFF0C00004000
(7.757000) can0 247#D10EFF0C00044000
(7.759000) can0 247#C80EFF0C000A4000
(7.761000) can0 247#D40EFF0C00114000
(7.763000) can0 247#EC0EFF0C00164000
(7.765000) can0 247#EC0EFF0C001B4000
(7.767000) can0 247#F40EFF0C00204000
(7.768000) can0 247#CB0EFF0C00264000
(7.770000) can0 247#CF0EFF0C002B4000
(7.772000) can0 247#E40EFF0C002F4000
(7.774000) can0 247#E10EFF0C00374000
(7.776000) can0 247#F00EFF0C003F4000
(7.778000) can0 247#ED0EFF0C00444000
(7.780000) can0 247#EC0EFF0C00484000
(7.783000) can0 247#CA0EFF0C004D4000
(7.786000) can0 247#E70EFF0C00524000
(7.793000) can0 247#CF0EFF0C005A4000
(7.799000) can0 247#C90EFF0C00604000
