(0.319000) can0 3FD#0000003C20400580
(0.368000) can0 3FD#0100020000080280
(0.421000) can0 3FD#0200080000000090
(0.519000) can0 3FD#0000003C20400580
(0.570000) can0 3FD#0100020000080280
(0.621000) can0 3FD#0200080000000090
(0.818000) can0 3FD#0000003C20400580
(0.870000) can0 3FD#0100020000080280
(0.920000) can0 3FD#0200080000000090
(1.320000) can0 3FD#0000003C20400580
(1.370000) can0 3FD#0100020000080280
(1.430000) can0 3FD#0200080000000090
(1.623000) can0 3FD#0000003C20400580
(1.674000) can0 3FD#0100020000080280
(1.724000) can0 3FD#0200080000000090
(1.818000) can0 3FD#0000003C20400580
(1.868000) can0 3FD#0100020000080280
(1.919000) can0 3FD#0200080000000090
(2.320000) can0 3FD#0000003C20400580
(2.368000) can0 3FD#0100020000080280
(2.420000) can0 3FD#0200080000000090
(2.621000) can0 3FD#0000003C20400580
(2.675000) can0 3FD#0100020000080280
(2.726000) can0 3FD#0200080000000090
(2.818000) can0 3FD#0000003C20400580
(2.870000) can0 3FD#0100020000080280
(2.919000) can0 3FD#0200080000000090
(3.320000) can0 3FD#0000003C20400580
(3.369000) can0 3FD#0100020000080280
(3.429000) can0 3FD#0200080000000090
(3.619000) can0 3FD#0000003C20400580
(3.670000) can0 3FD#0100020000080280
(3.719000) can0 3FD#0200080000000090
(3.819000) can0 3FD#0000003C20400580
(3.870000) can0 3FD#0100020000080280
(3.922000) can0 3FD#0200080000000090
(4.320000) can0 3FD#0000003C20400580
(4.369000) can0 3FD#0100020000080280
(4.422000) can0 3FD#0200080000000090
(4.522000) can0 3FD#0000003C20400580
(4.569000) can0 3FD#0100020000080280
(4.620000) can0 3FD#0200080000000090
(4.817000) can0 3FD#0000003C20400580
(4.870000) can0 3FD#0100020000080280
(4.927000) can0 3FD#0200080000000090
(5.318000) can0 3FD#0000003C20400580
(5.368000) can0 3FD#0100020000080280
(5.418000) can0 3FD#0200080000000090
(5.520000) can0 3FD#0000003C20400580
(5.568000) can0 3FD#0100020000080280
(5.619000) can0 3FD#0200080000000090
(5.817000) can0 3FD#0000003C20400580
(5.870000) can0 3FD#0100020000080280
(5.919000) can0 3FD#0200080000000090
(6.119000) can0 3FD#0000003C20400580
(6.169000) can0 3FD#0100020000080280
(6.223000) can0 3FD#0200080000000090
(6.318000) can0 3FD#0000003C20400580
(6.327000) can0 3FD#0000003C20400580
(6.377000) can0 3FD#0100020000080280
(6.429000) can0 3FD#0200080000000090
(6.818000) can0 3FD#0000003C20400580
(6.870000) can0 3FD#0100020000080280
(6.918000) can0 3FD#0200080000000090
(7.319000) can0 3FD#0000003C20400580
(7.369000) can0 3FD#0100020000080280
(7.423000) can0 3FD#0000003C20400580
(7.474000) can0 3FD#0100020000080280
(7.525000) can0 3FD#0200080000000090
(7.817000) can0 3FD#0000003C20400580
(7.870000) can0 3FD#0100020000080280
(7.918000) can0 3FD#0200080000000090
(8.319000) can0 3FD#0000003C20400580
(8.369000) can0 3FD#0100020000080280
(8.421000) can0 3FD#0000003C20400580
(8.473000) can0 3FD#0100020000080280
(8.523000) can0 3FD#0200080000000090
(8.818000) can0 3FD#0000003C20400580
(8.870000) can0 3FD#0100020000080280
(8.919000) can0 3FD#0200080000000090
(9.222000) can0 3FD#0000003C20400580
(9.269000) can0 3FD#0100020000080280
(9.319000) can0 3FD#0000003C20400580
(9.368000) can0 3FD#0100020000080280
(9.420000) can0 3FD#0200080000000090
(9.817000) can0 3FD#0000003C20400580
(9.870000) can0 3FD#0100020000080280
(9.918000) can0 3FD#0200080000000090
(10.119000) can0 3FD#0000003C20400580
(10.169000) can0 3FD#0100020000080280
(10.219000) can0 3FD#0200080000000090
(10.318000) can0 3FD#0000003C20400580
(10.368000) can0 3FD#0100020000080280
(10.420000) can0 3FD#0200080000000090
(10.819000) can0 3FD#0000003C20400580
(10.869000) can0 3FD#0100020000080280
(10.920000) can0 3FD#0200080000000090
(11.120000) can0 3FD#0000003C20400580
(11.171000) can0 3FD#0100020000080280
(11.222000) can0 3FD#0200080000000090
(11.320000) can0 3FD#0000003C20400580
(11.368000) can0 3FD#0100020000080280
(11.419000) can0 3FD#0200080000000090
(11.819000) can0 3FD#0000003C20400580
(11.870000) can0 3FD#0100020000080280
(11.919000) can0 3FD#0200080000000090
(12.120000) can0 3FD#0000003C20400580
(12.171000) can0 3FD#0100020000080280
(12.222000) can0 3FD#0200080000000090
(12.319000) can0 3FD#0000003C20400580
(12.369000) can0 3FD#0100020000080280
(12.419000) can0 3FD#0200080000000090
(12.817000) can0 3FD#0000003C20400580
(12.869000) can0 3FD#0100020000080280
(12.920000) can0 3FD#0200080000000090
(13.119000) can0 3FD#0000003C20400580
(13.169000) can0 3FD#0100020000080280
(13.221000) can0 3FD#0200080000000090
(13.320000) can0 3FD#0000003C20400580
(13.369000) can0 3FD#0100020000080280
(13.419000) can0 3FD#0200080000000090
(13.823000) can0 3FD#0000003C20400580
(13.874000) can0 3FD#0100020000080280
(13.927000) can0 3FD#0200080000000090
(14.319000) can0 3FD#0000003C20400580
(14.321000) can0 3FD#0000003C20400580
(14.369000) can0 3FD#0100020000080280
(14.422000) can0 3FD#0200080000000090
(14.818000) can0 3FD#0000003C20400580
(14.870000) can0 3FD#0100020000080280
(14.920000) can0 3FD#0200080000000090
(15.320000) can0 3FD#0000003C20400580
(15.322000) can0 3FD#0000003C20400580
(15.369000) can0 3FD#0100020000080280
(15.421000) can0 3FD#0200080000000090
(15.818000) can0 3FD#0000003C20400580
(15.869000) can0 3FD#0100020000080280
(15.920000) can0 3FD#0200080000000090
(16.218000) can0 3FD#0000003C20400580
(16.271000) can0 3FD#0100020000080280
(16.319000) can0 3FD#0000003C20400580
(16.369000) can0 3FD#0100020000080280
(16.419000) can0 3FD#0200080000000090
(16.819000) can0 3FD#0000003C20400580
(16.870000) can0 3FD#0100020000080280
(16.920000) can0 3FD#0200080000000090
(17.220000) can0 3FD#0000003C20400580
(17.270000) can0 3FD#0100020000080280
(17.319000) can0 3FD#0000003C20400580
(17.369000) can0 3FD#0100020000080280
(17.420000) can0 3FD#0200080000000090
(17.818000) can0 3FD#0000003C20400580
(17.868000) can0 3FD#0100020000080280
(17.918000) can0 3FD#0200080000000090
(18.220000) can0 3FD#0000003C20400580
(18.277000) can0 3FD#0100020000080280
(18.320000) can0 3FD#0000003C20400580
(18.368000) can0 3FD#0100020000080280
(18.420000) can0 3FD#0200080000000090
(18.818000) can0 3FD#0000003C20400580
(18.869000) can0 3FD#0100020000080280
(18.923000) can0 3FD#0200080000000090
(19.221000) can0 3FD#0000003C20400580
(19.284000) can0 3FD#0100020000080280
(19.321000) can0 3FD#0000003C20400580
(19.369000) can0 3FD#0100020000080280
(19.430000) can0 3FD#0200080000000090
(19.819000) can0 3FD#0000003C20400580
(19.869000) can0 3FD#0100020000080280
(19.919000) can0 3FD#0200080000000090
(20.218000) can0 3FD#0000003C20400580
(20.271000) can0 3FD#0100020000080280
(20.322000) can0 3FD#0000003C20400580
(20.371000) can0 3FD#0100020000080280
(20.424000) can0 3FD#0200080000000090
(20.818000) can0 3FD#0000003C20400580
(20.869000) can0 3FD#0100020000080280
(20.919000) can0 3FD#0200080000000090
(21.221000) can0 3FD#0000003C20400580
(21.275000) can0 3FD#0100020000080280
(21.319000) can0 3FD#0000003C20400580
(21.369000) can0 3FD#0100020000080280
(21.419000) can0 3FD#0200080000000090
(21.819000) can0 3FD#0000003C20400580
(21.870000) can0 3FD#0100020000080280
(21.920000) can0 3FD#0200080000000090
(22.119000) can0 3FD#0000003C20400580
(22.169000) can0 3FD#0100020000080280
(22.219000) can0 3FD#0200080000000090
(22.321000) can0 3FD#0000003C20400580
(22.369000) can0 3FD#0100020000080280
(22.419000) can0 3FD#0200080000000090
(22.820000) can0 3FD#0000003C20400580
(22.869000) can0 3FD#0100020000080280
(22.920000) can0 3FD#0200080000000090
(23.119000) can0 3FD#0000003C20400580
(23.169000) can0 3FD#0100020000080280
(23.221000) can0 3FD#0200080000000090
(23.319000) can0 3FD#0000003C20400580
(23.368000) can0 3FD#0100020000080280
(23.418000) can0 3FD#0200080000000090
(23.818000) can0 3FD#0000003C20400580
(23.871000) can0 3FD#0100020000080280
(23.920000) can0 3FD#0200080000000090
(24.128000) can0 3FD#0000003C20400580
(24.178000) can0 3FD#0100020000080280
(24.229000) can0 3FD#0200080000000090
(24.320000) can0 3FD#0000003C20400580
(24.369000) can0 3FD#0100020000080280
(24.428000) can0 3FD#0200080000000090
(24.820000) can0 3FD#0000003C20400580
(24.876000) can0 3FD#0100020000080280
(24.925000) can0 3FD#0200080000000090
(25.320000) can0 3FD#0000003C20400580
(25.321000) can0 3FD#0000003C20400580
(25.374000) can0 3FD#0100020000080280
(25.426000) can0 3FD#0200080000000090
(25.819000) can0 3FD#0000003C20400580
(25.869000) can0 3FD#0100020000080280
(25.925000) can0 3FD#0200080000000090
(26.320000) can0 3FD#0000003C20400580
(26.370000) can0 3FD#0100020000080280
(26.420000) can0 3FD#0200080000000090
(26.518000) can0 3FD#0000003C20400580
(26.571000) can0 3FD#0100020000080280
(26.620000) can0 3FD#0000003C20400580
(26.672000) can0 3FD#0100020000080280
(26.722000) can0 3FD#0200080000000090
(26.821000) can0 3FD#0000003C20400580
(26.872000) can0 3FD#0100020000080280
(26.922000) can0 3FD#0200080000000090
(27.319000) can0 3FD#0000003C20400580
(27.368000) can0 3FD#0100020000080280
(27.419000) can0 3FD#0200080000000090
(27.621000) can0 3FD#0000003C20400580
(27.671000) can0 3FD#0100020000080280
(27.722000) can0 3FD#0200080000000090
(27.819000) can0 3FD#0000003C20400580
(27.869000) can0 3FD#0100020000080280
(27.919000) can0 3FD#0200080000000090
(28.319000) can0 3FD#0000003C20400580
(28.369000) can0 3FD#0100020000080280
(28.419000) can0 3FD#0200080000000090
(28.619000) can0 3FD#0000003C20400580
(28.671000) can0 3FD#0100020000080280
(28.720000) can0 3FD#0200080000000090
(28.819000) can0 3FD#0000003C20400580
(28.871000) can0 3FD#0100020000080280
(28.922000) can0 3FD#0200080000000090
(29.320000) can0 3FD#0000003C20400580
(29.369000) can0 3FD#0100020000080280
(29.403000) can0 247#E80DFF0900360100
(29.404000) can0 247#EE0DFF09003D0100
(29.406000) can0 247#F00DFF0900430100
(29.408000) can0 247#DC0DFF09004B0100
(29.410000) can0 247#F70DFF0900520100
(29.412000) can0 247#E80DFF0900570100
(29.414000) can0 247#D80DFF09005F0100
(29.416000) can0 247#EA0DFF0900660100
(29.419000) can0 247#D50DFF09006C0100
(29.421000) can0 247#F50DFF0900710100
(29.421000) can0 3FD#0200080000000090
(29.425000) can0 247#F60DFF0900750100
(29.427000) can0 247#EE0DFF09007B0100
(29.429000) can0 247#DB0DFF0900810100
(29.431000) can0 247#D20DFF0900850100
(29.433000) can0 247#D00DFF09008A0100
(29.434000) can0 247#F50DFF0900910100
(29.441000) can0 247#CB0DFF0900970100
(29.443000) can0 247#EE0DFF09009E0100
(29.445000) can0 247#DA0DFF0900A30100
(29.447000) can0 247#D80DFF0900AB0100
(29.450000) can0 247#EC0DFF0900B20100
(29.452000) can0 247#F20DFF0900B90100
(29.453000) can0 247#F20DFF0900C00100
(29.455000) can0 247#F20DFF0900C50100
(29.458000) can0 247#D80DFF0900CD0100
(29.460000) can0 247#C90DFF0900D30100
(29.462000) can0 247#DC0DFF0900DA0100
(29.463000) can0 247#D10DFF0900DF0100
(29.465000) can0 247#CB0DFF0900E30100
(29.467000) can0 247#CA0DFF0900EA0100
(29.469000) can0 247#E80DFF0900EF0100
(29.471000) can0 247#DA0DFF0900F60100
(29.473000) can0 247#E20DFF0900FC0100
(29.475000) can0 247#DA0DFF0900030200
(29.479000) can0 247#D00DFF0900090200
(29.485000) can0 247#C80DFF09000D0200
(29.489000) can0 247#EA0DFF0900110200
(29.493000) can0 247#D70DFF0900170200
(29.498000) can0 247#CE0DFF09001D0200
(29.500000) can0 247#CC0DFF0900230200
(29.502000) can0 247#E60DFF09002B0200
(29.504000) can0 247#CC0DFF0900320200
(29.506000) can0 247#EE0DFF09003A0200
(29.508000) can0 247#D00DFF09003E0200
(29.510000) can0 247#E60DFF0900450200
(29.511000) can0 247#E00DFF0900490200
(29.513000) can0 247#DD0DFF09004F0200
(29.516000) can0 247#EF0DFF0900570200
(29.518000) can0 247#D50DFF09005F0200
(29.520000) can0 247#CB0DFF0900630200
(29.522000) can0 247#F40DFF0900690200
(29.524000) can0 247#D10DFF09006D0200
(29.526000) can0 247#E50DFF0900710200
(29.528000) can0 247#E70DFF0900790200
(29.531000) can0 247#CE0DFF0900800200
(29.537000) can0 247#D90DFF0900880200
(29.543000) can0 247#D40DFF09008C0200
(29.549000) can0 247#D40DFF0900900200
(29.551000) can0 247#D00DFF0900970200
(29.553000) can0 247#EA0DFF09009B0200
(29.555000) can0 247#D60DFF0900A10200
(29.558000) can0 247#CA0DFF0900A90200
(29.559000) can0 247#F40DFF0900B00200
(29.561000) can0 247#D00DFF0900B80200
(29.563000) can0 247#E60DFF0900BF0200
(29.565000) can0 247#D30DFF0900C60200
(29.572000) can0 247#D40DFF0900CC0200
(29.574000) can0 247#D40DFF0900D40200
(29.576000) can0 247#C90DFF0900DB0200
(29.578000) can0 247#D10DFF0900E00200
(29.580000) can0 247#DE0DFF0900E60200
(29.584000) can0 247#D40DFF0900EE0200
(29.585000) can0 247#DD0DFF0900F50200
(29.587000) can0 247#D00DFF0900FC0200
(29.590000) can0 247#E00DFF0900000300
(29.594000) can0 247#CC0DFF0900080300
(29.595000) can0 247#EC0DFF09000E0300
(29.597000) can0 247#DE0DFF0900160300
(29.599000) can0 247#F00DFF09001E0300
(29.601000) can0 247#F60DFF0900250300
(29.604000) can0 247#C80DFF09002C0300
(29.606000) can0 247#DA0DFF0900320300
(29.608000) can0 247#E10DFF0900370300
(29.610000) can0 247#F30DFF09003B0300
(29.611000) can0 247#E10DFF0900430300
(29.613000) can0 247#CB0DFF09004B0300
(29.615000) can0 247#ED0DFF0900510300
(29.617000) can0 247#DF0DFF0900580300
(29.620000) can0 247#CF0DFF09005C0300
(29.620000) can0 3FD#0000003C20400580
(29.624000) can0 247#CF0DFF0900640300
(29.630000) can0 247#CF0DFF09006C0300
(29.632000) can0 247#D40DFF0900700300
(29.634000) can0 247#ED0DFF0900770300
(29.636000) can0 247#ED0DFF09007D0300
(29.639000) can0 247#F50DFF0900830300
(29.640000) can0 247#DB0DFF09008B0300
(29.642000) can0 247#D40DFF09008F0300
(29.644000) can0 247#F40DFF0900930300
(29.646000) can0 247#F40DFF0900970300
(29.648000) can0 247#EC0DFF09009C0300
(29.654000) can0 247#D40DFF0900A10300
(29.658000) can0 247#EA0DFF0900A60300
(29.664000) can0 247#D20DFF0900AD0300
(29.667000) can0 247#EA0DFF0900B30300
(29.669000) can0 247#D90DFF0900BA0300
(29.671000) can0 247#D10DFF0900BF0300
(29.671000) can0 3FD#0100020000080280
(29.674000) can0 247#E90DFF0900C30300
(29.676000) can0 247#D50DFF0900CB0300
(29.682000) can0 247#E60DFF0900D30300
(29.688000) can0 247#EB0DFF0900DB0300
(29.694000) can0 247#E50DFF0900E20300
(29.696000) can0 247#EE0DFF0900E70300
(29.698000) can0 247#CE0DFF0900EC0300
(29.701000) can0 247#E90DFF0900F40300
(29.703000) can0 247#D80DFF0900FB0300
(29.705000) can0 247#F60DFF0900010400
(29.707000) can0 247#D90DFF0900080400
(29.709000) can0 247#E30DFF09000F0400
(29.711000) can0 247#F30DFF0900170400
(29.713000) can0 247#F40DFF09001E0400
(29.715000) can0 247#DE0DFF0900250400
(29.717000) can0 247#CF0DFF09002C0400
(29.722000) can0 247#F40DFF0900300400
(29.722000) can0 3FD#0200080000000090
(29.732000) can0 247#EC0DFF0900340400
(29.737000) can0 247#E00DFF09003B0400
(29.739000) can0 247#DC0DFF09003F0400
(29.741000) can0 247#D90DFF0900470400
(29.743000) can0 247#EE0DFF09004F0400
(29.745000) can0 247#C90DFF0900540400
(29.747000) can0 247#C80DFF0900580400
(29.749000) can0 247#DC0DFF09005F0400
(29.751000) can0 247#E10DFF0900670400
(29.753000) can0 247#E50DFF09006B0400
(29.755000) can0 247#DF0DFF0900720400
(29.757000) can0 247#E50DFF0900780400
(29.759000) can0 247#EE0DFF09007F0400
(29.761000) can0 247#F10DFF0900860400
(29.763000) can0 247#E80DFF09008A0400
(29.765000) can0 247#DF0DFF0900900400
(29.768000) can0 247#D40DFF0900950400
(29.770000) can0 247#D70DFF09009D0400
(29.772000) can0 247#D00DFF0900A50400
(29.773000) can0 247#EE0DFF0900AC0400
(29.775000) can0 247#F70DFF0900B00400
(29.777000) can0 247#F20DFF0900B80400
(29.779000) can0 247#F40DFF0900BD0400
(29.782000) can0 247#D30DFF0900C20400
(29.788000) can0 247#F50DFF0900C90400
(29.792000) can0 247#E90DFF0900D10400
(29.798000) can0 247#D70DFF0900D60400
(29.803000) can0 247#D30DFF0900DE0400
(29.804000) can0 247#D60DFF0900E30400
(29.807000) can0 247#C80DFF0900EA0400
(29.809000) can0 247#C80DFF0900F10400
(29.811000) can0 247#E70DFF0900F60400
(29.813000) can0 247#F20DFF0900FD0400
(29.815000) can0 247#CF0DFF0900040500
(29.817000) can0 247#DF0DFF0900080500
(29.819000) can0 247#DA0DFF09000F0500
(29.821000) can0 247#DF0DFF0900160500
(29.821000) can0 3FD#0000003C20400580
(29.824000) can0 247#D90DFF09001C0500
(29.826000) can0 247#CF0DFF0900210500
(29.828000) can0 247#E90DFF0900270500
(29.831000) can0 247#F20DFF09002F0500
(29.832000) can0 247#E60DFF0900350500
(29.835000) can0 247#F30DFF09003A0500
(29.837000) can0 247#E00DFF09003E0500
(29.839000) can0 247#DA0DFF0900450500
(29.841000) can0 247#CB0DFF0900490500
(29.843000) can0 247#F50DFF0900500500
(29.845000) can0 247#E70DFF0900560500
(29.847000) can0 247#F20DFF09005E0500
(29.849000) can0 247#F20DFF0900650500
(29.855000) can0 247#E90DFF09006A0500
(29.857000) can0 247#DB0DFF09006E0500
(29.859000) can0 247#EE0DFF0900750500
(29.861000) can0 247#F50DFF09007B0500
(29.863000) can0 247#E50DFF0900830500
(29.866000) can0 247#DA0DFF09008B0500
(29.868000) can0 247#D80DFF0900920500
(29.874000) can0 247#F50DFF0900960500
(29.874000) can0 3FD#0100020000080280
(29.877000) can0 247#D00DFF09009D0500
(29.879000) can0 247#EF0DFF0900A50500
(29.881000) can0 247#F20DFF0900AB0500
(29.883000) can0 247#E40DFF0900B00500
(29.889000) can0 247#E20DFF0900B50500
(29.895000) can0 247#E60DFF0900BB0500
(29.897000) can0 247#EA0DFF0900C20500
(29.899000) can0 247#D40DFF0900C80500
(29.901000) can0 247#CA0DFF0900CC0500
(29.905000) can0 247#E90DFF0900D00500
(29.912000) can0 247#DA0DFF0900D50500
(29.918000) can0 247#F30DFF0900DA0500
(29.922000) can0 247#C90DFF0900DE0500
(29.922000) can0 3FD#0200080000000090
(29.925000) can0 247#C80DFF0900E50500
(29.927000) can0 247#CE0DFF0900E90500
(29.929000) can0 247#C90DFF0900F10500
(29.931000) can0 247#E20DFF0900F80500
(29.933000) can0 247#C90DFF0900FF0500
(29.935000) can0 247#DF0DFF0900070600
(29.937000) can0 247#F00DFF09000C0600
(29.939000) can0 247#E40DFF0900100600
(29.941000) can0 247#F30DFF0900150600
(29.944000) can0 247#E00DFF09001B0600
(29.946000) can0 247#EF0DFF09001F0600
(29.948000) can0 247#D90DFF0900270600
(29.950000) can0 247#EC0DFF09002B0600
(29.952000) can0 247#E40DFF0900300600
(29.954000) can0 247#E70DFF0900340600
(29.956000) can0 247#D40DFF09003C0600
(29.958000) can0 247#F50DFF0900420600
(29.960000) can0 247#EA0DFF0900470600
(29.962000) can0 247#F70DFF09004C0600
(29.964000) can0 247#CD0DFF0900530600
(29.965000) can0 247#DA0DFF0900590600
(29.967000) can0 247#E00DFF09005E0600
(29.971000) can0 247#CB0DFF0900630600
(29.974000) can0 247#DE0DFF09006A0600
(29.976000) can0 247#D90DFF0900720600
(29.978000) can0 247#EC0DFF0900790600
(29.980000) can0 247#D70DFF09007F0600
(29.984000) can0 247#D40DFF0900850600
(29.985000) can0 247#D90DFF0900890600
(29.987000) can0 247#DE0DFF0900910600
(29.989000) can0 247#EF0DFF0900970600
(29.991000) can0 247#D10DFF09009C0600
(29.993000) can0 247#E90DFF0900A10600
(29.995000) can0 247#F70DFF0900A60600
(29.997000) can0 247#D60DFF0900AD0600
(29.999000) can0 247#DD0DFF0900B20600
(30.001000) can0 247#F00DFF0900B90600
(30.003000) can0 247#D90DFF0900C10600
(30.006000) can0 247#E20DFF0900C70600
(30.008000) can0 247#E90DFF0900CD0600
(30.010000) can0 247#DB0DFF0900D40600
(30.012000) can0 247#D70DFF0900D90600
(30.014000) can0 247#F70DFF0900DF0600
(30.016000) can0 247#CA0DFF0900E30600
(30.018000) can0 247#EE0DFF0900E90600
(30.020000) can0 247#D10DFF0900F10600
(30.021000) can0 247#E80DFF0900F80600
(30.023000) can0 247#F10DFF0900FE0600
(30.025000) can0 247#F10DFF0900020700
(30.032000) can0 247#F30DFF0900090700
(30.042000) can0 247#E30DFF0900100700
(30.048000) can0 247#E80DFF0900170700
(30.055000) can0 247#EE0DFF09001D0700
(30.059000) can0 247#DE0DFF0900220700
(30.063000) can0 247#EA0DFF0900270700
(30.066000) can0 247#F50DFF09002D0700
(30.068000) can0 247#E70DFF0900320700
(30.070000) can0 247#CB0DFF0900380700
(30.072000) can0 247#DB0DFF0900400700
(30.074000) can0 247#EC0DFF0900460700
(30.076000) can0 247#E90DFF09004D0700
(30.078000) can0 247#E50DFF0900540700
(30.080000) can0 247#C90DFF09005A0700
(30.084000) can0 247#D50DFF09005F0700
(30.088000) can0 247#D50DFF0900650700
(30.094000) can0 247#E00DFF09006A0700
(30.099000) can0 247#EA0DFF09006E0700
(30.103000) can0 247#F40DFF0900720700
(30.105000) can0 247#C80DFF0900770700
(30.107000) can0 247#DD0DFF09007F0700
(30.109000) can0 247#CB0DFF0900850700
(30.111000) can0 247#F70DFF09008A0700
(30.113000) can0 247#D70DFF09008F0700
(30.115000) can0 247#CD0DFF0900940700
(30.117000) can0 247#E60DFF0900990700
(30.118000) can0 247#CA0DFF09009E0700
(30.123000) can0 247#D00DFF0900A50700
(30.129000) can0 247#ED0DFF0900A90700
(30.135000) can0 247#D90DFF0900AE0700
(30.139000) can0 247#EF0DFF0900B50700
(30.142000) can0 247#DF0DFF0900BC0700
(30.144000) can0 247#E50DFF0900C10700
(30.146000) can0 247#D80DFF0900C60700
(30.148000) can0 247#D60DFF0900CA0700
(30.150000) can0 247#ED0DFF0900D20700
(30.152000) can0 247#EF0DFF0900D90700
(30.153000) can0 247#EA0DFF0900DD0700
(30.155000) can0 247#ED0DFF0900E50700
(30.157000) can0 247#F60DFF0900E90700
(30.159000) can0 247#F40DFF0900ED0700
(30.162000) can0 247#C90DFF0900F10700
(30.166000) can0 247#D30DFF0900F80700
(30.167000) can0 247#DB0DFF0900000800
(30.170000) can0 247#CC0DFF0900080800
(30.172000) can0 247#E80DFF09000D0800
(30.174000) can0 247#DA0DFF0900120800
(30.176000) can0 247#E40DFF0900180800
(30.178000) can0 247#EF0DFF0900200800
(30.180000) can0 247#D60DFF0900270800
(30.182000) can0 247#EF0DFF09002C0800
(30.184000) can0 247#EF0DFF0900320800
(30.186000) can0 247#F10DFF0900380800
(30.188000) can0 247#EB0DFF09003E0800
(30.190000) can0 247#EB0DFF0900440800
(30.192000) can0 247#DD0DFF09004A0800
(30.194000) can0 247#CC0DFF09004F0800
(30.196000) can0 247#E30DFF0900550800
(30.199000) can0 247#E60DFF0900590800
(30.201000) can0 247#E00DFF0900600800
(30.203000) can0 247#DE0DFF0900660800
(30.205000) can0 247#CE0DFF09006B0800
(30.207000) can0 247#D70DFF0900720800
(30.209000) can0 247#D30DFF0900770800
(30.211000) can0 247#EB0DFF09007B0800
(30.212000) can0 247#DF0DFF09007F0800
(30.214000) can0 247#DB0DFF0900850800
(30.216000) can0 247#D90DFF09008A0800
(30.219000) can0 247#EE0DFF0900900800
(30.221000) can0 247#F20DFF0900980800
(30.223000) can0 247#D30DFF09009F0800
(30.225000) can0 247#CE0DFF0900A60800
(30.228000) can0 247#F30DFF0900AB0800
(30.230000) can0 247#DA0DFF0900B00800
(30.232000) can0 247#E00DFF0900B80800
(30.233000) can0 247#CE0DFF0900BC0800
(30.235000) can0 247#C80DFF0900C10800
(30.237000) can0 247#E10DFF0900C50800
(30.239000) can0 247#CB0DFF0900CB0800
(30.241000) can0 247#CA0DFF0900D00800
(30.243000) can0 247#CA0DFF0900D40800
(30.246000) can0 247#D00DFF0900DA0800
(30.248000) can0 247#E70DFF0900DF0800
(30.250000) can0 247#CC0DFF0900E40800
(30.251000) can0 247#E50DFF0900E80800
(30.254000) can0 247#E70DFF0900EC0800
(30.256000) can0 247#EB0DFF0900F40800
(30.258000) can0 247#CE0DFF0900FB0800
(30.260000) can0 247#CC0DFF0900FF0800
(30.261000) can0 247#F20DFF0900060900
(30.263000) can0 247#D30DFF09000E0900
(30.265000) can0 247#F10DFF0900160900
(30.267000) can0 247#CB0DFF09001C0900
(30.269000) can0 247#F60DFF0900210900
(30.271000) can0 247#ED0DFF0900250900
(30.275000) can0 247#D40DFF09002A0900
(30.281000) can0 247#D20DFF0900310900
(30.287000) can0 247#EB0DFF0900350900
(30.300000) can0 247#CF0DFF09003A0900
(30.309000) can0 247#CF0DFF0900400900
(30.313000) can0 247#E00DFF0900440900
(30.319000) can0 247#CE0DFF0900490900
(30.323000) can0 247#E90DFF09004D0900
(30.323000) can0 3FD#0000003C20400580
(30.330000) can0 247#F60DFF0900530900
(30.332000) can0 247#C80DFF09005A0900
(30.334000) can0 247#EF0DFF0900620900
(30.336000) can0 247#D50DFF0900680900
(30.338000) can0 247#D40DFF09006C0900
(30.340000) can0 247#E40DFF0900730900
(30.342000) can0 247#CB0DFF0900790900
(30.344000) can0 247#C80DFF0900810900
(30.346000) can0 247#CB0DFF0900860900
(30.348000) can0 247#F70DFF09008A0900
(30.351000) can0 247#D40DFF09008E0900
(30.353000) can0 247#D50DFF0900920900
(30.354000) can0 247#E00DFF0900960900
(30.356000) can0 247#DE0DFF09009A0900
(30.358000) can0 247#D10DFF0900A10900
(30.360000) can0 247#D20DFF0900A80900
(30.362000) can0 247#D70DFF0900AC0900
(30.364000) can0 247#EC0DFF0900B10900
(30.366000) can0 247#E90DFF0900B60900
(30.368000) can0 247#C90DFF0900BC0900
(30.368000) can0 3FD#0100020000080280
(30.376000) can0 247#F30DFF0900C20900
(30.378000) can0 247#C80DFF0900CA0900
(30.380000) can0 247#ED0DFF0900D00900
(30.384000) can0 247#F10DFF0900D80900
(30.391000) can0 247#F10DFF0900DC0900
(30.395000) can0 247#D10DFF0900E20900
(30.400000) can0 247#F40DFF0900EA0900
(30.402000) can0 247#D20DFF0900EF0900
(30.404000) can0 247#CB0DFF0900F30900
(30.406000) can0 247#F20DFF0900FA0900
(30.409000) can0 247#DD0DFF0900000A00
(30.411000) can0 247#C90DFF0900040A00
(30.413000) can0 247#D60DFF09000C0A00
(30.415000) can0 247#DF0DFF0900110A00
(30.417000) can0 247#CC0DFF0900190A00
(30.419000) can0 247#C90DFF09001D0A00
(30.419000) can0 3FD#0200080000000090
(30.422000) can0 247#E20DFF0900210A00
(30.423000) can0 247#CA0DFF0900290A00
(30.425000) can0 247#CD0DFF0900310A00
(30.432000) can0 247#F10DFF0900380A00
(30.434000) can0 247#DC0DFF09003C0A00
(30.436000) can0 247#F60DFF0900440A00
(30.437000) can0 247#DD0DFF09004C0A00
(30.440000) can0 247#EC0DFF0900530A00
(30.442000) can0 247#D00DFF0900580A00
(30.444000) can0 247#DA0DFF09005F0A00
(30.446000) can0 247#E70DFF0900630A00
(30.448000) can0 247#E20DFF09006A0A00
(30.450000) can0 247#D50DFF0900720A00
(30.452000) can0 247#DE0DFF0900780A00
(30.454000) can0 247#E60DFF09007C0A00
(30.455000) can0 247#D00DFF0900840A00
(30.457000) can0 247#D40DFF0900880A00
(30.460000) can0 247#DF0DFF0900900A00
(30.462000) can0 247#D50DFF0900950A00
(30.464000) can0 247#E10DFF0900990A00
(30.468000) can0 247#DA0DFF09009E0A00
(30.472000) can0 247#DD0DFF0900A20A00
(30.478000) can0 247#EA0DFF0900A60A00
(30.482000) can0 247#E60DFF0900AB0A00
(30.487000) can0 247#E00DFF0900AF0A00
(30.489000) can0 247#CA0DFF0900B30A00
(30.495000) can0 247#E30DFF0900B80A00
(30.497000) can0 247#D30DFF0900BD0A00
(30.499000) can0 247#E30DFF0900C20A00
(30.501000) can0 247#F40DFF0900C90A00
(30.503000) can0 247#E00DFF0900CD0A00
(30.506000) can0 247#DA0DFF0900D20A00
(30.507000) can0 247#D70DFF0900D70A00
(30.509000) can0 247#F40DFF0900DD0A00
(30.512000) can0 247#D60DFF0900E10A00
(30.514000) can0 247#F70DFF0900E60A00
(30.516000) can0 247#F20DFF0900EE0A00
(30.522000) can0 247#E40DFF0900F50A00
(30.522000) can0 3FD#0000003C20400580
(30.525000) can0 247#CB0DFF0900FC0A00
(30.531000) can0 247#D00DFF0900040B00
(30.533000) can0 247#F00DFF0900090B00
(30.535000) can0 247#E60DFF0900100B00
(30.537000) can0 247#EE0DFF0900150B00
(30.544000) can0 247#EC0DFF09001A0B00
(30.551000) can0 247#E80DFF09001E0B00
(30.558000) can0 247#E20DFF0900250B00
(30.563000) can0 247#CD0DFF09002B0B00
(30.567000) can0 247#E10DFF0900310B00
(30.569000) can0 247#D50DFF0900350B00
(30.571000) can0 247#F30DFF09003D0B00
(30.571000) can0 3FD#0100020000080280
(30.574000) can0 247#E70DFF0900450B00
(30.576000) can0 247#CF0DFF09004B0B00
(30.578000) can0 247#ED0DFF0900520B00
(30.580000) can0 247#D00DFF09005A0B00
(30.584000) can0 247#C90DFF09005E0B00
(30.585000) can0 247#CE0DFF0900660B00
(30.587000) can0 247#C90DFF09006D0B00
(30.589000) can0 247#CB0DFF0900710B00
(30.592000) can0 247#F70DFF0900780B00
(30.594000) can0 247#D60DFF09007D0B00
(30.596000) can0 247#F30DFF0900830B00
(30.598000) can0 247#D90DFF09008A0B00
(30.600000) can0 247#CF0DFF09008F0B00
(30.602000) can0 247#DA0DFF0900970B00
(30.604000) can0 247#D80DFF09009E0B00
(30.606000) can0 247#DA0DFF0900A20B00
(30.608000) can0 247#D10DFF0900A70B00
(30.610000) can0 247#E60DFF0900AC0B00
(30.612000) can0 247#EB0DFF0900B30B00
(30.614000) can0 247#ED0DFF0900B90B00
(30.615000) can0 247#EA0DFF0900C10B00
(30.617000) can0 247#F60DFF0900C50B00
(30.625000) can0 247#E10DFF0900CB0B00
(30.625000) can0 3FD#0200080000000090
(30.629000) can0 247#DB0DFF0900D20B00
(30.631000) can0 247#E70DFF0900D90B00
(30.633000) can0 247#F10DFF0900DD0B00
(30.635000) can0 247#E80DFF0900E10B00
(30.637000) can0 247#DF0DFF0900E80B00
(30.639000) can0 247#F30DFF0900EE0B00
(30.641000) can0 247#C80DFF0900F40B00
(30.642000) can0 247#F10DFF0900FC0B00
(30.644000) can0 247#CB0DFF0900000C00
(30.646000) can0 247#EE0DFF0900040C00
(30.648000) can0 247#CF0DFF09000C0C00
(30.654000) can0 247#F70DFF0900120C00
(30.658000) can0 247#DD0DFF0900190C00
(30.662000) can0 247#F40DFF0900200C00
(30.667000) can0 247#D40DFF0900260C00
(30.669000) can0 247#E20DFF09002A0C00
(30.671000) can0 247#CD0DFF0900320C00
(30.673000) can0 247#F60DFF0900360C00
(30.675000) can0 247#DE0DFF09003D0C00
(30.677000) can0 247#DF0DFF0900430C00
(30.679000) can0 247#EB0DFF0900490C00
(30.680000) can0 247#DE0DFF09004E0C00
(30.682000) can0 247#CE0DFF0900520C00
(30.684000) can0 247#DA0DFF0900570C00
(30.686000) can0 247#F50DFF09005D0C00
(30.690000) can0 247#E60DFF0900610C00
(30.696000) can0 247#F00DFF0900650C00
(30.702000) can0 247#C80DFF0900690C00
(30.708000) can0 247#E60DFF0900710C00
(30.710000) can0 247#EB0DFF0900760C00
(30.712000) can0 247#D10DFF09007C0C00
(30.713000) can0 247#F00DFF0900800C00
(30.715000) can0 247#F10DFF0900860C00
(30.717000) can0 247#D40DFF09008B0C00
(30.719000) can0 247#D00DFF0900930C00
(30.721000) can0 247#CF0DFF0900980C00
(30.723000) can0 247#E40DFF09009C0C00
(30.725000) can0 247#EB0DFF0900A20C00
(30.729000) can0 247#DB0DFF0900A80C00
(30.735000) can0 247#DD0DFF0900AE0C00
(30.741000) can0 247#E60DFF0900B20C00
(30.746000) can0 247#D10DFF0900B80C00
(30.748000) can0 247#D20DFF0900BE0C00
(30.750000) can0 247#E90DFF0900C50C00
(30.752000) can0 247#E20DFF0900CD0C00
(30.754000) can0 247#D70DFF0900D20C00
(30.756000) can0 247#EA0DFF0900D80C00
(30.758000) can0 247#E50DFF0900DD0C00
(30.760000) can0 247#D80DFF0900E20C00
(30.762000) can0 247#DE0DFF0900E70C00
(30.763000) can0 247#C80DFF0900EC0C00
(30.765000) can0 247#DC0DFF0900F10C00
(30.768000) can0 247#ED0DFF0900F90C00
(30.770000) can0 247#D70DFF0900FF0C00
(30.772000) can0 247#EE0DFF0900030D00
(30.774000) can0 247#E60DFF09000A0D00
(30.776000) can0 247#F10DFF09000F0D00
(30.778000) can0 247#D10DFF0900170D00
(30.780000) can0 247#D20DFF09001F0D00
(30.784000) can0 247#F10DFF0900260D00
(30.785000) can0 247#D00DFF09002C0D00
(30.787000) can0 247#ED0DFF0900320D00
(30.790000) can0 247#F20DFF0900370D00
(30.798000) can0 247#F70DFF09003F0D00
(30.804000) can0 247#CC0DFF0900460D00
(30.809000) can0 247#DE0DFF09004C0D00
(30.815000) can0 247#DF0DFF0900520D00
(30.817000) can0 247#F10DFF0900560D00
(30.819000) can0 247#F20DFF09005E0D00
(30.819000) can0 3FD#0000003C20400580
(30.822000) can0 247#CB0DFF0900620D00
(30.825000) can0 247#EB0DFF09006A0D00
(30.831000) can0 247#E00DFF09006E0D00
(30.833000) can0 247#DD0DFF0900760D00
(30.835000) can0 247#DF0DFF09007C0D00
(30.837000) can0 247#F70DFF0900810D00
(30.839000) can0 247#F50DFF0900860D00
(30.841000) can0 247#CC0DFF09008E0D00
(30.842000) can0 247#D40DFF0900950D00
(30.845000) can0 247#CF0DFF09009A0D00
(30.847000) can0 247#CA0DFF0900A20D00
(30.849000) can0 247#D30DFF0900AA0D00
(30.851000) can0 247#E50DFF0900AE0D00
(30.853000) can0 247#E10DFF0900B60D00
(30.855000) can0 247#EB0DFF0900BA0D00
(30.857000) can0 247#F60DFF0900BE0D00
(30.859000) can0 247#F10DFF0900C20D00
(30.861000) can0 247#E80DFF0900C80D00
(30.863000) can0 247#D30DFF0900CE0D00
(30.865000) can0 247#DB0DFF0900D60D00
(30.867000) can0 247#E90DFF0900DC0D00
(30.869000) can0 247#DD0DFF0900E30D00
(30.873000) can0 247#F30DFF0900E90D00
(30.873000) can0 3FD#0100020000080280
(30.881000) can0 247#C90DFF0900EE0D00
(30.887000) can0 247#D40DFF0900F30D00
(30.895000) can0 247#F60DFF0900F80D00
(30.897000) can0 247#C80DFF0900FE0D00
(30.899000) can0 247#CD0DFF0900060E00
(30.901000) can0 247#DD0DFF09000D0E00
(30.903000) can0 247#DE0DFF0900140E00
(30.906000) can0 247#D90DFF0900190E00
(30.907000) can0 247#DB0DFF09001E0E00
(30.909000) can0 247#E00DFF0900230E00
(30.911000) can0 247#DD0DFF0900280E00
(30.913000) can0 247#D30DFF09002C0E00
(30.916000) can0 247#DE0DFF0900330E00
(30.918000) can0 247#E10DFF09003A0E00
(30.920000) can0 247#D50DFF0900420E00
(30.920000) can0 3FD#0200080000000090
(30.923000) can0 247#F40DFF09004A0E00
(30.925000) can0 247#D00DFF0900520E00
(30.927000) can0 247#D50DFF0900570E00
(30.933000) can0 247#F00DFF09005E0E00
(30.935000) can0 247#D60DFF0900650E00
(30.937000) can0 247#F50DFF0900690E00
(30.939000) can0 247#F70DFF09006F0E00
(30.941000) can0 247#CD0DFF0900770E00
(30.943000) can0 247#CB0DFF09007E0E00
(30.946000) can0 247#F10DFF0900860E00
(30.948000) can0 247#EA0DFF09008C0E00
(30.950000) can0 247#D70DFF0900900E00
(30.952000) can0 247#F10DFF0900960E00
(30.954000) can0 247#D30DFF09009D0E00
(30.956000) can0 247#EE0DFF0900A50E00
(30.958000) can0 247#E90DFF0900A90E00
(30.960000) can0 247#EF0DFF0900B10E00
(30.961000) can0 247#EF0DFF0900B80E00
(30.963000) can0 247#E50DFF0900C00E00
(30.966000) can0 247#E10DFF0900C50E00
(30.968000) can0 247#CE0DFF0900CA0E00
(30.970000) can0 247#F50DFF0900CF0E00
(30.972000) can0 247#EA0DFF0900D30E00
(30.975000) can0 247#C80DFF0900DB0E00
(30.977000) can0 247#F40DFF0900E10E00
(30.978000) can0 247#E40DFF0900E50E00
(30.980000) can0 247#E40DFF0900EC0E00
(30.982000) can0 247#D20DFF0900F10E00
(30.984000) can0 247#D20DFF0900F50E00
(30.986000) can0 247#D50DFF0900FA0E00
(30.988000) can0 247#CD0DFF0900020F00
(30.990000) can0 247#F40DFF0900080F00
(30.991000) can0 247#CD0DFF09000C0F00
(30.994000) can0 247#CC0DFF0900140F00
(30.996000) can0 247#D90DFF09001B0F00
(30.998000) can0 247#CF0DFF0900220F00
(31.001000) can0 247#E40DFF0900290F00
(31.003000) can0 247#CD0DFF0900310F00
(31.005000) can0 247#E20DFF0900380F00
(31.007000) can0 247#D20DFF09003C0F00
(31.009000) can0 247#E50DFF0900410F00
(31.010000) can0 247#F50DFF0900470F00
(31.013000) can0 247#E00DFF09004F0F00
(31.014000) can0 247#CD0DFF0900570F00
(31.016000) can0 247#F20DFF09005E0F00
(31.018000) can0 247#E10DFF0900660F00
(31.021000) can0 247#D40DFF09006B0F00
(31.023000) can0 247#EB0DFF0900700F00
(31.025000) can0 247#D30DFF0900740F00
(31.031000) can0 247#CF0DFF09007C0F00
(31.034000) can0 247#EC0DFF0900820F00
(31.036000) can0 247#D60DFF0900860F00
(31.038000) can0 247#EC0DFF09008C0F00
(31.041000) can0 247#D90DFF0900910F00
(31.045000) can0 247#F20DFF0900980F00
(31.051000) can0 247#C80DFF09009C0F00
(31.055000) can0 247#E60DFF0900A40F00
(31.059000) can0 247#DC0DFF0900AA0F00
(31.065000) can0 247#EF0DFF0900B00F00
(31.071000) can0 247#C80DFF0900B60F00
(31.079000) can0 247#F10DFF0900BE0F00
(31.083000) can0 247#D00DFF0900C30F00
(31.089000) can0 247#CD0DFF0900C80F00
(31.094000) can0 247#CB0DFF0900CD0F00
(31.100000) can0 247#DD0DFF0900D30F00
(31.102000) can0 247#E30DFF0900DA0F00
(31.104000) can0 247#CC0DFF0900E10F00
(31.106000) can0 247#DA0DFF0900E60F00
(31.108000) can0 247#DE0DFF0900EB0F00
(31.110000) can0 247#E90DFF0900F20F00
(31.112000) can0 247#D30DFF0900F60F00
(31.114000) can0 247#DF0DFF0900FE0F00
(31.115000) can0 247#D60DFF0900021000
(31.117000) can0 247#CF0DFF0900061000
(31.122000) can0 247#E80DFF09000A1000
(31.128000) can0 247#CF0DFF0900121000
(31.134000) can0 247#D00DFF0900191000
(31.139000) can0 247#D00DFF09001F1000
(31.141000) can0 247#EA0DFF0900231000
(31.143000) can0 247#F70DFF0900271000
(31.145000) can0 247#D10DFF09002C1000
(31.146000) can0 247#D40DFF0900331000
(31.148000) can0 247#F50DFF0900381000
(31.150000) can0 247#F10DFF09003E1000
(31.152000) can0 247#D10DFF0900431000
(31.154000) can0 247#DD0DFF09004A1000
(31.156000) can0 247#F60DFF09004E1000
(31.158000) can0 247#E90DFF0900521000
(31.161000) can0 247#E40DFF0900581000
(31.163000) can0 247#E70DFF09005C1000
(31.166000) can0 247#EB0DFF0900611000
(31.172000) can0 247#D60DFF0900681000
(31.174000) can0 247#D30DFF09006D1000
(31.176000) can0 247#F30DFF0900731000
(31.178000) can0 247#E20DFF0900781000
(31.180000) can0 247#F60DFF09007D1000
(31.182000) can0 247#D80DFF0900821000
(31.184000) can0 247#E40DFF0900861000
(31.185000) can0 247#CA0DFF09008D1000
(31.187000) can0 247#DB0DFF0900941000
(31.189000) can0 247#DB0DFF0900981000
(31.191000) can0 247#F30DFF0900A01000
(31.194000) can0 247#D70DFF0900A51000
(31.195000) can0 247#F00DFF0900AA1000
(31.198000) can0 247#F50DFF0900B01000
(31.200000) can0 247#F70DFF0900B71000
(31.202000) can0 247#E10DFF0900BD1000
(31.204000) can0 247#F20DFF0900C11000
(31.206000) can0 247#F60DFF0900C61000
(31.208000) can0 247#E80DFF0900CE1000
(31.210000) can0 247#F10DFF0900D31000
(31.212000) can0 247#E10DFF0900D71000
(31.214000) can0 247#D10DFF0900DF1000
(31.216000) can0 247#DE0DFF0900E51000
(31.217000) can0 247#D70DFF0900ED1000
(31.219000) can0 247#C90DFF0900F51000
(31.222000) can0 247#F60DFF0900FC1000
(31.225000) can0 247#E50DFF0900011100
(31.231000) can0 247#E20DFF0900051100
(31.243000) can0 247#E90DFF09000D1100
(31.244000) can0 247#D70DFF0900111100
(31.246000) can0 247#EA0DFF0900171100
(31.248000) can0 247#DE0DFF09001F1100
(31.255000) can0 247#C80DFF0900271100
(31.257000) can0 247#D60DFF09002E1100
(31.259000) can0 247#DB0DFF0900321100
(31.261000) can0 247#EF0DFF0900391100
(31.263000) can0 247#F60DFF09003E1100
(31.264000) can0 247#E30DFF0900421100
(31.266000) can0 247#E20DFF0900491100
(31.274000) can0 247#CB0DFF0900511100
(31.280000) can0 247#F40DFF0900551100
(31.286000) can0 247#D70DFF09005C1100
(31.288000) can0 247#CF0DFF0900601100
(31.290000) can0 247#E90DFF0900671100
(31.298000) can0 247#EB0DFF09006F1100
(31.304000) can0 247#C80DFF0900751100
(31.308000) can0 247#D30DFF09007C1100
(31.310000) can0 247#F00DFF0900801100
(31.312000) can0 247#D10DFF0900881100
(31.314000) can0 247#E90DFF09008F1100
(31.316000) can0 247#E60DFF0900971100
(31.322000) can0 247#F30DFF09009D1100
(31.322000) can0 3FD#0000003C20400580
(31.326000) can0 247#D60DFF0900A11100
(31.329000) can0 247#ED0DFF0900A71100
(31.331000) can0 247#EA0DFF0900AB1100
(31.333000) can0 247#CF0DFF0900B01100
(31.335000) can0 247#D60DFF0900B51100
(31.337000) can0 247#E20DFF0900B91100
(31.338000) can0 247#E00DFF0900C01100
(31.341000) can0 247#F30DFF0900C51100
(31.342000) can0 247#EC0DFF0900CD1100
(31.344000) can0 247#ED0DFF0900D21100
(31.346000) can0 247#D10DFF0900D61100
(31.348000) can0 247#E10DFF0900DA1100
(31.350000) can0 247#E10DFF0900DF1100
(31.353000) can0 247#EF0DFF0900E31100
(31.355000) can0 247#CB0DFF0900E71100
(31.357000) can0 247#CC0DFF0900EE1100
(31.359000) can0 247#E00DFF0900F51100
(31.361000) can0 247#E50DFF0900FA1100
(31.363000) can0 247#F20DFF0900001200
(31.365000) can0 247#E60DFF0900051200
(31.367000) can0 247#E30DFF09000C1200
(31.369000) can0 247#D30DFF0900121200
(31.369000) can0 3FD#0100020000080280
(31.372000) can0 247#E30DFF0900191200
(31.374000) can0 247#DC0DFF0900201200
(31.376000) can0 247#D80DFF0900281200
(31.378000) can0 247#D30DFF09002C1200
(31.382000) can0 247#DB0DFF0900301200
(31.388000) can0 247#E60DFF0900371200
(31.393000) can0 247#DC0DFF09003B1200
(31.399000) can0 247#DE0DFF0900401200
(31.401000) can0 247#D80DFF0900461200
(31.403000) can0 247#F30DFF09004C1200
(31.405000) can0 247#F50DFF0900501200
(31.407000) can0 247#DC0DFF0900551200
(31.409000) can0 247#D30DFF09005C1200
(31.411000) can0 247#EB0DFF0900631200
(31.413000) can0 247#D30DFF0900671200
(31.415000) can0 247#CA0DFF09006E1200
(31.417000) can0 247#EF0DFF0900731200
(31.419000) can0 247#DE0DFF0900791200
(31.419000) can0 3FD#0200080000000090
(31.423000) can0 247#D90DFF09007F1200
(31.424000) can0 247#D80DFF0900851200
(31.427000) can0 247#DB0DFF09008C1200
(31.433000) can0 247#CB0DFF0900901200
(31.435000) can0 247#E90DFF0900981200
(31.437000) can0 247#C90DFF09009D1200
(31.439000) can0 247#EC0DFF0900A31200
(31.441000) can0 247#EB0DFF0900A91200
(31.442000) can0 247#DE0DFF0900B01200
(31.444000) can0 247#E20DFF0900B51200
(31.447000) can0 247#EE0DFF0900BB1200
(31.448000) can0 247#EF0DFF0900C01200
(31.456000) can0 247#CC0DFF0900C51200
(31.458000) can0 247#F60DFF0900CB1200
(31.459000) can0 247#F20DFF0900D31200
(31.461000) can0 247#E20DFF0900D81200
(31.464000) can0 247#DD0DFF0900DF1200
(31.466000) can0 247#E00DFF0900E61200
(31.468000) can0 247#E00DFF0900EB1200
(31.470000) can0 247#EB0DFF0900F01200
(31.472000) can0 247#EF0DFF0900F41200
(31.474000) can0 247#D50DFF0900F91200
(31.475000) can0 247#DB0DFF0900011300
(31.477000) can0 247#CC0DFF0900091300
(31.479000) can0 247#F40DFF0900101300
(31.483000) can0 247#ED0DFF0900151300
(31.489000) can0 247#E00DFF09001A1300
(31.493000) can0 247#C90DFF09001F1300
(31.500000) can0 247#D30DFF0900251300
(31.502000) can0 247#CB0DFF09002C1300
(31.503000) can0 247#DB0DFF0900311300
(31.506000) can0 247#CC0DFF0900371300
(31.508000) can0 247#DE0DFF09003F1300
(31.510000) can0 247#E00DFF0900461300
(31.512000) can0 247#E90DFF09004E1300
(31.514000) can0 247#D40DFF0900531300
(31.516000) can0 247#D90DFF09005A1300
(31.518000) can0 247#E60DFF0900601300
(31.520000) can0 247#DC0DFF0900661300
(31.522000) can0 247#F50DFF09006A1300
(31.524000) can0 247#CF0DFF0900721300
(31.530000) can0 247#DA0DFF0900771300
(31.532000) can0 247#DF0DFF09007C1300
(31.534000) can0 247#F40DFF0900821300
(31.535000) can0 247#CA0DFF09008A1300
(31.542000) can0 247#F40DFF09008E1300
(31.545000) can0 247#EE0DFF0900961300
(31.551000) can0 247#F10DFF09009A1300
(31.555000) can0 247#F60DFF09009E1300
(31.561000) can0 247#E80DFF0900A51300
(31.569000) can0 247#E90DFF0900AC1300
(31.573000) can0 247#DD0DFF0900B01300
(31.580000) can0 247#CB0DFF0900B61300
(31.583000) can0 247#D10DFF0900BD1300
(31.585000) can0 247#D80DFF0900C41300
(31.587000) can0 247#CF0DFF0900CB1300
(31.589000) can0 247#D10DFF0900CF1300
(31.591000) can0 247#D10DFF0900D41300
(31.594000) can0 247#D20DFF0900DC1300
(31.595000) can0 247#DA0DFF0900E21300
(31.597000) can0 247#EA0DFF0900E71300
(31.599000) can0 247#CD0DFF0900ED1300
(31.601000) can0 247#CA0DFF0900F31300
(31.604000) can0 247#D60DFF0900F91300
(31.605000) can0 247#D90DFF0900FF1300
(31.607000) can0 247#E30DFF0900061400
(31.610000) can0 247#D40DFF09000B1400
(31.612000) can0 247#E10DFF0900121400
(31.614000) can0 247#E80DFF09001A1400
(31.616000) can0 247#D70DFF09001F1400
(31.618000) can0 247#F20DFF0900231400
(31.620000) can0 247#E40DFF0900281400
(31.623000) can0 247#C80DFF09002C1400
(31.623000) can0 3FD#0000003C20400580
(31.630000) can0 247#E10DFF0900321400
(31.632000) can0 247#ED0DFF0900371400
(31.634000) can0 247#CE0DFF09003C1400
(31.636000) can0 247#C90DFF0900441400
(31.638000) can0 247#CB0DFF09004C1400
(31.640000) can0 247#CC0DFF0900501400
(31.642000) can0 247#E90DFF0900551400
(31.644000) can0 247#E20DFF09005A1400
(31.646000) can0 247#EA0DFF0900601400
(31.655000) can0 247#D80DFF0900661400
(31.661000) can0 247#E80DFF09006B1400
(31.665000) can0 247#D10DFF0900701400
(31.667000) can0 247#D20DFF0900741400
(31.674000) can0 247#ED0DFF0900791400
(31.674000) can0 3FD#0100020000080280
(31.685000) can0 247#F50DFF09007D1400
(31.687000) can0 247#D60DFF0900821400
(31.689000) can0 247#EA0DFF0900861400
(31.691000) can0 247#F20DFF09008C1400
(31.694000) can0 247#F00DFF0900901400
(31.695000) can0 247#F40DFF0900981400
(31.697000) can0 247#E40DFF09009C1400
(31.699000) can0 247#ED0DFF0900A21400
(31.701000) can0 247#CF0DFF0900A61400
(31.703000) can0 247#EE0DFF0900AC1400
(31.705000) can0 247#D70DFF0900B31400
(31.707000) can0 247#E10DFF0900BB1400
(31.709000) can0 247#DE0DFF0900C21400
(31.716000) can0 247#D00DFF0900C71400
(31.722000) can0 247#E20DFF0900CF1400
(31.728000) can0 247#E20DFF0900D31400
(31.728000) can0 3FD#0200080000000090
(31.732000) can0 247#E00DFF0900DB1400
(31.734000) can0 247#D60DFF0900E31400
(31.736000) can0 247#F40DFF0900E91400
(31.738000) can0 247#F10DFF0900ED1400
(31.740000) can0 247#D90DFF0900F21400
(31.742000) can0 247#E60DFF0900F81400
(31.744000) can0 247#D80DFF0900FC1400
(31.746000) can0 247#E90DFF0900031500
(31.748000) can0 247#CA0DFF09000A1500
(31.750000) can0 247#F50DFF0900111500
(31.752000) can0 247#CB0DFF0900171500
(31.754000) can0 247#E10DFF09001F1500
(31.756000) can0 247#DE0DFF0900231500
(31.758000) can0 247#D20DFF0900281500
(31.761000) can0 247#C80DFF0900301500
(31.763000) can0 247#E60DFF0900351500
(31.765000) can0 247#DB0DFF09003C1500
(31.767000) can0 247#E40DFF0900421500
(31.769000) can0 247#D50DFF0900471500
(31.771000) can0 247#CC0DFF09004D1500
(31.773000) can0 247#E20DFF0900521500
(31.775000) can0 247#D20DFF0900581500
(31.777000) can0 247#D30DFF09005C1500
(31.779000) can0 247#D00DFF0900641500
(31.781000) can0 247#F10DFF09006C1500
(31.783000) can0 247#ED0DFF0900721500
(31.785000) can0 247#D20DFF0900781500
(31.788000) can0 247#E10DFF09007C1500
(31.790000) can0 247#DD0DFF0900831500
(31.792000) can0 247#EA0DFF0900881500
(31.800000) can0 247#E60DFF09008D1500
(31.809000) can0 247#C80DFF0900931500
(31.813000) can0 247#D60DFF09009A1500
(31.820000) can0 247#DB0DFF09009E1500
(31.820000) can0 3FD#0000003C20400580
(31.823000) can0 247#F70DFF0900A41500
(31.825000) can0 247#D10DFF0900A81500
(31.827000) can0 247#DC0DFF0900AE1500
(31.829000) can0 247#F40DFF0900B31500
(31.832000) can0 247#F70DFF0900B91500
(31.834000) can0 247#CB0DFF0900BF1500
(31.836000) can0 247#D40DFF0900C51500
(31.838000) can0 247#ED0DFF0900CC1500
(31.840000) can0 247#E00DFF0900D01500
(31.842000) can0 247#CF0DFF0900D71500
(31.844000) can0 247#DB0DFF0900DD1500
(31.846000) can0 247#DD0DFF0900E51500
(31.848000) can0 247#F60DFF0900E91500
(31.850000) can0 247#D60DFF0900ED1500
(31.852000) can0 247#F60DFF0900F21500
(31.854000) can0 247#E90DFF0900F61500
(31.856000) can0 247#E50DFF0900FC1500
(31.858000) can0 247#E80DFF0900021600
(31.860000) can0 247#D50DFF09000A1600
(31.863000) can0 247#F50DFF09000F1600
(31.865000) can0 247#DB0DFF0900171600
(31.867000) can0 247#EA0DFF09001E1600
(31.869000) can0 247#EC0DFF0900251600
(31.870000) can0 247#EA0DFF09002A1600
(31.870000) can0 3FD#0100020000080280
(31.873000) can0 247#DD0DFF09002E1600
(31.875000) can0 247#F30DFF0900331600
(31.877000) can0 247#DB0DFF09003B1600
(31.879000) can0 247#EA0DFF0900411600
(31.883000) can0 247#EB0DFF0900471600
(31.889000) can0 247#EC0DFF09004F1600
(31.895000) can0 247#D00DFF0900541600
(31.899000) can0 247#DE0DFF0900591600
(31.903000) can0 247#E20DFF09005F1600
(31.905000) can0 247#DE0DFF0900651600
(31.907000) can0 247#F60DFF09006B1600
(31.908000) can0 247#D20DFF0900711600
(31.910000) can0 247#D00DFF0900791600
(31.912000) can0 247#F50DFF09007F1600
(31.914000) can0 247#F70DFF0900831600
(31.916000) can0 247#F40DFF09008B1600
(31.918000) can0 247#E50DFF0900911600
(31.920000) can0 247#EA0DFF0900981600
(31.920000) can0 3FD#0200080000000090
(31.923000) can0 247#CE0DFF09009F1600
(31.925000) can0 247#F50DFF0900A71600
(31.928000) can0 247#DE0DFF0900AC1600
(31.930000) can0 247#F20DFF0900B01600
(31.933000) can0 247#DE0DFF0900B71600
(31.935000) can0 247#F20DFF0900BC1600
(31.937000) can0 247#F30DFF0900C41600
(31.939000) can0 247#CB0DFF0900C81600
(31.940000) can0 247#E20DFF0900CF1600
(31.942000) can0 247#DE0DFF0900D31600
(31.944000) can0 247#C90DFF0900D71600
(31.946000) can0 247#E80DFF0900DF1600
(31.948000) can0 247#D40DFF0900E71600
(31.950000) can0 247#D40DFF0900EE1600
(31.952000) can0 247#F50DFF0900F21600
(31.955000) can0 247#DB0DFF0900F91600
(31.957000) can0 247#C90DFF0900FE1600
(31.959000) can0 247#DB0DFF0900051700
(31.962000) can0 247#CD0DFF0900091700
(31.963000) can0 247#CC0DFF0900101700
(31.965000) can0 247#D60DFF0900181700
(31.967000) can0 247#D70DFF0900201700
(31.969000) can0 247#ED0DFF0900241700
(31.971000) can0 247#D40DFF0900281700
(31.973000) can0 247#E90DFF09002F1700
(31.975000) can0 247#E30DFF0900361700
(31.977000) can0 247#CE0DFF09003E1700
(31.979000) can0 247#E60DFF0900431700
(31.981000) can0 247#EA0DFF0900491700
(31.983000) can0 247#F00DFF09004E1700
(31.985000) can0 247#D00DFF0900541700
(31.988000) can0 247#F60DFF09005C1700
(31.990000) can0 247#CE0DFF0900621700
(31.992000) can0 247#E00DFF0900661700
(31.994000) can0 247#CA0DFF09006E1700
(31.996000) can0 247#F70DFF0900741700
(31.998000) can0 247#DE0DFF09007C1700
(32.000000) can0 247#D00DFF0900801700
(32.001000) can0 247#D30DFF0900871700
(32.003000) can0 247#DC0DFF09008D1700
(32.005000) can0 247#EC0DFF0900911700
(32.007000) can0 247#CF0DFF0900971700
(32.010000) can0 247#F40DFF09009C1700
(32.012000) can0 247#E20DFF0900A41700
(32.014000) can0 247#F60DFF0900A91700
(32.017000) can0 247#F30DFF0900B11700
(32.019000) can0 247#F00DFF0900B81700
(32.021000) can0 247#F00DFF0900BF1700
(32.023000) can0 247#EA0DFF0900C71700
(32.025000) can0 247#E10DFF0900CE1700
(32.031000) can0 247#E20DFF0900D51700
(32.033000) can0 247#EA0DFF0900D91700
(32.035000) can0 247#E10DFF0900DF1700
(32.037000) can0 247#C80DFF0900E61700
(32.039000) can0 247#CE0DFF0900EB1700
(32.041000) can0 247#F20DFF0900F21700
(32.045000) can0 247#D20DFF0900F91700
(32.056000) can0 247#E40DFF0900001800
(32.063000) can0 247#CB0DFF0900041800
(32.070000) can0 247#D40DFF09000B1800
(32.077000) can0 247#F60DFF0900131800
(32.079000) can0 247#D10DFF0900181800
(32.083000) can0 247#DC0DFF09001D1800
(32.089000) can0 247#E30DFF0900231800
(32.093000) can0 247#EA0DFF0900281800
(32.099000) can0 247#D50DFF09002C1800
(32.101000) can0 247#D80DFF0900331800
(32.103000) can0 247#D20DFF0900391800
(32.105000) can0 247#EB0DFF09003F1800
(32.108000) can0 247#D00DFF0900431800
(32.110000) can0 247#CF0DFF09004B1800
(32.112000) can0 247#E40DFF09004F1800
(32.113000) can0 247#F50DFF0900561800
(32.116000) can0 247#F10DFF09005B1800
(32.118000) can0 247#F60DFF0900631800
(32.120000) can0 247#E70DFF0900691800
(32.122000) can0 247#CA0DFF09006E1800
(32.124000) can0 247#E50DFF0900731800
(32.125000) can0 247#CA0DFF09007A1800
(32.127000) can0 247#F10DFF0900821800
(32.129000) can0 247#E30DFF0900871800
(32.131000) can0 247#E70DFF09008C1800
(32.133000) can0 247#E10DFF0900941800
(32.136000) can0 247#E80DFF0900991800
(32.138000) can0 247#F60DFF09009D1800
(32.140000) can0 247#C80DFF0900A31800
(32.142000) can0 247#D90DFF0900A71800
(32.144000) can0 247#D10DFF0900AE1800
(32.146000) can0 247#E70DFF0900B51800
(32.148000) can0 247#D20DFF0900B91800
(32.150000) can0 247#DC0DFF0900C01800
(32.152000) can0 247#D20DFF0900C81800
(32.154000) can0 247#ED0DFF0900D01800
(32.156000) can0 247#E70DFF0900D71800
(32.158000) can0 247#E80DFF0900DC1800
(32.160000) can0 247#DA0DFF0900E21800
(32.163000) can0 247#D70DFF0900E61800
(32.165000) can0 247#D30DFF0900EC1800
(32.166000) can0 247#E80DFF0900F11800
(32.169000) can0 247#F60DFF0900F61800
(32.171000) can0 247#CC0DFF0900FA1800
(32.173000) can0 247#DA0DFF0900001900
(32.175000) can0 247#C80DFF0900061900
(32.177000) can0 247#ED0DFF09000E1900
(32.179000) can0 247#DE0DFF0900131900
(32.181000) can0 247#E30DFF0900191900
(32.182000) can0 247#DA0DFF0900211900
(32.185000) can0 247#CF0DFF0900251900
(32.186000) can0 247#F40DFF09002C1900
(32.188000) can0 247#ED0DFF0900321900
(32.192000) can0 247#EF0DFF09003A1900
(32.194000) can0 247#DF0DFF09003E1900
(32.196000) can0 247#E90DFF0900441900
(32.198000) can0 247#DF0DFF09004A1900
(32.200000) can0 247#ED0DFF09004F1900
(32.203000) can0 247#C90DFF0900541900
(32.205000) can0 247#E90DFF09005B1900
(32.206000) can0 247#E20DFF0900631900
(32.209000) can0 247#E50DFF0900691900
(32.211000) can0 247#D70DFF0900701900
(32.212000) can0 247#EE0DFF0900751900
(32.214000) can0 247#C80DFF0900791900
(32.216000) can0 247#EE0DFF09007E1900
(32.219000) can0 247#CC0DFF0900831900
(32.221000) can0 247#E90DFF09008A1900
(32.223000) can0 247#D10DFF09008E1900
(32.225000) can0 247#D50DFF0900931900
(32.227000) can0 247#CF0DFF09009A1900
(32.229000) can0 247#D40DFF0900A11900
(32.231000) can0 247#F00DFF0900A61900
(32.233000) can0 247#E70DFF0900AA1900
(32.235000) can0 247#EC0DFF0900B21900
(32.237000) can0 247#D10DFF0900BA1900
(32.239000) can0 247#C80DFF0900BE1900
(32.241000) can0 247#E30DFF0900C31900
(32.243000) can0 247#DB0DFF0900C81900
(32.245000) can0 247#F60DFF0900CD1900
(32.248000) can0 247#EF0DFF0900D11900
(32.250000) can0 247#CA0DFF0900D81900
(32.252000) can0 247#F10DFF0900E01900
(32.253000) can0 247#CE0DFF0900E61900
(32.255000) can0 247#E50DFF0900EE1900
(32.258000) can0 247#E10DFF0900F31900
(32.260000) can0 247#D10DFF0900F81900
(32.262000) can0 247#F40DFF0900FE1900
(32.263000) can0 247#E40DFF0900041A00
(32.265000) can0 247#EE0DFF0900081A00
(32.267000) can0 247#E00DFF09000E1A00
(32.269000) can0 247#DC0DFF0900151A00
(32.271000) can0 247#D50DFF09001D1A00
(32.275000) can0 247#EB0DFF0900251A00
(32.281000) can0 247#DD0DFF09002B1A00
(32.285000) can0 247#D40DFF0900301A00
(32.292000) can0 247#D40DFF0900371A00
(32.294000) can0 247#ED0DFF09003C1A00
(32.295000) can0 247#DF0DFF0900411A00
(32.299000) can0 247#F00DFF0900481A00
(32.305000) can0 247#E70DFF09004E1A00
(32.311000) can0 247#F30DFF0900521A00
(32.315000) can0 247#EF0DFF0900561A00
(32.319000) can0 247#F30DFF09005D1A00
(32.321000) can0 247#F00DFF0900621A00
(32.321000) can0 3FD#0000003C20400580
(32.324000) can0 247#D70DFF0900691A00
(32.331000) can0 247#F40DFF09006E1A00
(32.333000) can0 247#EB0DFF0900721A00
(32.334000) can0 247#E70DFF09007A1A00
(32.336000) can0 247#D20DFF0900821A00
(32.338000) can0 247#CE0DFF0900861A00
(32.340000) can0 247#DC0DFF09008D1A00
(32.342000) can0 247#E70DFF0900931A00
(32.345000) can0 247#E20DFF0900971A00
(32.347000) can0 247#D00DFF09009E1A00
(32.349000) can0 247#D70DFF0900A51A00
(32.351000) can0 247#D10DFF0900AA1A00
(32.357000) can0 247#F00DFF0900B11A00
(32.359000) can0 247#D70DFF0900B91A00
(32.361000) can0 247#F00DFF0900BE1A00
(32.363000) can0 247#CD0DFF0900C41A00
(32.365000) can0 247#EA0DFF0900C91A00
(32.367000) can0 247#D70DFF0900CD1A00
(32.369000) can0 247#DD0DFF0900D11A00
(32.369000) can0 3FD#0100020000080280
(32.372000) can0 247#CB0DFF0900D61A00
(32.374000) can0 247#F70DFF0900DC1A00
(32.376000) can0 247#DA0DFF0900E01A00
(32.381000) can0 247#F00DFF0900E61A00
(32.385000) can0 247#D20DFF0900ED1A00
(32.391000) can0 247#D80DFF0900F11A00
(32.395000) can0 247#C80DFF0900F81A00
(32.398000) can0 247#E10DFF0900FC1A00
(32.401000) can0 247#CE0DFF0900041B00
(32.403000) can0 247#CF0DFF09000C1B00
(32.405000) can0 247#F00DFF0900121B00
(32.407000) can0 247#EF0DFF0900171B00
(32.409000) can0 247#DF0DFF09001D1B00
(32.411000) can0 247#D20DFF0900221B00
(32.413000) can0 247#D00DFF0900261B00
(32.415000) can0 247#D90DFF09002E1B00
(32.417000) can0 247#E20DFF0900351B00
(32.420000) can0 247#E40DFF09003C1B00
(32.420000) can0 3FD#0200080000000090
(32.423000) can0 247#D80DFF0900411B00
(32.424000) can0 247#C90DFF0900491B00
(32.440000) can0 247#C80DFF09004F1B00
(32.446000) can0 247#E70DFF0900561B00
(32.448000) can0 247#ED0DFF09005C1B00
(32.450000) can0 247#CF0DFF0900611B00
(32.452000) can0 247#CD0DFF0900661B00
(32.458000) can0 247#E20DFF09006E1B00
(32.460000) can0 247#EE0DFF0900751B00
(32.462000) can0 247#E40DFF0900791B00
(32.463000) can0 247#F50DFF09007E1B00
(32.465000) can0 247#DD0DFF0900841B00
(32.472000) can0 247#CF0DFF09008C1B00
(32.478000) can0 247#CE0DFF0900911B00
(32.482000) can0 247#F70DFF0900991B00
(32.486000) can0 247#E60DFF09009F1B00
(32.489000) can0 247#F10DFF0900A51B00
(32.495000) can0 247#D40DFF0900AC1B00
(32.497000) can0 247#E30DFF0900B01B00
(32.499000) can0 247#ED0DFF0900B51B00
(32.501000) can0 247#F30DFF0900BB1B00
(32.503000) can0 247#E30DFF0900C01B00
(32.505000) can0 247#D00DFF0900C41B00
(32.507000) can0 247#C90DFF0900C81B00
(32.509000) can0 247#D10DFF0900CF1B00
(32.511000) can0 247#E90DFF0900D41B00
(32.513000) can0 247#EF0DFF0900DB1B00
(32.515000) can0 247#DE0DFF0900E11B00
(32.517000) can0 247#CD0DFF0900E91B00
(32.520000) can0 247#EE0DFF0900EF1B00
(32.522000) can0 247#E90DFF0900F61B00
(32.524000) can0 247#DC0DFF0900FC1B00
(32.530000) can0 247#D20DFF0900021C00
(32.532000) can0 247#CF0DFF0900071C00
(32.534000) can0 247#D20DFF09000F1C00
(32.540000) can0 247#DB0DFF0900171C00
(32.542000) can0 247#F20DFF09001F1C00
(32.544000) can0 247#CD0DFF0900231C00
(32.546000) can0 247#CC0DFF09002A1C00
(32.553000) can0 247#D20DFF09002F1C00
(32.560000) can0 247#D70DFF0900331C00
(32.566000) can0 247#EA0DFF09003A1C00
(32.573000) can0 247#D10DFF0900401C00
(32.576000) can0 247#D00DFF0900481C00
(32.578000) can0 247#F00DFF09004F1C00
(32.580000) can0 247#D20DFF0900541C00
(32.584000) can0 247#DE0DFF09005C1C00
(32.585000) can0 247#CD0DFF0900631C00
(32.587000) can0 247#EC0DFF09006A1C00
(32.589000) can0 247#CE0DFF0900721C00
(32.591000) can0 247#E30DFF0900761C00
(32.593000) can0 247#CA0DFF09007E1C00
(32.595000) can0 247#ED0DFF0900831C00
(32.597000) can0 247#D70DFF09008B1C00
(32.600000) can0 247#D80DFF09008F1C00
(32.602000) can0 247#E00DFF0900941C00
(32.604000) can0 247#D80DFF0900991C00
(32.606000) can0 247#F70DFF09009E1C00
(32.608000) can0 247#F20DFF0900A41C00
(32.610000) can0 247#ED0DFF0900A91C00
(32.612000) can0 247#E80DFF0900AE1C00
(32.614000) can0 247#E30DFF0900B21C00
(32.616000) can0 247#E50DFF0900B71C00
(32.617000) can0 247#D40DFF0900BF1C00
(32.619000) can0 247#D20DFF0900C71C00
(32.621000) can0 247#EE0DFF0900CF1C00
(32.621000) can0 3FD#0000003C20400580
(32.625000) can0 247#D70DFF0900D61C00
(32.631000) can0 247#EE0DFF0900DB1C00
(32.634000) can0 247#E00DFF0900E11C00
(32.636000) can0 247#D90DFF0900E71C00
(32.638000) can0 247#F30DFF0900EE1C00
(32.640000) can0 247#D30DFF0900F51C00
(32.642000) can0 247#D40DFF0900FD1C00
(32.644000) can0 247#E50DFF0900041D00
(32.646000) can0 247#E70DFF09000A1D00
(32.648000) can0 247#E60DFF09000F1D00
(32.649000) can0 247#CD0DFF0900151D00
(32.657000) can0 247#F70DFF09001B1D00
(32.661000) can0 247#F10DFF0900211D00
(32.665000) can0 247#D90DFF0900271D00
(32.667000) can0 247#F40DFF09002F1D00
(32.669000) can0 247#D10DFF0900351D00
(32.677000) can0 247#D50DFF0900391D00
(32.677000) can0 3FD#0100020000080280
(32.685000) can0 247#D90DFF09003E1D00
(32.689000) can0 247#F50DFF0900431D00
(32.691000) can0 247#CF0DFF0900481D00
(32.693000) can0 247#F60DFF09004D1D00
(32.695000) can0 247#EE0DFF0900551D00
(32.697000) can0 247#E50DFF0900591D00
(32.699000) can0 247#F10DFF09005E1D00
(32.701000) can0 247#F30DFF0900661D00
(32.703000) can0 247#EF0DFF09006A1D00
(32.705000) can0 247#D50DFF09006F1D00
(32.707000) can0 247#F50DFF0900741D00
(32.711000) can0 247#F40DFF0900791D00
(32.715000) can0 247#EB0DFF09007D1D00
(32.720000) can0 247#D30DFF0900851D00
(32.726000) can0 247#DF0DFF09008C1D00
(32.726000) can0 3FD#0200080000000090
(32.735000) can0 247#D30DFF0900911D00
(32.737000) can0 247#CD0DFF0900971D00
(32.739000) can0 247#F70DFF09009D1D00
(32.741000) can0 247#E50DFF0900A41D00
(32.743000) can0 247#E30DFF0900AC1D00
(32.745000) can0 247#DC0DFF0900B11D00
(32.747000) can0 247#E90DFF0900B81D00
(32.749000) can0 247#E20DFF0900C01D00
(32.750000) can0 247#D60DFF0900C41D00
(32.753000) can0 247#D40DFF0900C91D00
(32.755000) can0 247#F50DFF0900D11D00
(32.758000) can0 247#CA0DFF0900D71D00
(32.760000) can0 247#EB0DFF0900DE1D00
(32.761000) can0 247#CF0DFF0900E51D00
(32.763000) can0 247#D70DFF0900EA1D00
(32.765000) can0 247#E30DFF0900F11D00
(32.767000) can0 247#DB0DFF0900F61D00
(32.769000) can0 247#DD0DFF0900FB1D00
(32.771000) can0 247#D40DFF0900FF1D00
(32.773000) can0 247#D40DFF0900041E00
(32.775000) can0 247#D70DFF09000C1E00
(32.777000) can0 247#EA0DFF0900131E00
(32.779000) can0 247#E60DFF0900191E00
(32.781000) can0 247#E20DFF09001D1E00
(32.783000) can0 247#E10DFF0900251E00
(32.786000) can0 247#D70DFF0900291E00
(32.788000) can0 247#E30DFF09002D1E00
(32.790000) can0 247#C90DFF0900351E00
(32.791000) can0 247#E50DFF0900391E00
(32.793000) can0 247#C80DFF09003E1E00
(32.795000) can0 247#EB0DFF0900421E00
(32.797000) can0 247#D40DFF0900471E00
(32.800000) can0 247#D20DFF09004B1E00
(32.808000) can0 247#F10DFF09004F1E00
(32.812000) can0 247#E80DFF0900551E00
(32.818000) can0 247#E30DFF09005A1E00
(32.818000) can0 3FD#0000003C20400580
(32.822000) can0 247#E90DFF0900601E00
(32.824000) can0 247#DB0DFF0900671E00
(32.826000) can0 247#DA0DFF09006C1E00
(32.829000) can0 247#DB0DFF0900711E00
(32.831000) can0 247#E00DFF0900761E00
(32.833000) can0 247#E40DFF09007B1E00
(32.835000) can0 247#DF0DFF0900801E00
(32.837000) can0 247#CC0DFF0900861E00
(32.839000) can0 247#D30DFF09008C1E00
(32.841000) can0 247#ED0DFF0900901E00
(32.842000) can0 247#DB0DFF0900941E00
(32.845000) can0 247#D20DFF0900991E00
(32.847000) can0 247#E50DFF0900A01E00
(32.849000) can0 247#D10DFF0900A81E00
(32.855000) can0 247#D70DFF0900AE1E00
(32.857000) can0 247#D40DFF0900B21E00
(32.859000) can0 247#F10DFF0900B61E00
(32.861000) can0 247#E00DFF0900BD1E00
(32.863000) can0 247#E10DFF0900C11E00
(32.865000) can0 247#D50DFF0900C71E00
(32.867000) can0 247#CB0DFF0900CC1E00
(32.869000) can0 247#EE0DFF0900D41E00
(32.869000) can0 3FD#0100020000080280
(32.872000) can0 247#D50DFF0900D81E00
(32.874000) can0 247#F00DFF0900E01E00
(32.876000) can0 247#DD0DFF0900E51E00
(32.880000) can0 247#EC0DFF0900EC1E00
(32.886000) can0 247#EA0DFF0900F41E00
(32.890000) can0 247#E70DFF0900FC1E00
(32.897000) can0 247#CE0DFF0900001F00
(32.899000) can0 247#D90DFF0900071F00
(32.902000) can0 247#D90DFF09000E1F00
(32.903000) can0 247#F40DFF0900161F00
(32.905000) can0 247#D10DFF09001C1F00
(32.907000) can0 247#E50DFF0900231F00
(32.909000) can0 247#F70DFF0900291F00
(32.911000) can0 247#E70DFF0900311F00
(32.913000) can0 247#DC0DFF0900381F00
(32.915000) can0 247#E90DFF09003F1F00
(32.918000) can0 247#CF0DFF0900471F00
(32.924000) can0 247#DD0DFF09004F1F00
(32.924000) can0 3FD#0200080000000090
(32.931000) can0 247#EF0DFF0900541F00
(32.933000) can0 247#CE0DFF09005B1F00
(32.935000) can0 247#DB0DFF09005F1F00
(32.937000) can0 247#DC0DFF0900641F00
(32.940000) can0 247#EF0DFF09006A1F00
(32.942000) can0 247#DE0DFF0900711F00
(32.944000) can0 247#F30DFF0900771F00
(32.946000) can0 247#E70DFF09007C1F00
(32.947000) can0 247#DD0DFF0900801F00
(32.949000) can0 247#CD0DFF0900861F00
(32.951000) can0 247#E70DFF09008B1F00
(32.954000) can0 247#F50DFF09008F1F00
(32.956000) can0 247#DA0DFF0900971F00
(32.958000) can0 247#DB0DFF09009F1F00
(32.960000) can0 247#E90DFF0900A61F00
(32.962000) can0 247#DF0DFF0900AB1F00
(32.964000) can0 247#E30DFF0900AF1F00
(32.967000) can0 247#E00DFF0900B51F00
(32.968000) can0 247#EC0DFF0900BC1F00
(32.971000) can0 247#EB0DFF0900C21F00
(32.972000) can0 247#E50DFF0900CA1F00
(32.974000) can0 247#E90DFF0900D01F00
(32.976000) can0 247#D40DFF0900D41F00
(32.978000) can0 247#EF0DFF0900DB1F00
(32.981000) can0 247#E20DFF0900E21F00
(32.983000) can0 247#CB0DFF0900E61F00
(32.985000) can0 247#DE0DFF0900EE1F00
(32.987000) can0 247#E00DFF0900F21F00
(32.989000) can0 247#DD0DFF0900F91F00
(32.991000) can0 247#E80DFF0900012000
(32.993000) can0 247#E50DFF0900092000
(32.996000) can0 247#D50DFF0900102000
(32.998000) can0 247#E40DFF0900142000
(33.000000) can0 247#E50DFF0900192000
(33.002000) can0 247#F40DFF0900202000
(33.004000) can0 247#CA0DFF0900272000
(33.006000) can0 247#F70DFF09002B2000
(33.008000) can0 247#E80DFF0900322000
(33.010000) can0 247#CA0DFF09003A2000
(33.012000) can0 247#F00DFF0900412000
(33.014000) can0 247#F70DFF0900482000
(33.016000) can0 247#E50DFF09004E2000
(33.018000) can0 247#EB0DFF0900552000
(33.020000) can0 247#EC0DFF0900592000
(33.022000) can0 247#D00DFF0900612000
(33.025000) can0 247#F40DFF0900692000
(33.031000) can0 247#F40DFF09006D2000
(33.033000) can0 247#C90DFF0A00752000
(33.035000) can0 247#E00DFF0A007B2000
(33.037000) can0 247#D30DFF0A00822000
(33.039000) can0 247#E80DFF0A00892000
(33.043000) can0 247#E60DFF0A00912000
(33.049000) can0 247#D50DFF0A00952000
(33.057000) can0 247#EA0DFF0A009C2000
(33.063000) can0 247#CE0DFF0A00A22000
(33.067000) can0 247#CC0DFF0A00A92000
(33.073000) can0 247#F60DFF0A00B02000
(33.079000) can0 247#E20DFF0A00B82000
(33.081000) can0 247#EF0DFF0A00BC2000
(33.088000) can0 247#ED0DFF0A00C42000
(33.098000) can0 247#D40DFF0A00CB2000
(33.102000) can0 247#EA0DFF0A00D12000
(33.104000) can0 247#CA0DFF0A00D52000
(33.106000) can0 247#DA0DFF0A00D92000
(33.108000) can0 247#CC0DFF0A00DD2000
(33.110000) can0 247#F00DFF0A00E12000
(33.112000) can0 247#DF0DFF0A00E72000
(33.114000) can0 247#F70DFF0A00EE2000
(33.116000) can0 247#F20DFF0A00F22000
(33.118000) can0 247#F20DFF0A00F62000
(33.124000) can0 247#DE0DFF0A00FC2000
(33.130000) can0 247#DA0DFF0A00042100
(33.132000) can0 247#D40DFF0A00082100
(33.135000) can0 247#D00DFF0A000F2100
(33.137000) can0 247#D20DFF0A00172100
(33.139000) can0 247#CD0DFF0A001D2100
(33.141000) can0 247#EE0DFF0A00222100
(33.142000) can0 247#DE0DFF0A00262100
(33.145000) can0 247#E50DFF0A002D2100
(33.147000) can0 247#EB0DFF0A00322100
(33.149000) can0 247#DC0DFF0A003A2100
(33.151000) can0 247#C80DFF0A00422100
(33.153000) can0 247#D40DFF0A00472100
(33.155000) can0 247#D70DFF0A004D2100
(33.157000) can0 247#E20DFF0A00532100
(33.159000) can0 247#F20DFF0A00592100
(33.161000) can0 247#D90DFF0A00602100
(33.163000) can0 247#DB0DFF0A00652100
(33.165000) can0 247#EF0DFF0A006A2100
(33.167000) can0 247#CB0DFF0A006E2100
(33.169000) can0 247#CB0DFF0A00732100
(33.171000) can0 247#D70DFF0A007B2100
(33.174000) can0 247#EA0DFF0A00802100
(33.176000) can0 247#D60DFF0A00842100
(33.178000) can0 247#F60DFF0A008B2100
(33.179000) can0 247#EA0DFF0A00922100
(33.181000) can0 247#EF0DFF0A00962100
(33.183000) can0 247#DD0DFF0A009E2100
(33.185000) can0 247#CF0DFF0A00A42100
(33.187000) can0 247#D00DFF0A00AB2100
(33.189000) can0 247#E10DFF0A00AF2100
(33.191000) can0 247#CA0DFF0A00B72100
(33.193000) can0 247#F00DFF0A00BF2100
(33.195000) can0 247#C90DFF0A00C42100
(33.197000) can0 247#C80DFF0A00CA2100
(33.200000) can0 247#E50DFF0A00CF2100
(33.202000) can0 247#E20DFF0A00D62100
(33.204000) can0 247#D00DFF0A00DE2100
(33.206000) can0 247#F40DFF0A00E52100
(33.208000) can0 247#E40DFF0A00EC2100
(33.210000) can0 247#CF0DFF0A00F02100
(33.212000) can0 247#F20DFF0A00F42100
(33.213000) can0 247#D30DFF0A00FA2100
(33.215000) can0 247#E10DFF0A00002200
(33.218000) can0 247#D40DFF0A00052200
(33.220000) can0 247#D60DFF0A000C2200
(33.222000) can0 247#F60DFF0A00112200
(33.224000) can0 247#DC0DFF0A00182200
(33.226000) can0 247#EC0DFF0A001F2200
(33.233000) can0 247#CB0DFF0A00272200
(33.235000) can0 247#F20DFF0A002D2200
(33.237000) can0 247#DA0DFF0A00312200
(33.239000) can0 247#EC0DFF0A00392200
(33.241000) can0 247#EA0DFF0A003E2200
(33.242000) can0 247#CE0DFF0A00442200
(33.244000) can0 247#F10DFF0A004A2200
(33.246000) can0 247#D40DFF0A004F2200
(33.248000) can0 247#ED0DFF0A00572200
(33.255000) can0 247#D60DFF0A005C2200
(33.261000) can0 247#CB0DFF0A00632200
(33.263000) can0 247#D60DFF0A006B2200
(33.265000) can0 247#E30DFF0A00702200
(33.269000) can0 247#EE0DFF0A00762200
(33.273000) can0 247#DE0DFF0A007B2200
(33.279000) can0 247#F10DFF0A007F2200
(33.283000) can0 247#F60DFF0A00872200
(33.287000) can0 247#DA0DFF0A008F2200
(33.289000) can0 247#EF0DFF0A00962200
(33.291000) can0 247#CB0DFF0A009B2200
(33.293000) can0 247#E90DFF0A009F2200
(33.295000) can0 247#E70DFF0A00A72200
(33.297000) can0 247#F00DFF0A00AB2200
(33.300000) can0 247#E00DFF0A00B02200
(33.308000) can0 247#E70DFF0A00B82200
(33.315000) can0 247#DA0DFF0A00C02200
(33.322000) can0 247#E10DFF0A00C82200
(33.322000) can0 3FD#0000003C20400580
(33.330000) can0 247#DD0DFF0A00CF2200
(33.332000) can0 247#DA0DFF0A00D32200
(33.334000) can0 247#DA0DFF0A00D92200
(33.336000) can0 247#DE0DFF0A00E12200
(33.338000) can0 247#E60DFF0A00E62200
(33.339000) can0 247#EB0DFF0A00ED2200
(33.341000) can0 247#E80DFF0A00F32200
(33.343000) can0 247#F00DFF0A00FA2200
(33.345000) can0 247#CD0DFF0A00022300
(33.347000) can0 247#E90DFF0A00062300
(33.350000) can0 247#D00DFF0A000E2300
(33.352000) can0 247#E40DFF0A00122300
(33.354000) can0 247#E80DFF0A00162300
(33.356000) can0 247#E70DFF0A001D2300
(33.358000) can0 247#E50DFF0A00222300
(33.360000) can0 247#D60DFF0A002A2300
(33.362000) can0 247#E50DFF0A00302300
(33.364000) can0 247#DE0DFF0A00362300
(33.366000) can0 247#D10DFF0A003B2300
(33.368000) can0 247#F70DFF0A00402300
(33.370000) can0 247#EA0DFF0A00452300
(33.372000) can0 247#D00DFF0A004D2300
(33.372000) can0 3FD#0100020000080280
(33.375000) can0 247#CE0DFF0A00522300
(33.377000) can0 247#D60DFF0A00582300
(33.384000) can0 247#E90DFF0A005E2300
(33.388000) can0 247#D90DFF0A00632300
(33.392000) can0 247#D00DFF0A00692300
(33.398000) can0 247#E40DFF0A00702300
(33.400000) can0 247#E20DFF0A00762300
(33.402000) can0 247#CC0DFF0A007B2300
(33.404000) can0 247#E00DFF0A00812300
(33.406000) can0 247#DA0DFF0A00882300
(33.408000) can0 247#D50DFF0A008E2300
(33.410000) can0 247#E30DFF0A00922300
(33.412000) can0 247#F50DFF0A00982300
(33.413000) can0 247#E30DFF0A009E2300
(33.415000) can0 247#D70DFF0A00A22300
(33.417000) can0 247#F70DFF0A00A82300
(33.421000) can0 247#D60DFF0A00AC2300
(33.421000) can0 3FD#0200080000000090
(33.424000) can0 247#D20DFF0A00B22300
(33.426000) can0 247#D50DFF0A00B62300
(33.428000) can0 247#E30DFF0A00BD2300
(33.434000) can0 247#DA0DFF0A00C42300
(33.436000) can0 247#F00DFF0A00C82300
(33.438000) can0 247#D50DFF0A00CD2300
(33.440000) can0 247#C90DFF0A00D22300
(33.442000) can0 247#D50DFF0A00D72300
(33.444000) can0 247#CC0DFF0A00DE2300
(33.446000) can0 247#E50DFF0A00E62300
(33.448000) can0 247#CF0DFF0A00EA2300
(33.450000) can0 247#D50DFF0A00F12300
(33.453000) can0 247#E30DFF0A00F82300
(33.455000) can0 247#CD0DFF0A00FF2300
(33.457000) can0 247#F00DFF0A00072400
(33.463000) can0 247#E00DFF0A000E2400
(33.465000) can0 247#EF0DFF0A00142400
(33.467000) can0 247#D30DFF0A001A2400
(33.468000) can0 247#EA0DFF0A001E2400
(33.470000) can0 247#CD0DFF0A00232400
(33.472000) can0 247#E10DFF0A002A2400
(33.474000) can0 247#E80DFF0A00312400
(33.476000) can0 247#F20DFF0A00372400
(33.478000) can0 247#D10DFF0A003D2400
(33.480000) can0 247#ED0DFF0A00432400
(33.484000) can0 247#F50DFF0A004A2400
(33.491000) can0 247#F10DFF0A004E2400
(33.495000) can0 247#E30DFF0A00562400
(33.501000) can0 247#E60DFF0A005C2400
(33.503000) can0 247#EC0DFF0A00642400
(33.505000) can0 247#EF0DFF0A006C2400
(33.507000) can0 247#D00DFF0A00732400
(33.509000) can0 247#DB0DFF0A00782400
(33.511000) can0 247#D40DFF0A007E2400
(33.513000) can0 247#E90DFF0A00842400
(33.515000) can0 247#DA0DFF0A008A2400
(33.517000) can0 247#EE0DFF0A008F2400
(33.519000) can0 247#CE0DFF0A00932400
(33.521000) can0 247#F00DFF0A00982400
(33.523000) can0 247#C90DFF0A009D2400
(33.526000) can0 247#E90DFF0A00A12400
(33.528000) can0 247#CC0DFF0A00A92400
(33.530000) can0 247#EB0DFF0A00B12400
(33.532000) can0 247#F50DFF0A00B82400
(33.534000) can0 247#F70DFF0A00C02400
(33.536000) can0 247#F60DFF0A00C52400
(33.538000) can0 247#EE0DFF0A00C92400
(33.540000) can0 247#EC0DFF0A00CD2400
(33.542000) can0 247#C80DFF0A00D32400
(33.543000) can0 247#E30DFF0A00D82400
(33.545000) can0 247#F00DFF0A00DE2400
(33.547000) can0 247#CB0DFF0A00E32400
(33.550000) can0 247#D50DFF0A00E72400
(33.553000) can0 247#CF0DFF0A00EE2400
(33.560000) can0 247#CE0DFF0A00F52400
(33.566000) can0 247#DC0DFF0A00FD2400
(33.574000) can0 247#D40DFF0A00052500
(33.580000) can0 247#F50DFF0A000B2500
(33.586000) can0 247#CB0DFF0A00122500
(33.590000) can0 247#DD0DFF0A00182500
(33.592000) can0 247#C80DFF0A001D2500
(33.594000) can0 247#D50DFF0A00242500
(33.596000) can0 247#ED0DFF0A002A2500
(33.598000) can0 247#D20DFF0A00302500
(33.600000) can0 247#DF0DFF0A00372500
(33.603000) can0 247#F50DFF0A003F2500
(33.605000) can0 247#D50DFF0A00442500
(33.607000) can0 247#D60DFF0A00492500
(33.610000) can0 247#EC0DFF0A004E2500
(33.612000) can0 247#EB0DFF0A00552500
(33.613000) can0 247#F20DFF0A005C2500
(33.615000) can0 247#E10DFF0A00632500
(33.617000) can0 247#D00DFF0A006B2500
(33.619000) can0 247#E60DFF0A006F2500
(33.621000) can0 247#EE0DFF0A00742500
(33.621000) can0 3FD#0000003C20400580
(33.625000) can0 247#E80DFF0A007C2500
(33.626000) can0 247#D60DFF0A00802500
(33.628000) can0 247#CE0DFF0A00852500
(33.631000) can0 247#D90DFF0A008D2500
(33.633000) can0 247#E20DFF0A00912500
(33.635000) can0 247#F50DFF0A00952500
(33.637000) can0 247#E70DFF0A009B2500
(33.640000) can0 247#D90DFF0A00A32500
(33.642000) can0 247#DA0DFF0A00AB2500
(33.643000) can0 247#EE0DFF0A00B02500
(33.645000) can0 247#F60DFF0A00B82500
(33.647000) can0 247#CA0DFF0A00BC2500
(33.649000) can0 247#E10DFF0A00C12500
(33.657000) can0 247#DF0DFF0A00C62500
(33.661000) can0 247#CC0DFF0A00CC2500
(33.665000) can0 247#F70DFF0A00D42500
(33.669000) can0 247#F20DFF0A00DA2500
(33.673000) can0 247#DF0DFF0A00DF2500
(33.673000) can0 3FD#0100020000080280
(33.683000) can0 247#D70DFF0A00E72500
(33.687000) can0 247#E30DFF0A00EF2500
(33.689000) can0 247#D90DFF0A00F62500
(33.692000) can0 247#F40DFF0A00FE2500
(33.693000) can0 247#E40DFF0A00062600
(33.695000) can0 247#EE0DFF0A000C2600
(33.697000) can0 247#EC0DFF0A00132600
(33.699000) can0 247#C90DFF0A00172600
(33.701000) can0 247#E90DFF0A001E2600
(33.703000) can0 247#F10DFF0A00232600
(33.705000) can0 247#F70DFF0A00282600
(33.709000) can0 247#DC0DFF0A00302600
(33.713000) can0 247#E50DFF0A00382600
(33.717000) can0 247#CA0DFF0A003C2600
(33.723000) can0 247#D40DFF0A00422600
(33.723000) can0 3FD#0200080000000090
(33.729000) can0 247#E90DFF0A004A2600
(33.731000) can0 247#DF0DFF0A004F2600
(33.733000) can0 247#ED0DFF0A00562600
(33.735000) can0 247#EC0DFF0A005D2600
(33.738000) can0 247#E70DFF0A00612600
(33.739000) can0 247#D70DFF0A00652600
(33.741000) can0 247#F60DFF0A00692600
(33.743000) can0 247#F10DFF0A006E2600
(33.746000) can0 247#E20DFF0A00742600
(33.748000) can0 247#CF0DFF0A007A2600
(33.750000) can0 247#F40DFF0A007E2600
(33.752000) can0 247#CC0DFF0A00832600
(33.754000) can0 247#DB0DFF0A00882600
(33.756000) can0 247#ED0DFF0A008D2600
(33.758000) can0 247#DD0DFF0A00952600
(33.759000) can0 247#D80DFF0A009B2600
(33.762000) can0 247#F00DFF0A00A32600
(33.764000) can0 247#E80DFF0A00AA2600
(33.766000) can0 247#E80DFF0A00B02600
(33.768000) can0 247#F30DFF0A00B42600
(33.770000) can0 247#E40DFF0A00B92600
(33.772000) can0 247#E40DFF0A00C12600
(33.774000) can0 247#DA0DFF0A00C82600
(33.776000) can0 247#D70DFF0A00CC2600
(33.778000) can0 247#E20DFF0A00D02600
(33.780000) can0 247#E80DFF0A00D72600
(33.782000) can0 247#CE0DFF0A00DF2600
(33.784000) can0 247#EF0DFF0A00E42600
(33.786000) can0 247#D60DFF0A00EA2600
(33.789000) can0 247#D50DFF0A00F12600
(33.791000) can0 247#C90DFF0A00F52600
(33.792000) can0 247#EE0DFF0A00FB2600
(33.794000) can0 247#DE0DFF0A00022700
(33.796000) can0 247#EB0DFF0A00062700
(33.798000) can0 247#CD0DFF0A000E2700
(33.801000) can0 247#DF0DFF0A00132700
(33.804000) can0 247#DE0DFF0A001B2700
(33.812000) can0 247#D00DFF0A00222700
(33.818000) can0 247#D10DFF0A00262700
(33.823000) can0 247#D70DFF0A002E2700
(33.823000) can0 3FD#0000003C20400580
(33.825000) can0 247#C80DFF0A00342700
(33.827000) can0 247#E90DFF0A003B2700
(33.829000) can0 247#DE0DFF0A00432700
(33.832000) can0 247#E40DFF0A004B2700
(33.834000) can0 247#D90DFF0A004F2700
(33.836000) can0 247#CA0DFF0A00542700
(33.838000) can0 247#CC0DFF0A005A2700
(33.840000) can0 247#D30DFF0A00612700
(33.843000) can0 247#DA0DFF0A00682700
(33.845000) can0 247#F40DFF0A006D2700
(33.847000) can0 247#DF0DFF0A00752700
(33.848000) can0 247#F30DFF0A007B2700
(33.855000) can0 247#E20DFF0A00832700
(33.857000) can0 247#D20DFF0A00872700
(33.863000) can0 247#D80DFF0A008D2700
(33.865000) can0 247#E70DFF0A00952700
(33.867000) can0 247#EE0DFF0A009C2700
(33.873000) can0 247#E90DFF0A00A42700
(33.873000) can0 3FD#0100020000080280
(33.881000) can0 247#CE0DFF0A00AB2700
(33.885000) can0 247#D30DFF0A00B02700
(33.889000) can0 247#F20DFF0A00B62700
(33.891000) can0 247#D00DFF0A00BC2700
(33.893000) can0 247#DA0DFF0A00C22700
(33.895000) can0 247#E80DFF0A00C62700
(33.897000) can0 247#C90DFF0A00CA2700
(33.899000) can0 247#F70DFF0A00D12700
(33.901000) can0 247#CB0DFF0A00D62700
(33.903000) can0 247#DD0DFF0A00DD2700
(33.904000) can0 247#E40DFF0A00E32700
(33.906000) can0 247#F70DFF0A00EA2700
(33.908000) can0 247#EE0DFF0A00F22700
(33.911000) can0 247#DD0DFF0A00F82700
(33.913000) can0 247#D10DFF0A00FF2700
(33.915000) can0 247#F10DFF0A00032800
(33.918000) can0 247#CB0DFF0A00082800
(33.924000) can0 247#D40DFF0A00102800
(33.924000) can0 3FD#0200080000000090
(33.931000) can0 247#ED0DFF0A00152800
(33.933000) can0 247#CF0DFF0A001D2800
(33.935000) can0 247#D30DFF0A00222800
(33.937000) can0 247#D10DFF09002A2800
(33.939000) can0 247#F30DFF09002F2800
(33.940000) can0 247#EF0DFF0900362800
(33.942000) can0 247#C90DFF09003A2800
(33.944000) can0 247#ED0DFF0900422800
(33.946000) can0 247#D60DFF0900482800
(33.949000) can0 247#E20DFF09004D2800
(33.952000) can0 247#EB0DFF0900512800
(33.954000) can0 247#ED0DFF0900562800
(33.956000) can0 247#E40DFF09005E2800
(33.958000) can0 247#D00DFF0900662800
(33.959000) can0 247#D60DFF09006B2800
(33.961000) can0 247#F10DFF09006F2800
(33.963000) can0 247#C80DFF0900742800
(33.965000) can0 247#E50DFF0900792800
(33.967000) can0 247#F00DFF09007E2800
(33.969000) can0 247#F40DFF0900822800
(33.971000) can0 247#D30DFF09008A2800
(33.973000) can0 247#E00DFF0900922800
(33.975000) can0 247#E50DFF0900982800
(33.978000) can0 247#D90DFF0900A02800
(33.980000) can0 247#EC0DFF0900A72800
(33.984000) can0 247#E70DFF0900AE2800
(33.986000) can0 247#D00DFF0900B22800
(33.987000) can0 247#EB0DFF0900B72800
(33.989000) can0 247#C90DFF0900BC2800
(33.991000) can0 247#E20DFF0900C12800
(33.993000) can0 247#E10DFF0900C52800
(33.995000) can0 247#E90DFF0900CB2800
(33.997000) can0 247#EB0DFF0900D22800
(33.999000) can0 247#DA0DFF0900D92800
(34.001000) can0 247#E60DFF0900E12800
(34.003000) can0 247#D90DFF0900E62800
(34.005000) can0 247#E30DFF0900EB2800
(34.009000) can0 247#CC0DFF0900EF2800
(34.015000) can0 247#EE0DFF0900F32800
(34.017000) can0 247#F10DFF0900F72800
(34.019000) can0 247#D60DFF0900FC2800
(34.021000) can0 247#DF0DFF0900012900
(34.023000) can0 247#CC0DFF0900072900
(34.025000) can0 247#DC0DFF09000F2900
(34.027000) can0 247#CC0DFF0900162900
(34.029000) can0 247#E40DFF09001B2900
(34.030000) can0 247#E80DFF0900222900
(34.032000) can0 247#CB0DFF0900292900
(34.034000) can0 247#F00DFF09002D2900
(34.036000) can0 247#E80DFF0900352900
(34.040000) can0 247#D70DFF09003B2900
(34.045000) can0 247#D80DFF09003F2900
(34.051000) can0 247#CC0DFF0900452900
(34.058000) can0 247#F20DFF09004D2900
(34.066000) can0 247#CA0DFF0900552900
(34.072000) can0 247#DF0DFF09005A2900
(34.077000) can0 247#F70DFF0900622900
(34.079000) can0 247#F70DFF0900672900
(34.081000) can0 247#D40DFF09006F2900
(34.082000) can0 247#D20DFF0900762900
(34.084000) can0 247#D40DFF09007E2900
(34.086000) can0 247#F10DFF0900852900
(34.088000) can0 247#CF0DFF09008D2900
(34.090000) can0 247#EC0DFF0900912900
(34.094000) can0 247#D80DFF0900952900
(34.101000) can0 247#CF0DFF09009C2900
(34.105000) can0 247#EF0DFF0900A22900
(34.111000) can0 247#D10DFF0900AA2900
(34.113000) can0 247#DB0DFF0900AE2900
(34.115000) can0 247#E50DFF0900B52900
(34.117000) can0 247#D60DFF0900B92900
(34.123000) can0 247#D70DFF0900BD2900
(34.125000) can0 247#EF0DFF0900C12900
(34.127000) can0 247#DF0DFF0900C92900
(34.129000) can0 247#C80DFF0900CD2900
(34.131000) can0 247#DD0DFF0900D42900
(34.133000) can0 247#D20DFF0900DA2900
(34.135000) can0 247#E30DFF0900E12900
(34.137000) can0 247#E30DFF0900E92900
(34.140000) can0 247#EA0DFF0900ED2900
(34.142000) can0 247#D90DFF0900F12900
(34.144000) can0 247#C90DFF0900F92900
(34.146000) can0 247#E30DFF0900FD2900
(34.148000) can0 247#E30DFF0900012A00
(34.150000) can0 247#EB0DFF0900062A00
(34.152000) can0 247#E40DFF09000B2A00
(34.154000) can0 247#D60DFF0900102A00
(34.156000) can0 247#CA0DFF0900172A00
(34.158000) can0 247#F50DFF09001F2A00
(34.159000) can0 247#F30DFF0900232A00
(34.161000) can0 247#F00DFF09002A2A00
(34.164000) can0 247#C80DFF09002E2A00
(34.166000) can0 247#C90DFF0900352A00
(34.169000) can0 247#EB0DFF09003B2A00
(34.170000) can0 247#F00DFF0900422A00
(34.172000) can0 247#E50DFF09004A2A00
(34.174000) can0 247#D60DFF09004E2A00
(34.176000) can0 247#D20DFF0900552A00
(34.178000) can0 247#F50DFF09005C2A00
(34.180000) can0 247#D80DFF0900612A00
(34.184000) can0 247#F60DFF0900682A00
(34.185000) can0 247#F10DFF09006D2A00
(34.187000) can0 247#CD0DFF0900722A00
(34.189000) can0 247#D00DFF0900792A00
(34.192000) can0 247#E80DFF09007E2A00
(34.194000) can0 247#CB0DFF0900862A00
(34.196000) can0 247#E30DFF09008A2A00
(34.198000) can0 247#F50DFF09008F2A00
(34.200000) can0 247#DF0DFF0900952A00
(34.202000) can0 247#CB0DFF09009C2A00
(34.204000) can0 247#D40DFF0900A02A00
(34.206000) can0 247#D70DFF0900A62A00
(34.208000) can0 247#C90DFF0900AA2A00
(34.210000) can0 247#DF0DFF0900B22A00
(34.212000) can0 247#E00DFF0900B72A00
(34.214000) can0 247#F40DFF0900BB2A00
(34.216000) can0 247#DA0DFF0900C02A00
(34.218000) can0 247#F70DFF0900C82A00
(34.220000) can0 247#E00DFF0900CC2A00
(34.222000) can0 247#E90DFF0900D02A00
(34.224000) can0 247#CB0DFF0900D42A00
(34.227000) can0 247#E50DFF0900DC2A00
(34.229000) can0 247#E70DFF0900E22A00
(34.231000) can0 247#F20DFF0900E62A00
(34.233000) can0 247#CD0DFF0900EC2A00
(34.235000) can0 247#D90DFF0900F22A00
(34.237000) can0 247#DF0DFF0900F72A00
(34.239000) can0 247#E30DFF0900FE2A00
(34.241000) can0 247#CD0DFF0900062B00
(34.243000) can0 247#CE0DFF09000A2B00
(34.245000) can0 247#E60DFF0900112B00
(34.247000) can0 247#E40DFF0900182B00
(34.249000) can0 247#E20DFF0900202B00
(34.251000) can0 247#E60DFF0900282B00
(34.254000) can0 247#F20DFF09002C2B00
(34.256000) can0 247#EB0DFF0900342B00
(34.258000) can0 247#D60DFF0900392B00
(34.259000) can0 247#C80DFF0900402B00
(34.261000) can0 247#D20DFF0900472B00
(34.263000) can0 247#DF0DFF09004C2B00
(34.265000) can0 247#F30DFF0900512B00
(34.267000) can0 247#E10DFF0900592B00
(34.269000) can0 247#C90DFF09005F2B00
(34.271000) can0 247#F60DFF0900632B00
(34.273000) can0 247#E00DFF0900672B00
(34.277000) can0 247#E30DFF09006E2B00
(34.281000) can0 247#EB0DFF0900722B00
(34.285000) can0 247#D70DFF09007A2B00
(34.290000) can0 247#EF0DFF0900812B00
(34.296000) can0 247#F10DFF0900882B00
(34.298000) can0 247#CA0DFF09008D2B00
(34.300000) can0 247#F10DFF0900932B00
(34.302000) can0 247#EC0DFF09009B2B00
(34.310000) can0 247#F30DFF0900A12B00
(34.317000) can0 247#EA0DFF0900A72B00
(34.323000) can0 247#F10DFF0900AD2B00
(34.323000) can0 3FD#0000003C20400580
(34.334000) can0 247#D50DFF0900B22B00
(34.336000) can0 247#CC0DFF0900B92B00
(34.338000) can0 247#D50DFF0900C02B00
(34.340000) can0 247#D30DFF0900C82B00
(34.342000) can0 247#D10DFF0900D02B00
(34.344000) can0 247#E10DFF0900D82B00
(34.347000) can0 247#E60DFF0900E02B00
(34.349000) can0 247#D60DFF0900E72B00
(34.351000) can0 247#F00DFF0900EF2B00
(34.353000) can0 247#EE0DFF0900F52B00
(34.355000) can0 247#E40DFF0900FA2B00
(34.357000) can0 247#C80DFF0900022C00
(34.359000) can0 247#EE0DFF09000A2C00
(34.361000) can0 247#D70DFF0900122C00
(34.363000) can0 247#EC0DFF0900172C00
(34.365000) can0 247#EC0DFF09001F2C00
(34.367000) can0 247#E00DFF0900232C00
(34.369000) can0 247#D00DFF09002B2C00
(34.369000) can0 3FD#0100020000080280
(34.372000) can0 247#E50DFF0900332C00
(34.379000) can0 247#EA0DFF09003B2C00
(34.383000) can0 247#D80DFF0900432C00
(34.389000) can0 247#E80DFF0900482C00
(34.393000) can0 247#EA0DFF0900502C00
(34.395000) can0 247#F20DFF0900542C00
(34.397000) can0 247#DA0DFF0900582C00
(34.399000) can0 247#F20DFF09005E2C00
(34.400000) can0 247#EB0DFF0900652C00
(34.403000) can0 247#F70DFF0900692C00
(34.405000) can0 247#EB0DFF09006F2C00
(34.407000) can0 247#DD0DFF0900732C00
(34.409000) can0 247#CF0DFF09007B2C00
(34.411000) can0 247#D40DFF0900832C00
(34.412000) can0 247#EA0DFF0900892C00
(34.415000) can0 247#EF0DFF09008F2C00
(34.417000) can0 247#F70DFF0900942C00
(34.419000) can0 247#CC0DFF0900992C00
(34.419000) can0 3FD#0200080000000090
(34.422000) can0 247#CD0DFF0900A02C00
(34.424000) can0 247#F40DFF0900A72C00
(34.426000) can0 247#DA0DFF0900AB2C00
(34.428000) can0 247#F40DFF0900B12C00
(34.431000) can0 247#D40DFF0900B62C00
(34.432000) can0 247#F20DFF0900BA2C00
(34.434000) can0 247#E40DFF0900C12C00
(34.436000) can0 247#D60DFF0900C62C00
(34.438000) can0 247#E40DFF0900CC2C00
(34.440000) can0 247#CA0DFF0900D12C00
(34.442000) can0 247#E20DFF0900D92C00
(34.445000) can0 247#E70DFF0900DE2C00
(34.447000) can0 247#F60DFF0900E32C00
(34.449000) can0 247#E70DFF0900EB2C00
(34.451000) can0 247#EE0DFF0900F12C00
(34.453000) can0 247#F00DFF0900F72C00
(34.455000) can0 247#E10DFF0900FB2C00
(34.458000) can0 247#D50DFF0900FF2C00
(34.460000) can0 247#D40DFF0900032D00
(34.461000) can0 247#E30DFF0900082D00
(34.463000) can0 247#E20DFF0900102D00
(34.465000) can0 247#F70DFF0900152D00
(34.467000) can0 247#EE0DFF0900192D00
(34.469000) can0 247#F60DFF09001E2D00
(34.476000) can0 247#EC0DFF0900222D00
(34.482000) can0 247#DB0DFF0900292D00
(34.488000) can0 247#C80DFF0900302D00
(34.490000) can0 247#EA0DFF0900362D00
(34.492000) can0 247#F20DFF09003C2D00
(34.494000) can0 247#D80DFF0900402D00
(34.496000) can0 247#CF0DFF0900472D00
(34.498000) can0 247#CA0DFF09004F2D00
(34.500000) can0 247#E20DFF0900532D00
(34.502000) can0 247#E50DFF09005B2D00
(34.504000) can0 247#EB0DFF0900632D00
(34.506000) can0 247#D00DFF0900682D00
(34.508000) can0 247#E60DFF09006C2D00
(34.510000) can0 247#F50DFF0900702D00
(34.513000) can0 247#DC0DFF0900772D00
(34.515000) can0 247#F60DFF09007B2D00
(34.517000) can0 247#DC0DFF0900822D00
(34.519000) can0 247#EB0DFF0900872D00
(34.519000) can0 3FD#0000003C20400580
(34.522000) can0 247#CA0DFF09008B2D00
(34.525000) can0 247#D60DFF0900902D00
(34.527000) can0 247#D50DFF0900942D00
(34.529000) can0 247#E30DFF09009B2D00
(34.535000) can0 247#CE0DFF0900A22D00
(34.537000) can0 247#CE0DFF0900A82D00
(34.539000) can0 247#F40DFF0900AE2D00
(34.540000) can0 247#EF0DFF0900B32D00
(34.542000) can0 247#E40DFF0900BB2D00
(34.544000) can0 247#D90DFF0900C22D00
(34.547000) can0 247#E90DFF0900C92D00
(34.549000) can0 247#EB0DFF0900CF2D00
(34.551000) can0 247#F00DFF0900D72D00
(34.553000) can0 247#F30DFF0900DB2D00
(34.573000) can0 247#E50DFF0900E12D00
(34.573000) can0 3FD#0100020000080280
(34.585000) can0 247#EC0DFF0900E62D00
(34.591000) can0 247#D50DFF0900EE2D00
(34.595000) can0 247#F20DFF0900F22D00
(34.597000) can0 247#F00DFF0900F72D00
(34.599000) can0 247#F00DFF0900FB2D00
(34.601000) can0 247#D90DFF0900012E00
(34.603000) can0 247#C90DFF0900072E00
(34.605000) can0 247#CD0DFF09000E2E00
(34.607000) can0 247#D40DFF0900162E00
(34.610000) can0 247#DA0DFF09001A2E00
(34.612000) can0 247#D90DFF0900212E00
(34.613000) can0 247#DB0DFF0900282E00
(34.616000) can0 247#EA0DFF0900302E00
(34.618000) can0 247#D00DFF0900342E00
(34.624000) can0 247#DC0DFF0900382E00
(34.624000) can0 3FD#0200080000000090
(34.631000) can0 247#ED0DFF09003D2E00
(34.633000) can0 247#F10DFF0900422E00
(34.635000) can0 247#E40DFF09004A2E00
(34.637000) can0 247#CC0DFF0900502E00
(34.639000) can0 247#EC0DFF0900582E00
(34.641000) can0 247#F30DFF09005F2E00
(34.643000) can0 247#DF0DFF0900632E00
(34.646000) can0 247#E00DFF09006B2E00
(34.648000) can0 247#F60DFF0900732E00
(34.653000) can0 247#D70DFF09007A2E00
(34.657000) can0 247#E60DFF09007F2E00
(34.661000) can0 247#E30DFF0900842E00
(34.665000) can0 247#ED0DFF09008A2E00
(34.668000) can0 247#DE0DFF09008F2E00
(34.670000) can0 247#E80DFF0900972E00
(34.672000) can0 247#D40DFF09009F2E00
(34.674000) can0 247#EA0DFF0900A72E00
(34.676000) can0 247#EE0DFF0900AE2E00
(34.678000) can0 247#C90DFF0900B32E00
(34.680000) can0 247#F60DFF0900BB2E00
(34.682000) can0 247#DD0DFF0900C12E00
(34.687000) can0 247#C90DFF0900C52E00
(34.691000) can0 247#DD0DFF0900CB2E00
(34.696000) can0 247#F30DFF0900CF2E00
(34.703000) can0 247#EA0DFF0900D72E00
(34.705000) can0 247#EC0DFF0900DD2E00
(34.707000) can0 247#CE0DFF0900E12E00
(34.709000) can0 247#D80DFF0900E52E00
(34.711000) can0 247#F70DFF0900ED2E00
(34.713000) can0 247#CE0DFF0900F42E00
(34.715000) can0 247#E80DFF0900F82E00
(34.717000) can0 247#F10DFF0900FE2E00
(34.719000) can0 247#D40DFF0900032F00
(34.721000) can0 247#D70DFF09000A2F00
(34.723000) can0 247#E10DFF0900122F00
(34.730000) can0 247#E90DFF0900192F00
(34.735000) can0 247#E20DFF0900202F00
(34.742000) can0 247#ED0DFF0900262F00
(34.744000) can0 247#D90DFF09002A2F00
(34.746000) can0 247#CF0DFF0900312F00
(34.748000) can0 247#D50DFF0900392F00
(34.750000) can0 247#CC0DFF0900412F00
(34.752000) can0 247#DC0DFF0900482F00
(34.754000) can0 247#DE0DFF09004D2F00
(34.756000) can0 247#E70DFF0900542F00
(34.758000) can0 247#E90DFF09005B2F00
(34.759000) can0 247#CD0DFF0900612F00
(34.761000) can0 247#D00DFF0900692F00
(34.763000) can0 247#EA0DFF0900702F00
(34.766000) can0 247#D00DFF0900782F00
(34.769000) can0 247#E00DFF09007E2F00
(34.771000) can0 247#DF0DFF0900852F00
(34.772000) can0 247#DF0DFF09008B2F00
(34.774000) can0 247#E90DFF09008F2F00
(34.776000) can0 247#D80DFF0900962F00
(34.778000) can0 247#E90DFF09009C2F00
(34.780000) can0 247#DB0DFF0900A22F00
(34.782000) can0 247#CF0DFF0900A82F00
(34.784000) can0 247#CF0DFF0900AF2F00
(34.786000) can0 247#CC0DFF0900B62F00
(34.787000) can0 247#EF0DFF0900BA2F00
(34.789000) can0 247#D80DFF0900BF2F00
(34.791000) can0 247#F60DFF0900C72F00
(34.795000) can0 247#CF0DFF0900CD2F00
(34.797000) can0 247#CD0DFF0900D42F00
(34.799000) can0 247#D70DFF0900D92F00
(34.801000) can0 247#F00DFF0900DF2F00
(34.803000) can0 247#E60DFF0900E62F00
(34.808000) can0 247#CC0DFF0900EE2F00
(34.814000) can0 247#EC0DFF0900F52F00
(34.820000) can0 247#DE0DFF0900FD2F00
(34.820000) can0 3FD#0000003C20400580
(34.832000) can0 247#ED0DFF0900043000
(34.834000) can0 247#EA0DFF0900093000
(34.836000) can0 247#D40DFF09000F3000
(34.838000) can0 247#F70DFF0900173000
(34.840000) can0 247#CA0DFF09001B3000
(34.843000) can0 247#DE0DFF0900213000
(34.845000) can0 247#E60DFF0900263000
(34.847000) can0 247#D70DFF09002A3000
(34.849000) can0 247#E40DFF0900313000
(34.855000) can0 247#DD0DFF0900383000
(34.857000) can0 247#D40DFF09003D3000
(34.859000) can0 247#E00DFF0900443000
(34.861000) can0 247#E90DFF09004C3000
(34.863000) can0 247#D70DFF0900543000
(34.865000) can0 247#DB0DFF09005C3000
(34.867000) can0 247#EE0DFF0900633000
(34.868000) can0 247#DB0DFF09006A3000
(34.870000) can0 247#F00DFF09006E3000
(34.870000) can0 3FD#0100020000080280
(34.878000) can0 247#CD0DFF0900763000
(34.883000) can0 247#D30DFF09007B3000
(34.887000) can0 247#EA0DFF0900833000
(34.891000) can0 247#EA0DFF0900883000
(34.895000) can0 247#F60DFF09008E3000
(34.897000) can0 247#F30DFF0900933000
(34.898000) can0 247#D70DFF0900983000
(34.900000) can0 247#ED0DFF0900A03000
(34.902000) can0 247#F70DFF0900A43000
(34.904000) can0 247#D10DFF0900A93000
(34.906000) can0 247#C90DFF0900AE3000
(34.908000) can0 247#EF0DFF0900B43000
(34.910000) can0 247#EC0DFF0900BB3000
(34.913000) can0 247#EF0DFF0900BF3000
(34.915000) can0 247#E50DFF0900C53000
(34.917000) can0 247#EC0DFF0900CA3000
(34.924000) can0 247#F50DFF0900D03000
(34.924000) can0 3FD#0200080000000090
(34.927000) can0 247#E40DFF0900D43000
(34.929000) can0 247#DA0DFF0900D83000
(34.931000) can0 247#CC0DFF0900DE3000
(34.933000) can0 247#E60DFF0900E23000
(34.935000) can0 247#EA0DFF0900E83000
(34.937000) can0 247#EF0DFF0900EE3000
(34.939000) can0 247#CE0DFF0900F43000
(34.941000) can0 247#EA0DFF0900FB3000
(34.944000) can0 247#C80DFF0900003100
(34.945000) can0 247#E50DFF0900053100
(34.947000) can0 247#CD0DFF0900093100
(34.949000) can0 247#DB0DFF09000E3100
(34.952000) can0 247#EA0DFF0900123100
(34.954000) can0 247#E00DFF0900173100
(34.956000) can0 247#E70DFF09001D3100
(34.958000) can0 247#D40DFF0900223100
(34.960000) can0 247#D30DFF0900283100
(34.961000) can0 247#EA0DFF0900303100
(34.963000) can0 247#F60DFF0900353100
(34.965000) can0 247#D70DFF09003A3100
(34.967000) can0 247#ED0DFF0900423100
(34.969000) can0 247#F70DFF0900483100
(34.976000) can0 247#DB0DFF09004F3100
(34.978000) can0 247#DE0DFF0900533100
(34.979000) can0 247#D20DFF0900593100
(34.981000) can0 247#F10DFF0900603100
(34.984000) can0 247#DA0DFF0900673100
(34.986000) can0 247#F60DFF09006E3100
(34.988000) can0 247#D80DFF0900763100
(34.990000) can0 247#C80DFF09007B3100
(34.992000) can0 247#D20DFF0900813100
(34.993000) can0 247#C80DFF0900873100
(34.995000) can0 247#F50DFF09008B3100
(34.997000) can0 247#F20DFF0900903100
(34.999000) can0 247#E60DFF0900973100
(35.002000) can0 247#E00DFF09009C3100
(35.004000) can0 247#DF0DFF0900A13100
(35.006000) can0 247#ED0DFF0900A63100
(35.008000) can0 247#F30DFF0900AD3100
(35.010000) can0 247#EA0DFF0900B43100
(35.012000) can0 247#E50DFF0900BB3100
(35.014000) can0 247#DD0DFF0900C33100
(35.016000) can0 247#CE0DFF0900CA3100
(35.018000) can0 247#D00DFF0900CE3100
(35.020000) can0 247#DA0DFF0900D33100
(35.022000) can0 247#D10DFF0900D93100
(35.024000) can0 247#D50DFF0900E03100
(35.026000) can0 247#ED0DFF0900E83100
(35.032000) can0 247#ED0DFF0900ED3100
(35.035000) can0 247#CC0DFF0900F33100
(35.036000) can0 247#F60DFF0900FA3100
(35.038000) can0 247#EC0DFF0900023200
(35.041000) can0 247#CD0DFF0900073200
(35.042000) can0 247#EB0DFF09000C3200
(35.049000) can0 247#DD0DFF0900103200
(35.055000) can0 247#C90DFF0900143200
(35.062000) can0 247#DB0DFF0900193200
(35.074000) can0 247#C80DFF09001E3200
(35.081000) can0 247#DC0DFF0900253200
(35.083000) can0 247#EE0DFF09002C3200
(35.085000) can0 247#CD0DFF0900323200
(35.087000) can0 247#F60DFF0900363200
(35.091000) can0 247#E20DFF09003E3200
(35.095000) can0 247#DA0DFF0900463200
(35.101000) can0 247#EB0DFF09004B3200
(35.105000) can0 247#EF0DFF0900523200
(35.109000) can0 247#D40DFF0900593200
(35.111000) can0 247#EC0DFF0900603200
(35.114000) can0 247#EE0DFF0900653200
(35.116000) can0 247#EA0DFF09006A3200
(35.118000) can0 247#D20DFF09006E3200
(35.120000) can0 247#D40DFF0900723200
(35.122000) can0 247#E10DFF09007A3200
(35.124000) can0 247#F70DFF0900823200
(35.125000) can0 247#D90DFF0900873200
(35.132000) can0 247#F50DFF09008B3200
(35.135000) can0 247#E70DFF09008F3200
(35.137000) can0 247#D30DFF0A00973200
(35.139000) can0 247#F40DFF0A009E3200
(35.141000) can0 247#E30DFF0A00A23200
(35.142000) can0 247#CB0DFF0A00AA3200
(35.144000) can0 247#EE0DFF0A00B13200
(35.147000) can0 247#F10DFF0A00B93200
(35.149000) can0 247#C90DFF0A00C13200
(35.151000) can0 247#ED0DFF0A00C93200
(35.153000) can0 247#E40DFF0A00D03200
(35.155000) can0 247#D80DFF0A00D73200
(35.156000) can0 247#D90DFF0A00DB3200
(35.158000) can0 247#D70DFF0A00E23200
(35.161000) can0 247#D70DFF0A00EA3200
(35.163000) can0 247#F30DFF0A00F23200
(35.165000) can0 247#E10DFF0A00F93200
(35.167000) can0 247#D60DFF0A00FD3200
(35.169000) can0 247#F10DFF0A00023300
(35.171000) can0 247#EA0DFF0A00073300
(35.173000) can0 247#DE0DFF0A000F3300
(35.175000) can0 247#EE0DFF0A00143300
(35.177000) can0 247#EB0DFF0A00193300
(35.179000) can0 247#EC0DFF0A001E3300
(35.181000) can0 247#F40DFF0A00263300
(35.183000) can0 247#E10DFF0A002A3300
(35.185000) can0 247#D50DFF0A00313300
(35.187000) can0 247#CC0DFF0A00393300
(35.189000) can0 247#DC0DFF0A003D3300
(35.191000) can0 247#E00DFF0A00443300
(35.193000) can0 247#DC0DFF0A004C3300
(35.195000) can0 247#F10DFF0A00543300
(35.197000) can0 247#D70DFF0A00593300
(35.199000) can0 247#E80DFF0A00613300
(35.202000) can0 247#E00DFF0A00653300
(35.204000) can0 247#CC0DFF0A006C3300
(35.206000) can0 247#EF0DFF0A00703300
(35.208000) can0 247#EF0DFF0A00783300
(35.209000) can0 247#CC0DFF0A00803300
(35.212000) can0 247#DA0DFF0A00863300
(35.214000) can0 247#D30DFF0A008D3300
(35.216000) can0 247#F60DFF0A00933300
(35.218000) can0 247#EF0DFF0A00973300
(35.220000) can0 247#EA0DFF0A009B3300
(35.222000) can0 247#E50DFF0A00A33300
(35.224000) can0 247#CC0DFF0A00A83300
(35.226000) can0 247#D30DFF0A00B03300
(35.228000) can0 247#D10DFF0A00B63300
(35.230000) can0 247#EA0DFF0A00BC3300
(35.232000) can0 247#F10DFF0A00C03300
(35.234000) can0 247#E40DFF0A00C43300
(35.236000) can0 247#F20DFF0A00C93300
(35.238000) can0 247#E30DFF0A00D13300
(35.240000) can0 247#D90DFF0A00D73300
(35.242000) can0 247#D40DFF0A00DF3300
(35.245000) can0 247#D50DFF0A00E63300
(35.247000) can0 247#E40DFF0A00EB3300
(35.249000) can0 247#EE0DFF0A00F23300
(35.251000) can0 247#D20DFF0A00FA3300
(35.252000) can0 247#CB0DFF0A00003400
(35.254000) can0 247#CB0DFF0A00063400
(35.256000) can0 247#CA0DFF0A000C3400
(35.259000) can0 247#F40DFF0A00133400
(35.261000) can0 247#F40DFF0A001A3400
(35.263000) can0 247#CA0DFF0A00203400
(35.265000) can0 247#D60DFF0A00283400
(35.266000) can0 247#E30DFF0A002F3400
(35.268000) can0 247#DD0DFF0A00343400
(35.272000) can0 247#D00DFF0A003A3400
(35.278000) can0 247#F60DFF0A003E3400
(35.282000) can0 247#CC0DFF0A00423400
(35.291000) can0 247#F10DFF0A00483400
(35.293000) can0 247#CE0DFF0A00503400
(35.295000) can0 247#E60DFF0A00553400
(35.297000) can0 247#CF0DFF0A00593400
(35.299000) can0 247#D70DFF0A00613400
(35.302000) can0 247#CF0DFF0A00693400
(35.304000) can0 247#ED0DFF0A006F3400
(35.305000) can0 247#CA0DFF0A00773400
(35.308000) can0 247#D80DFF0A007F3400
(35.314000) can0 247#E60DFF0A00853400
(35.321000) can0 247#E40DFF0A008B3400
(35.328000) can0 247#E90DFF0A00923400
(35.328000) can0 3FD#0000003C20400580
(35.335000) can0 247#EF0DFF0A00993400
(35.337000) can0 247#CE0DFF0A009F3400
(35.339000) can0 247#E90DFF0A00A73400
(35.341000) can0 247#D40DFF0A00AE3400
(35.343000) can0 247#E80DFF0A00B33400
(35.345000) can0 247#CF0DFF0A00B83400
(35.346000) can0 247#CE0DFF0A00BE3400
(35.348000) can0 247#F20DFF0A00C43400
(35.351000) can0 247#CA0DFF0A00C93400
(35.357000) can0 247#E30DFF0A00D03400
(35.359000) can0 247#F20DFF0A00D53400
(35.361000) can0 247#E30DFF0A00DC3400
(35.363000) can0 247#C90DFF0A00E13400
(35.365000) can0 247#EF0DFF0A00E93400
(35.367000) can0 247#DB0DFF0A00EE3400
(35.369000) can0 247#F40DFF0A00F43400
(35.371000) can0 247#F50DFF0A00FB3400
(35.371000) can0 3FD#0100020000080280
(35.374000) can0 247#E80DFF0A00FF3400
(35.376000) can0 247#ED0DFF0A00073500
(35.378000) can0 247#F50DFF0A000E3500
(35.380000) can0 247#D50DFF0A00153500
(35.385000) can0 247#F30DFF0A001B3500
(35.391000) can0 247#E20DFF0A00233500
(35.396000) can0 247#EE0DFF0A00283500
(35.401000) can0 247#CD0DFF0A002E3500
(35.403000) can0 247#D30DFF0A00343500
(35.405000) can0 247#CD0DFF0A00383500
(35.407000) can0 247#D90DFF0A00403500
(35.409000) can0 247#EA0DFF0A00473500
(35.411000) can0 247#F10DFF0A004D3500
(35.413000) can0 247#F10DFF0A00533500
(35.415000) can0 247#D00DFF0A00593500
(35.417000) can0 247#E30DFF0A005D3500
(35.419000) can0 247#CB0DFF0A00653500
(35.421000) can0 247#EA0DFF0A00693500
(35.421000) can0 3FD#0200080000000090
(35.425000) can0 247#E40DFF0A006F3500
(35.428000) can0 247#D40DFF0A00753500
(35.430000) can0 247#D00DFF0A007D3500
(35.432000) can0 247#D90DFF0A00823500
(35.434000) can0 247#E10DFF0A00863500
(35.436000) can0 247#E10DFF0A008B3500
(35.438000) can0 247#DF0DFF0A00923500
(35.440000) can0 247#D70DFF0A00983500
(35.442000) can0 247#F10DFF0A009D3500
(35.444000) can0 247#E30DFF0A00A33500
(35.446000) can0 247#F00DFF0A00AA3500
(35.447000) can0 247#D50DFF0A00B23500
(35.449000) can0 247#D00DFF0A00B83500
(35.451000) can0 247#DC0DFF0A00C03500
(35.459000) can0 247#E30DFF0A00C83500
(35.461000) can0 247#D10DFF0A00D03500
(35.463000) can0 247#D80DFF0A00D63500
(35.465000) can0 247#D90DFF0A00DE3500
(35.467000) can0 247#E20DFF0A00E63500
(35.469000) can0 247#CD0DFF0A00EA3500
(35.471000) can0 247#D60DFF0A00F23500
(35.473000) can0 247#CD0DFF0A00FA3500
(35.475000) can0 247#F10DFF0A00003600
(35.477000) can0 247#DB0DFF0A00063600
(35.479000) can0 247#DC0DFF0A000D3600
(35.481000) can0 247#F40DFF0A00133600
(35.483000) can0 247#ED0DFF0A00193600
(35.485000) can0 247#E90DFF0A001D3600
(35.489000) can0 247#F30DFF0A00253600
(35.496000) can0 247#E90DFF0A002D3600
(35.502000) can0 247#F60DFF0A00343600
(35.506000) can0 247#F50DFF0A003B3600
(35.508000) can0 247#CF0DFF0A003F3600
(35.510000) can0 247#E70DFF0A00443600
(35.512000) can0 247#E10DFF0A004C3600
(35.514000) can0 247#E40DFF0A00513600
(35.516000) can0 247#E50DFF0A00563600
(35.518000) can0 247#DB0DFF0A005E3600
(35.520000) can0 247#CA0DFF0A00633600
(35.522000) can0 247#E80DFF0A00673600
(35.524000) can0 247#E30DFF0A006C3600
(35.531000) can0 247#E70DFF0A00723600
(35.533000) can0 247#F50DFF0A00783600
(35.535000) can0 247#CD0DFF0A00803600
(35.537000) can0 247#E10DFF0A00843600
(35.539000) can0 247#C80DFF0A00893600
(35.541000) can0 247#F40DFF0A00913600
(35.543000) can0 247#DF0DFF0A00973600
(35.545000) can0 247#DA0DFF0A009C3600
(35.547000) can0 247#EC0DFF0A00A03600
(35.549000) can0 247#DF0DFF0A00A73600
(35.551000) can0 247#EB0DFF0A00AB3600
(35.553000) can0 247#D20DFF0A00AF3600
(35.555000) can0 247#D80DFF0A00B53600
(35.558000) can0 247#E50DFF0A00BA3600
(35.567000) can0 247#D90DFF0A00C03600
(35.574000) can0 247#D10DFF0A00C73600
(35.578000) can0 247#F60DFF0A00CC3600
(35.580000) can0 247#F50DFF0A00D03600
(35.584000) can0 247#D90DFF0A00D63600
(35.586000) can0 247#EC0DFF0A00DA3600
(35.588000) can0 247#F10DFF0A00DF3600
(35.589000) can0 247#F70DFF0A00E33600
(35.591000) can0 247#D90DFF0A00E73600
(35.593000) can0 247#F30DFF0A00EC3600
(35.595000) can0 247#CC0DFF0A00F43600
(35.597000) can0 247#CC0DFF0A00F83600
(35.599000) can0 247#CE0DFF0A00FF3600
(35.601000) can0 247#F70DFF0A00043700
(35.603000) can0 247#CD0DFF0A00083700
(35.606000) can0 247#F40DFF0A000E3700
(35.608000) can0 247#E80DFF0A00133700
(35.610000) can0 247#C80DFF0A00173700
(35.612000) can0 247#D10DFF0A001C3700
(35.614000) can0 247#E10DFF0A00213700
(35.616000) can0 247#E80DFF0A00283700
(35.618000) can0 247#E20DFF0A002C3700
(35.620000) can0 247#E60DFF0A00303700
(35.622000) can0 247#EE0DFF0A00383700
(35.622000) can0 3FD#0000003C20400580
(35.625000) can0 247#D20DFF0A003E3700
(35.627000) can0 247#DB0DFF0A00423700
(35.629000) can0 247#CE0DFF0A00473700
(35.631000) can0 247#D80DFF0A004F3700
(35.633000) can0 247#F70DFF0A00533700
(35.636000) can0 247#F40DFF0A00583700
(35.638000) can0 247#D30DFF0A005F3700
(35.640000) can0 247#CA0DFF0A00633700
(35.642000) can0 247#C80DFF0A00673700
(35.643000) can0 247#F20DFF0A006C3700
(35.645000) can0 247#C80DFF0A00713700
(35.648000) can0 247#C90DFF0A00753700
(35.649000) can0 247#C90DFF0A007A3700
(35.657000) can0 247#E30DFF0A00823700
(35.661000) can0 247#C80DFF0A00883700
(35.666000) can0 247#CC0DFF0A008D3700
(35.667000) can0 247#E20DFF0A00933700
(35.669000) can0 247#E40DFF0A00993700
