(0.000000) can0 2C1#215B1D8C02000000
(0.004000) can0 400#00E0FBBEEFFB00
(0.006000) can0 2C1#0219060000D00200
(0.008000) can0 39A#182FE78AF302DB7E
(0.010000) can0 2E5#000019300000DD00
(0.012000) can0 118#5066950000C87400
(0.014000) can0 2E1#1021040010000004
(0.016000) can0 253#0064A6C66490B505
(0.018000) can0 285#2445605872000000
(0.023000) can0 2E5#000019300000DD00
(0.025000) can0 545#010000000010A0FB
(0.027000) can0 2AA#577073
(0.029000) can0 3F9#0600000000000000
(0.031000) can0 1E5#286C0400000040BE
(0.033000) can0 419#00
(0.037000) can0 2D2#FC2E824E4F05E822
(0.038000) can0 6A2#0000000000
(0.039000) can0 3E3#04000000
(0.039000) can0 1D8#29C88017000060C1
(0.040000) can0 23E#00003AC002FF2F6A
(0.041000) can0 2C2#5563A80680C11AAA
(0.041000) can0 1F9#0000000000000000
(0.042000) can0 441#AC00B6C358001D03
(0.043000) can0 421#F21A0000002000
(0.044000) can0 553#0000000000002078
(0.044000) can0 201#0300000000000000
(0.045000) can0 2E1#026D66021A700000
(0.046000) can0 6A1#0000000000
(0.047000) can0 718#03000000000000
(0.047000) can0 204#010000FF00000010
(0.049000) can0 224#0408004019011008
(0.050000) can0 1E5#286C04000000007E
(0.050000) can0 2A8#010100000600F0A2
(0.051000) can0 266#2400143914001D01
(0.052000) can0 263#0300000000000000
(0.053000) can0 132#7093C2FDC93B
(0.055000) can0 448#20001010000010
(0.057000) can0 1D5#290000000000C0BF
(0.059000) can0 428#20001010000010
(0.059000) can0 1D8#29C680170000A0FF
(0.060000) can0 129#A928F45FFF1FFF3F
(0.061000) can0 108#CE31061203322225
(0.061000) can0 249#280B0000
(0.062000) can0 128#0000EC0A02
(0.064000) can0 132#7E93C8FDC23B
(0.064000) can0 473#0000030000000000
(0.065000) can0 2E1#FB1FAF0999A20900
(0.066000) can0 396#090F0F3D1501117D
(0.067000) can0 1D5#290000000000E0DF
(0.067000) can0 25B#D38000056A86C063
(0.068000) can0 75D#0100000000000080
(0.069000) can0 3A2#02A4FFFF03000000
(0.070000) can0 1E5#286C0400000040BE
(0.070000) can0 129#C329F35FFE1FFF3F
(0.071000) can0 376#013E3E0046000000
(0.072000) can0 379#0720EB09DCC01406
(0.073000) can0 263#04000000B0200000
(0.073000) can0 3D6#3F3F3F3F3F2C0242
(0.075000) can0 656#14060000625A3C7C
(0.076000) can0 35B#0000000000000000
(0.076000) can0 1D5#29000000000000FF
(0.077000) can0 22B#FFFFFF07F0FFFFFF
(0.078000) can0 7D5#3200000000000000
(0.079000) can0 139#00
(0.079000) can0 1D8#29C640170000E0FF
(0.080000) can0 1E5#286C0400000060DE
(0.081000) can0 7AA#0C00000000000039
(0.084000) can0 243#00FCCFCC994E0E29
(0.084000) can0 261#052232CA9A427065
(0.085000) can0 37A#CBE0010000000000
(0.086000) can0 1D5#290000000000201F
(0.086000) can0 211#B410710F1001
(0.088000) can0 318#1A06000410232193
(0.089000) can0 2E5#000019300000DD00
(0.089000) can0 545#D00558C09AA1C93B
(0.090000) can0 3C0#0900000000000000
(0.091000) can0 272#0380610000000000
(0.092000) can0 263#700ED29F77B71A00
(0.092000) can0 2E1#6580080074D2306A
(0.095000) can0 201#0138980000000000
(0.097000) can0 1D5#290000000000403F
(0.099000) can0 282#943CF20830C40224
(0.101000) can0 1D8#29C640170000203F
(0.103000) can0 3A2#602573C01C004369
(0.105000) can0 31A#20010000000090CE
(0.107000) can0 1D5#290000000000605F
(0.110000) can0 3A3#14D00000280DFC01
(0.113000) can0 289#C612890488003D0F
(0.113000) can0 31F#713D773D773C753D
(0.114000) can0 393#0380610000000000
(0.115000) can0 3FD#0000003C20000180
(0.115000) can0 333#0010890700
(0.116000) can0 261#31000000AD499AB7
(0.119000) can0 3C8#0600000000000000
(0.119000) can0 23E#00003AC002FF4F8A
(0.120000) can0 266#2400143914001D01
(0.121000) can0 20C#4DF8340A1E01300E
(0.121000) can0 3F5#0000C838820C0000
(0.122000) can0 3F5#0000C838830C0000
(0.123000) can0 545#010000000010D02B
(0.125000) can0 2E1#398D2AFF0F000000
(0.125000) can0 287#655F6968F0020E0E
(0.126000) can0 2AA#578083
(0.127000) can0 22B#FFFFFF07F0FFFFFF
(0.127000) can0 3F9#0700000000000000
(0.128000) can0 381#1500523E3E000001
(0.129000) can0 1D8#29C640170000809F
(0.130000) can0 22A#0000A917
(0.130000) can0 118#FC62950000C82400
(0.131000) can0 419#00
(0.132000) can0 263#0200E00D1D6D6F21
(0.132000) can0 132#6E93C2FDB83B
(0.133000) can0 2D2#FB2E824E4F05E822
(0.134000) can0 252#45159D7900FC0F00
(0.135000) can0 339#02F1FE008007800F
(0.136000) can0 524#86730302201001
(0.139000) can0 6A2#0000000000
(0.139000) can0 266#2400143914001D01
(0.140000) can0 129#8C20F35FFD1FFF3F
(0.143000) can0 1F9#0000000000000000
(0.143000) can0 421#F21A0000002000
(0.144000) can0 2C1#0400000000000000
(0.145000) can0 2BF#00000000000001
(0.145000) can0 1D5#290000000000E0DF
(0.148000) can0 2C4#16CC360700000001
(0.148000) can0 119#00000000
(0.149000) can0 420#2801404B00000001
(0.150000) can0 1E5#286C0400000040BE
(0.150000) can0 2A8#01010000060000B2
(0.152000) can0 383#8B183A00C320A20F
(0.155000) can0 448#20001010000010
(0.155000) can0 545#020002000000E02E
(0.156000) can0 1FA#3AC001
(0.159000) can0 428#20001010000010
(0.159000) can0 1D8#29C640170000E0FF
(0.160000) can0 23E#00003AC002FF5F9A
(0.161000) can0 108#D632061A03312225
(0.161000) can0 229#410500
(0.162000) can0 243#04FC3303CE80FFFF
(0.163000) can0 1D6#00080000CA099808
(0.164000) can0 268#69149501C6
(0.164000) can0 2F3#0D0D0B0400600002
(0.165000) can0 261#B40D784C0040C47F
(0.166000) can0 25B#D38000056A86D073
(0.167000) can0 3FD#01000A0000080280
(0.169000) can0 395#091314401A040B7D
(0.170000) can0 201#003E3E000080FF00
(0.171000) can0 118#2066950000C84400
(0.172000) can0 315#18453D55503DAE7D
(0.172000) can0 263#04000000B0200000
(0.173000) can0 132#7D93C1FDBC3B
(0.174000) can0 315#5B2BD0264000D003
(0.174000) can0 719#0003140F14060E00
(0.175000) can0 3D5#3F404040422C034D
(0.176000) can0 22B#FFFFFF07F0FFFFFF
(0.177000) can0 335#14060000BA88CEAD
(0.177000) can0 102#22B3880494FAA009
(0.178000) can0 3C5#0000000000000000
(0.180000) can0 3E5#0000000000000000
(0.181000) can0 129#3624F35FFF1FFF3F
(0.181000) can0 266#2400143914001D01
(0.182000) can0 36E#0000000000000000
(0.183000) can0 243#00FCCFCC994E0E29
(0.183000) can0 7D7#322C000000000000
(0.184000) can0 7D5#44994F5E5C470050
(0.185000) can0 283#232300004100
(0.186000) can0 37A#C00D000000000000
(0.186000) can0 211#B511710F1001
(0.187000) can0 318#1A06000410232395
(0.188000) can0 3AE#0840000800003182
(0.189000) can0 2E5#000018300000DD00
(0.189000) can0 1D8#29C680170000409F
(0.191000) can0 129#DA25F45F0020FF3F
(0.192000) can0 263#700ED29F77B71A00
(0.192000) can0 441#4A8589003200281B
(0.195000) can0 201#0138980000000000
(0.197000) can0 1D5#290000000000807F
(0.199000) can0 282#943CF20830C40224
(0.199000) can0 23E#00003AC002FF6FAA
(0.200000) can0 266#2400143914001D01
(0.201000) can0 207#0036322222000000
(0.201000) can0 3A2#600573BF1C004369
(0.202000) can0 123#00001392D2000000
(0.205000) can0 2E1#1021040010000004
(0.207000) can0 1D5#290000000000A09F
(0.209000) can0 3A3#14D00000280DFC01
(0.210000) can0 1E5#286C04000000007E
(0.211000) can0 266#2400143914001D01
(0.212000) can0 289#C61289C4A5003D0F
(0.212000) can0 261#3100F0FFAC49FA05
(0.215000) can0 393#080003D107B00304
(0.217000) can0 1D5#290000000000C0BF
(0.217000) can0 3FD#0200380000000090
(0.218000) can0 3C8#0000000000000000
(0.219000) can0 118#256B950000C84400
(0.219000) can0 266#2400143914001D01
(0.220000) can0 20C#4DF8340A1E01300E
(0.221000) can0 2F9#BCFB07100D1A8B84
(0.222000) can0 545#010000000010005B
(0.222000) can0 2EC#57B0F5
(0.224000) can0 2C1#1304900000000000
(0.227000) can0 287#655F6968F0020E0E
(0.227000) can0 3F9#0800000000000000
(0.228000) can0 554#D08403051ED000
(0.229000) can0 261#322AA701805C02D8
(0.229000) can0 1D8#29C880170000C021
(0.230000) can0 129#1429F55F0220FF3F
(0.231000) can0 3A0#0000000000000000
(0.232000) can0 384#0000000000000000
(0.232000) can0 343#0092641E98000000
(0.233000) can0 132#7A93BAFDA73B
(0.234000) can0 422#700010000000
(0.235000) can0 252#45159C7900FC0F00
(0.235000) can0 339#02F1FE008007800F
(0.237000) can0 2E1#026D66021A700000
(0.238000) can0 6A2#0000000000
(0.238000) can0 3E3#04000000
(0.239000) can0 1D8#29C880170000E041
(0.240000) can0 257#176F746E02303A01
(0.241000) can0 2C2#5563A80680C11AAA
(0.243000) can0 288#0106184C006081D6
(0.243000) can0 421#F21A0000002000
(0.244000) can0 261#834D0A0000401525
(0.245000) can0 2C1#0400000000000000
(0.245000) can0 677#0400000000000000
(0.246000) can0 2E8#0101000006002012
(0.247000) can0 2C4#D782001E04002000
(0.248000) can0 264#3A000000A000
(0.249000) can0 2B4#4705BE0E6301
(0.250000) can0 3C2#2955000000000000
(0.252000) can0 266#2400143914001D01
(0.254000) can0 448#20001010000010
(0.256000) can0 545#020002000000105E
(0.258000) can0 428#20001010000010
(0.260000) can0 2E5#000018300000DD00
(0.262000) can0 221#610555550105C0F9
(0.264000) can0 243#04FC3303CE80FFFF
(0.266000) can0 2B6#000300
(0.268000) can0 3AA#0000000000000000
(0.272000) can0 54F#0000000000000000
(0.274000) can0 75D#5258AE0000008049
(0.276000) can0 7D5#2C3E3E0000000000
(0.278000) can0 261#052232CA9A423025
(0.281000) can0 2E5#000018300000DD00
(0.283000) can0 243#00FCCFCC994E0E29
(0.285000) can0 122#00001392D2000000
(0.288000) can0 37A#C10C000000000000
(0.289000) can0 318#1A06010410232598
(0.289000) can0 2E5#000018300000DD00
(0.290000) can0 55A#0100000000000000
(0.291000) can0 7F4#01
(0.291000) can0 3C0#0000000000000000
(0.292000) can0 263#700ED29F77B71A00
(0.293000) can0 2B3#036767020900003C
(0.296000) can0 201#0138980000000000
(0.298000) can0 3AE#09400008000070C2
(0.300000) can0 452#B7A400
(0.303000) can0 1E5#286C04000000209E
(0.305000) can0 492#2503FF0F280000
(0.307000) can0 1D5#290000000000E0DF
(0.309000) can0 3A3#12D00000280DFC01
(0.311000) can0 1E5#286C0400000040BE
(0.312000) can0 263#6136D29F77B79A00
(0.315000) can0 393#0380610000000000
(0.317000) can0 1D5#29000000000000FF
(0.319000) can0 3C8#0100000000000000
(0.321000) can0 201#0200000000000000
(0.323000) can0 4E2#00D100FE0F002800
(0.325000) can0 261#322AA701805C6238
(0.327000) can0 2AA#57A0A3
(0.330000) can0 3F9#0000000000000000
(0.331000) can0 266#2500143914001D01
(0.332000) can0 263#0200E00D1D6D6F21
(0.333000) can0 343#0092649E97000000
(0.334000) can0 788#0240C10700030000
(0.334000) can0 339#02F1FE008007800F
(0.335000) can0 212#5904000081FF7731
(0.336000) can0 292#4B1B2DF5D3010000
(0.337000) can0 42E#00E0BFFFFEEFBFFF
(0.339000) can0 6A2#0000000000
(0.339000) can0 266#2500143914001D01
(0.340000) can0 129#A724F65F0120FF3F
(0.343000) can0 1F9#0000000000000000
(0.343000) can0 421#F21A0000002000
(0.344000) can0 361#2C0E190200
(0.345000) can0 2BF#00000000000001
(0.346000) can0 381#A0A00690D500B210
(0.347000) can0 2C4#19C27C030D1C2003
(0.348000) can0 264#39000000A000
(0.348000) can0 2B4#4A05C60E6301
(0.349000) can0 2E2#0714503F01000000
(0.350000) can0 2E5#000019300000DD00
(0.351000) can0 118#0268950000C82400
(0.351000) can0 383#8B183A00C320A20F
(0.352000) can0 2B3#442143850A391500
(0.355000) can0 545#020002000000408E
(0.355000) can0 439#0000000000185A04
(0.356000) can0 423#00001000000000
(0.359000) can0 428#20001010000010
(0.359000) can0 195#000000000A002706
(0.361000) can0 23E#00003AC002FFAFEA
(0.362000) can0 1E5#286C0400000060DE
(0.362000) can0 243#04FC3303CE80FFFF
(0.363000) can0 1D6#00080000CA099808
(0.364000) can0 25D#3741012A04F08803
(0.364000) can0 2B6#000300
(0.365000) can0 2E1#0400000000102007
(0.366000) can0 396#090F103D1501127D
(0.367000) can0 281#1F00FF1F0001
(0.367000) can0 3A2#F2A3FFFF03000000
(0.368000) can0 677#0200000000000000
(0.369000) can0 2E5#000019300000DD00
(0.370000) can0 1E5#286C04000000007E
(0.370000) can0 757#2C3F3E0000000000
(0.372000) can0 118#936A950000C8B4FF
(0.373000) can0 263#04000000B0200000
(0.373000) can0 45A#FD07F8FF0300006E
(0.374000) can0 7D5#2C3E3E0000000000
(0.375000) can0 302#1F0000000207CE6C
(0.376000) can0 1D5#290000000000C0BF
(0.376000) can0 22B#FFFFFF07F0FFFFFF
(0.379000) can0 225#5555FA00
(0.379000) can0 266#2500153914001D01
(0.380000) can0 129#5D28F55FFF1FFF3F
(0.383000) can0 243#00FCCFCC994E0E29
(0.385000) can0 122#01000000003F0000
(0.385000) can0 37A#C20C000000000000
(0.386000) can0 545#200662B09AA45919
(0.388000) can0 113#019701
(0.388000) can0 261#00100B00FF4FA0FF
(0.389000) can0 340#0900000000000000
(0.390000) can0 129#6129F55F0020FF3F
(0.390000) can0 7AA#2329F7ED0510001C
(0.393000) can0 263#700ED29F77B71A00
(0.395000) can0 201#0138980000000000
(0.397000) can0 1D5#29000000000000FF
(0.399000) can0 282#943CF20830C40224
(0.399000) can0 23E#00003AC002FFBFFA
(0.400000) can0 207#00342F2323000000
(0.401000) can0 1E5#286C0400000060DE
(0.404000) can0 123#00001392D2000000
(0.404000) can0 261#3100F3FFAF49BACB
(0.406000) can0 1D5#290000000000201F
(0.407000) can0 39D#FE62D52700
(0.409000) can0 3A3#16D00000280DFC01
(0.409000) can0 1E5#286C04000000007E
(0.410000) can0 129#4F2BF55F0020FF3F
(0.411000) can0 266#2500153914001D01
(0.411000) can0 3AE#094000080000A1F3
(0.412000) can0 2B3#050000004B7F6E00
(0.415000) can0 393#080003D907B00304
(0.415000) can0 355#800C00FF940000
(0.416000) can0 1D5#290000000000403F
(0.419000) can0 3C8#0200000000000000
(0.419000) can0 1D8#29CE001800002008
(0.420000) can0 129#2F2CF55F0020FF3F
(0.422000) can0 285#02A800000000B200
(0.422000) can0 2EC#57D015
(0.423000) can0 401#062ACE99F999D599
(0.424000) can0 287#655F6968F0020D0D
(0.427000) can0 22B#FFFFFF07F0FFFFFF
(0.427000) can0 3F9#0100000000000000
(0.428000) can0 2E1#026D66021A6F0000
(0.429000) can0 1D8#29CE401800004068
(0.429000) can0 129#3D2DF55F0020FF3F
(0.430000) can0 118#7A60950000C8A400
(0.431000) can0 3A2#0110200000000000
(0.432000) can0 343#00925CDE97000000
(0.432000) can0 132#7693A6FD6C3B
(0.433000) can0 2D2#FB2E834E4F05E822
(0.435000) can0 252#45159C7900FC0F00
(0.435000) can0 3B2#4600000000140B00
(0.436000) can0 788#C4D4C18300009A00
(0.439000) can0 6A2#0000000000
(0.439000) can0 266#2600153914001D01
(0.440000) can0 257#F959746E02283A01
(0.443000) can0 1F9#0000000000000000
(0.443000) can0 421#F21A0000002000
(0.444000) can0 553#00000000000060B8
(0.445000) can0 2C1#0400000000000000
(0.445000) can0 677#0400000000000000
(0.446000) can0 2E8#0101000006004032
(0.447000) can0 2C4#204000D200000000
(0.448000) can0 264#39000000A000
(0.448000) can0 2B4#4905BD0E5A01
(0.450000) can0 3A8#2A80E9F51F00FFDF
(0.451000) can0 3AE#094000080000B103
(0.451000) can0 383#8B183A00C320A20F
(0.452000) can0 261#B40D804C0040E4A7
(0.453000) can0 132#7693A8FD7F3B
(0.454000) can0 448#20001010000010
(0.456000) can0 439#0000000000185A04
(0.456000) can0 423#00001000000000
(0.459000) can0 428#20001010000010
(0.459000) can0 195#000000000A002706
(0.460000) can0 129#9F20F55FFF1FFF3F
(0.461000) can0 1E5#286C04000000209E
(0.461000) can0 257#025A746E02303A01
(0.462000) can0 21D#0400B50000000000
(0.464000) can0 242#55558600
(0.464000) can0 2D3#5100B50316005B79
(0.465000) can0 3DF#0000C00002D0001B
(0.466000) can0 396#090F0F3D1501117D
(0.467000) can0 25B#D38000056A8600A3
(0.467000) can0 401#082ABC99C199B199
(0.468000) can0 75D#0300800000000000
(0.469000) can0 2E5#000018300000DD00
(0.470000) can0 1E5#286C0400000040BE
(0.470000) can0 360#0700000000000000
(0.471000) can0 266#2500153914001D01
(0.472000) can0 757#3200000000000000
(0.473000) can0 7D5#2BA26FFF00000000
(0.473000) can0 2B3#06BC52EDE4B8CE1F
(0.475000) can0 7D5#2C3E3E0000000000
(0.476000) can0 1D5#29000000000000FF
(0.476000) can0 22B#FFFFFF07F0FFFFFF
(0.477000) can0 709#1E00000000000000
(0.478000) can0 139#00
(0.479000) can0 118#2F65950000C85400
(0.479000) can0 266#2500143914001D01
(0.480000) can0 23E#00003AC002FFDF1A
(0.483000) can0 3AE#094000080000E032
(0.485000) can0 122#00001392D2000000
(0.485000) can0 37A#CBE0010000000000
(0.488000) can0 211#B814710F1001
(0.488000) can0 340#0A00002000000000
(0.489000) can0 1D8#29D040180000002A
(0.492000) can0 129#2123F65F0120FF3F
(0.494000) can0 2E1#1021040010000004
(0.496000) can0 201#0138980000000000
(0.498000) can0 409#00
(0.500000) can0 2E5#000018300000DD00
(0.504000) can0 261#31000A00B3491A47
(0.509000) can0 39A#6DFFFDFDFD01000A
(0.511000) can0 129#B025F65F0120FF3F
(0.513000) can0 289#C612890482003D0F
(0.515000) can0 393#0380610000000000
(0.517000) can0 4F3#00000000
(0.519000) can0 3C8#0300000000000000
(0.521000) can0 23E#00003AC002FFEF2A
(0.523000) can0 2F9#BCFB072800000000
(0.525000) can0 45A#24B6B437E04B4868
(0.527000) can0 4E3#01D805FC0F002800
(0.530000) can0 2E5#000018300000DD00
(0.530000) can0 118#646A950000C88400
(0.531000) can0 266#2600153915001D01
(0.532000) can0 343#00925CAE97000000
(0.532000) can0 132#7193ABFD913B
(0.533000) can0 422#700010000000
(0.534000) can0 252#45159C7900FC0F00
(0.535000) can0 339#02F1FE008007800F
(0.535000) can0 3AE#0840000800000051
(0.538000) can0 407#1A0F000000000000
(0.538000) can0 228#0106184C0060A196
(0.539000) can0 118#A56B950000C8C400
(0.540000) can0 1E5#286C04000000209E
(0.541000) can0 2C2#20408069010080CB
(0.542000) can0 243#03000000167A5B00
(0.543000) can0 372#0400000000009011
(0.546000) can0 553#00000000000070C8
(0.548000) can0 2C4#018000D200000000
(0.548000) can0 119#00000000
(0.549000) can0 2E2#1000005B010B0000
(0.550000) can0 1E5#286C0400000040BE
(0.550000) can0 129#FF29F65F0120FF3F
(0.551000) can0 266#2500153914001D01
(0.552000) can0 263#0300000000000000
(0.555000) can0 448#20001010000010
(0.555000) can0 439#0000000000185A04
(0.556000) can0 423#00001000000000
(0.558000) can0 428#20001010000010
(0.558000) can0 2E5#000019300000DD00
(0.559000) can0 118#676D950000C88400
(0.560000) can0 108#40860642031F2225
(0.560000) can0 221#6105555501052059
(0.561000) can0 266#2600153915001D01
(0.562000) can0 128#0000EC0A02
(0.563000) can0 257#176F746E02303A01
(0.563000) can0 242#55558600
(0.564000) can0 279#61B6FC01E8056502
(0.565000) can0 261#052232CA9A425045
(0.566000) can0 31E#0100000000000000
(0.566000) can0 1D5#290000000000201F
(0.567000) can0 281#1F00FF1F0001
(0.569000) can0 3B3#8C8004300100A800
(0.569000) can0 54F#0000000000000000
(0.570000) can0 1D8#29D080180000006A
(0.571000) can0 201#003E3E000080FF00
(0.572000) can0 118#586E950000C87400
(0.572000) can0 379#00000B48333F2100
(0.573000) can0 2E1#6580080075D2306A
(0.574000) can0 719#150009B400000000
(0.575000) can0 78A#0100020061066106
(0.575000) can0 7D5#3200000000000000
(0.576000) can0 3A1#844C0FCA001822A3
(0.577000) can0 102#22B3880494FAA009
(0.578000) can0 225#5555FA00
(0.578000) can0 2E5#000019300000DD00
(0.580000) can0 1D8#29D080180000208A
(0.583000) can0 243#00FCCFCC994E0E29
(0.585000) can0 122#01000000003F0000
(0.587000) can0 37A#C00C000000000000
(0.589000) can0 318#1A06010410232B9E
(0.591000) can0 1E5#286C0400000040BE
(0.593000) can0 263#700ED29F77B71A00
(0.595000) can0 201#0138980000000000
(0.597000) can0 1D5#290000000000807F
(0.599000) can0 282#943CF20830C40224
(0.601000) can0 23E#00003AC002FF0F4A
(0.602000) can0 123#00001392D2000000
(0.603000) can0 401#0F2A9499C6999199
(0.606000) can0 2E1#398D2AFF0F000000
(0.607000) can0 39A#142FE38AF302DB7E
(0.608000) can0 3A3#12D00000280DFC01
(0.609000) can0 2E5#000019300000DD00
(0.611000) can0 118#2C62950000C85400
(0.613000) can0 289#C61289449D003D0F
(0.615000) can0 393#080004D107B00304
(0.615000) can0 3FD#0000003C20000180
(0.616000) can0 334#3F3F1408FF01F2C3
(0.619000) can0 545#010000000010C01B
(0.619000) can0 201#0200000000000000
(0.620000) can0 129#1E20F45FFD1FFF3F
(0.621000) can0 2E1#026D66021A700000
(0.621000) can0 3F5#0000C838820C0000
(0.622000) can0 3F5#0000C838830C0000
(0.624000) can0 45A#24B6B437E04B4868
(0.627000) can0 1D5#290000000000E0DF
(0.627000) can0 3F9#0300000000000008
(0.628000) can0 261#834D0A00004095A5
(0.629000) can0 3A2#0110200000000000
(0.629000) can0 22A#0000A917
(0.630000) can0 118#FE64950000C82400
(0.631000) can0 266#2600153915001D01
(0.632000) can0 263#0200000E1D6D6F21
(0.632000) can0 343#0092601E98000000
(0.633000) can0 752#09FAB77FFA07F100
(0.634000) can0 252#46159C7900FC0F00
(0.635000) can0 2F2#1201
(0.635000) can0 712#020A230877080000
(0.637000) can0 2E1#FB1FAE0999A50900
(0.638000) can0 6A2#0000000000
(0.638000) can0 3E3#04000000
(0.639000) can0 1D8#29D080180000E04A
(0.640000) can0 1E5#286C0400000060DE
(0.640000) can0 257#2373746E02383A01
(0.641000) can0 1F9#0000000000000000
(0.642000) can0 288#0106184C0060C116
(0.643000) can0 132#6F93A2FD793B
(0.645000) can0 553#00000000000080D8
(0.645000) can0 2C1#0400000000000000
(0.646000) can0 6A1#0000000000
(0.647000) can0 718#01000000000000
(0.647000) can0 204#010000FF00000010
(0.648000) can0 119#00000000
(0.650000) can0 420#2801404B00008003
(0.650000) can0 2A8#0101000006005002
(0.651000) can0 383#8B183A00C320A20F
(0.652000) can0 263#0300000000000000
(0.653000) can0 132#7093ADFD953B
(0.655000) can0 448#20001010000010
(0.655000) can0 439#0000000000185A04
(0.656000) can0 423#00001000000000
(0.659000) can0 428#20001010000010
(0.659000) can0 1D8#29D080180000208A
(0.660000) can0 266#2600153915001D01
(0.661000) can0 126#33A0303C66
(0.661000) can0 257#2C74746E02403A01
(0.662000) can0 243#04FC3303CE80FFFF
(0.664000) can0 21D#0400B50000000000
(0.664000) can0 2C3#0000C04B010040CB
(0.665000) can0 372#06A28A16C0EA5502
(0.666000) can0 396#090F103D1501127D
(0.667000) can0 3A2#F2A3FFFF03000000
(0.667000) can0 54F#0000000000000000
(0.668000) can0 2F3#0D0D0B0400600002
(0.669000) can0 3FD#01000A0000080280
(0.671000) can0 33A#CDD43395FEFF3761
(0.675000) can0 129#DA25F45F0020FF3F
(0.677000) can0 7D5#3200000000000000
(0.679000) can0 225#5555FA00
(0.681000) can0 266#2600153915001D01
(0.683000) can0 243#00FCCFCC994E0E29
(0.686000) can0 3FD#0000003C20000180
(0.687000) can0 122#00001392D2000000
(0.690000) can0 2E5#000019300000DD00
(0.692000) can0 118#346A950000C85400
(0.694000) can0 261#31003E00AE49DA36
(0.696000) can0 201#0138980000000000
(0.698000) can0 409#00
(0.700000) can0 207#0038342222000000
(0.702000) can0 257#2E76746E02403A01
(0.705000) can0 132#6B93A2FD713B
(0.706000) can0 1D5#290000000000E0DF
(0.709000) can0 3A3#10D00000280DFC01
(0.711000) can0 129#6E29F35FFF1FFF3F
(0.713000) can0 3AE#07400008000070C0
(0.715000) can0 393#0380610000000000
(0.716000) can0 1D5#29000000000000FF
(0.719000) can0 3C8#0500000000000000
(0.719000) can0 23E#00003AC002FF3F7A
(0.720000) can0 266#2500153915001D01
(0.721000) can0 20C#4EF8340A1E01300E
(0.721000) can0 3F5#0000C838820C0000
(0.722000) can0 2EC#570045
(0.723000) can0 372#0700000000000000
(0.726000) can0 261#834D0A000040F505
(0.726000) can0 3A1#C1FFFF333D00503F
(0.727000) can0 3F9#0400000000000000
(0.728000) can0 3A2#0110200000000000
(0.728000) can0 2E5#000019300000DD00
(0.729000) can0 1E5#286C04000000007E
(0.731000) can0 7A8#0240BC07000F0000
(0.732000) can0 38B#FEFE170F98C02503
(0.732000) can0 2D1#FF01
(0.733000) can0 422#700010000000
(0.734000) can0 212#5904000081FF7731
(0.734000) can0 2F2#1201
(0.735000) can0 712#0300000000000000
(0.736000) can0 3FD#01000A0000080280
(0.738000) can0 1D5#290000000000403F
(0.738000) can0 2E5#000019300000DD00
(0.739000) can0 1D8#29D080180000208A
(0.740000) can0 129#202CF35FFF1FFF3F
(0.741000) can0 2C2#20408069010080CB
(0.743000) can0 288#0106184C0060D126
(0.744000) can0 421#F21A0000002000
(0.745000) can0 2BF#00000000000001
(0.746000) can0 443#790EFF030000
(0.746000) can0 2E8#0101000006007062
(0.747000) can0 2C4#E3000E40010A8000
(0.748000) can0 224#0408004019011008
(0.748000) can0 2E1#0400000000102007
(0.749000) can0 1D8#29CE401800004068
(0.750000) can0 3C2#2955000000000000
(0.756000) can0 266#2500153915001D01
(0.760000) can0 428#20001010000010
(0.762000) can0 129#842EF35F0020FF3F
(0.764000) can0 243#04FC3303CE80FFFF
(0.766000) can0 2B6#000300
(0.768000) can0 395#091313401A040B7D
(0.771000) can0 401#172A089A249A2C9A
(0.773000) can0 266#2500153914001D01
(0.776000) can0 132#7893B0FDB13B
(0.777000) can0 3A1#844C0FCA001C62E7
(0.779000) can0 225#5555FA00
(0.779000) can0 266#2500153915001D01
(0.780000) can0 129#9020F35F0020FF3F
(0.783000) can0 243#00FCCFCC994E0E29
(0.785000) can0 122#01000000003F0000
(0.785000) can0 37A#C20C000000000000
(0.788000) can0 3FD#0200380000000090
(0.788000) can0 211#BB17710F1001
(0.789000) can0 458#00002000000000
(0.790000) can0 340#0100000000000000
(0.791000) can0 3C0#0500010000000000
(0.792000) can0 263#700ED29F77B71A00
(0.793000) can0 441#4B8589003200180C
(0.793000) can0 3A2#6065F3C11C004369
(0.794000) can0 201#0138980000000000
(0.797000) can0 1D5#29000000000000FF
(0.799000) can0 282#943CF20834C40224
(0.799000) can0 23E#00003AC002FF5F9A
(0.800000) can0 241#3C3C160F8F5500
(0.801000) can0 3C2#0055555500006A05
(0.801000) can0 400#00E0FBBEEFFB00
(0.802000) can0 243#0100684868008E8E
(0.805000) can0 261#322AA701805C4218
(0.807000) can0 1D5#290000000000201F
(0.808000) can0 3A3#0ED00000280DFC01
(0.809000) can0 1D8#29CE401800000028
(0.810000) can0 129#7423F35F0120FF3F
(0.810000) can0 118#E166950000C80401
(0.811000) can0 2F1#04DAE68043000000
(0.812000) can0 289#C612894486003D0F
(0.813000) can0 132#7293B0FDA83B
(0.815000) can0 393#080003D107B00304
(0.815000) can0 545#010000000010207B
(0.818000) can0 3C8#0600000000000000
(0.818000) can0 2E5#000018300000DD00
(0.819000) can0 1D8#29D040180000204A
(0.820000) can0 1E5#286C04000000209E
(0.820000) can0 257#2C7C746E02383A01
(0.822000) can0 4E2#65018F13022F0000
(0.823000) can0 287#655F6968F0020D0D
(0.826000) can0 2C1#1304900000000000
(0.826000) can0 4E3#0446600405580000
(0.827000) can0 552#0000000000004097
(0.830000) can0 2E1#FB1FB11999A70900
(0.830000) can0 118#F268950000C81400
(0.831000) can0 247#CD0EFF0B00990100
(0.832000) can0 343#0092641E98000000
(0.832000) can0 132#7093AEFDB83B
(0.833000) can0 2D2#FB2E824E4F05E822
(0.834000) can0 252#46159B7900FC0F00
(0.835000) can0 339#02F1FE008007800F
(0.835000) can0 1D5#290000000000807F
(0.837000) can0 261#B40D884C0040642F
(0.838000) can0 3C3#0000000000A50000
(0.838000) can0 2E5#000018300000DD00
(0.839000) can0 266#2500153915001D01
(0.840000) can0 257#2D7D746E02383A01
(0.841000) can0 3E9#F08822210000B057
(0.843000) can0 3E9#008822000000C056
(0.844000) can0 401#1B2A9E99AF99B499
(0.846000) can0 2E1#0400000000102007
(0.848000) can0 2C4#0400000000C09850
(0.850000) can0 2E5#000018300000DD00
(0.852000) can0 383#8B183A00C320A20F
(0.854000) can0 132#5E93A8FDA83B
(0.856000) can0 439#0000000000185A04
(0.859000) can0 39B#0318FF80B08850C0
(0.861000) can0 1A5#00101F5025
(0.863000) can0 1E5#286C04000000209E
(0.865000) can0 27A#F3CAFC00E8056202
(0.867000) can0 373#051D4E246CE31814
(0.869000) can0 281#2000FF1F0001
(0.871000) can0 1E5#286C0400000040BE
(0.873000) can0 266#2500153914001D01
(0.875000) can0 54F#0000000000000000
(0.877000) can0 757#2C3F3E0000000000
(0.879000) can0 3A1#844C0FCA001C8207
(0.881000) can0 7D5#2C3E3E0000000000
(0.883000) can0 7D7#322D000000000000
(0.885000) can0 122#00001392D2000000
(0.887000) can0 37A#CBE0010000000000
(0.889000) can0 458#00002000000000
(0.893000) can0 129#BB2BF45F0020FF3F
(0.897000) can0 441#4B85890032002014
(0.903000) can0 282#943CF20830C40224
(0.907000) can0 401#1E2A9A999399A199
(0.911000) can0 3A3#0ED00000280DFC01
(0.913000) can0 289#C6128984A1003D0F
(0.915000) can0 393#0380610000000000
(0.917000) can0 261#834D0A000040B5C5
(0.919000) can0 3C8#0000000000000000
(0.921000) can0 201#0200000000000000
(0.923000) can0 381#306400C000000000
(0.925000) can0 401#1F2A9199BE99A899
(0.932000) can0 22B#FFFFFF07F0FFFFFF
(0.938000) can0 261#B40D884C0040C48F
(0.944000) can0 228#0106184C0060E1D6
(0.946000) can0 2BF#00000000000001
(0.948000) can0 2C4#2522420800000020
(0.950000) can0 224#0408004019011008
(0.952000) can0 129#3921F55F0320FF3F
(0.953000) can0 383#8B183A00C320A20F
(0.955000) can0 448#20001010000010
(0.957000) can0 1FA#3AC001
(0.959000) can0 2E5#000019300000DD00
(0.961000) can0 1A5#00101F582D
(0.963000) can0 21D#0400B50000000000
(0.965000) can0 242#55558600
(0.967000) can0 27A#F4CBFC00E8056202
(0.969000) can0 39D#1C60F52700
(0.972000) can0 2E5#000019300000DD00
(0.974000) can0 41D#00
(0.976000) can0 682#0000004004111045
(0.978000) can0 3AE#0940000800002173
(0.980000) can0 7D7#322E000000000000
(0.982000) can0 257#2474746E02383A01
(0.983000) can0 132#6F93B9FDBC3B
(0.985000) can0 283#231F00004100
(0.987000) can0 211#BD19710F1001
(0.989000) can0 7FF#0500000120008000
(0.991000) can0 129#F625F55F0320FF3F
(0.993000) can0 3A2#6045F3C11C004369
(0.995000) can0 201#0138980000000000
(0.997000) can0 1D5#290000000000807F
(1.000000) can0 2E5#000019300000DD00
(1.003000) can0 3E2#040000611FCF00
(1.009000) can0 1F8#3A000000
(1.013000) can0 7AA#0B4A00284B003800
(1.017000) can0 545#01000000001080DB
(1.022000) can0 285#2445605872000000
(1.024000) can0 45A#24B6B437E04B4868
(1.026000) can0 22B#FFFFFF07F0FFFFFF
(1.028000) can0 3F9#0700000000000000
(1.030000) can0 1D8#29CE40180000C0E8
(1.032000) can0 266#2500143914001D01
(1.034000) can0 422#700010000000
(1.036000) can0 339#02F1FE008007800F
(1.039000) can0 414#1000000000434956
(1.041000) can0 118#776D950000C89400
(1.043000) can0 288#0106184C00600156
(1.045000) can0 321#ED8DA76602651022
(1.047000) can0 1D5#290000000000201F
(1.049000) can0 204#010000FF00000010
(1.051000) can0 2E5#000019300000DD00
(1.053000) can0 3C2#2955000000000000
(1.055000) can0 448#20001010000010
(1.057000) can0 1D5#290000000000403F
(1.059000) can0 428#20001010000010
(1.061000) can0 1D8#29CC401800002046
(1.063000) can0 108#1E6B063203282225
(1.065000) can0 257#2878746E02383A01
(1.068000) can0 27A#06CC0C01E8056202
(1.070000) can0 719#140000000000A200
(1.072000) can0 2E5#000019300000DD00
(1.074000) can0 263#04000000B0200000
(1.076000) can0 3D6#3F3F3F3F3F2C0242
(1.078000) can0 757#3200000000000000
(1.084000) can0 35A#0000000000000000
(1.086000) can0 122#00001392D2000000
(1.088000) can0 1D5#290000000000A09F
(1.090000) can0 2E5#000019300000DD00
(1.091000) can0 118#ED62950000C81401
(1.094000) can0 263#700ED29F77B71A00
(1.095000) can0 201#0138980000000000
(1.097000) can0 103#22B38804A2EE2032
(1.105000) can0 2E5#000019300000DD00
(1.109000) can0 1D5#290000000000E0DF
(1.113000) can0 129#E121F55F0020FF3F
(1.118000) can0 3FD#0000003C20000180
(1.120000) can0 393#0380610000000000
(1.122000) can0 257#337B746E02403A01
(1.124000) can0 132#6B93B4FDA43B
(1.126000) can0 2C1#1304900000000000
(1.128000) can0 22B#FFFFFF07F0FFFFFF
(1.129000) can0 2E5#000019300000DD00
(1.131000) can0 118#1066950000C83400
(1.133000) can0 2B3#00886D5D8F665565
(1.135000) can0 212#5904000081FF7731
(1.137000) can0 1D5#290000000000403F
(1.141000) can0 3C3#5555550100000000
(1.143000) can0 288#0106184C00601166
(1.145000) can0 421#F21A0000002000
(1.147000) can0 545#020006000000C012
(1.148000) can0 204#010000FF00000010
(1.150000) can0 2E5#000019300000DD00
(1.152000) can0 266#2400143914001D01
(1.154000) can0 448#20001010000010
(1.156000) can0 439#0000000000185A04
(1.158000) can0 3A2#02A4FFFF03000000
(1.160000) can0 118#D369950000C8F400
(1.162000) can0 221#610555550105E019
(1.164000) can0 128#0000EC0A02
(1.166000) can0 273#81E13000C8021011
(1.169000) can0 3FD#01000A0000080280
(1.172000) can0 2C3#555BA90680C112AA
(1.174000) can0 132#6793C8FDC93B
(1.176000) can0 3D5#3F404040422C034D
(1.178000) can0 335#1F00000000000000
(1.180000) can0 139#00
(1.182000) can0 266#2400143914001D01
(1.184000) can0 36B#0000000000000000
(1.186000) can0 283#231F00004100
(1.188000) can0 1D5#290000000000E0DF
(1.190000) can0 7D5#3200000000000000
(1.192000) can0 2E5#000019300000DD00
(1.194000) can0 3C0#0900000000000000
(1.197000) can0 359#260800000B5B54A0
(1.198000) can0 282#943CF2082CC40224
(1.201000) can0 23E#00003AC002FFFF3A
(1.203000) can0 123#00001392D2000000
(1.205000) can0 261#834D0A000040D5E5
(1.207000) can0 1D5#290000000000201F
(1.209000) can0 3A3#10D00000280DFC01
(1.211000) can0 129#A72BF45FFD1FFF3F
(1.213000) can0 3AE#084000080000A1F2
(1.215000) can0 393#080004D107B00304
(1.217000) can0 1D5#290000000000403F
(1.219000) can0 3FD#0200380000000090
(1.221000) can0 3C8#0300000000000000
(1.223000) can0 2F9#BCFB07030D1A8B84
(1.225000) can0 3A2#0110200000000000
(1.227000) can0 4E3#01D8050000002800
(1.230000) can0 7B5#020000
(1.232000) can0 3A0#0000000000000000
(1.234000) can0 227#26041F0048000081
(1.236000) can0 252#46159A7900FC0F00
(1.237000) can0 1D5#290000000000807F
(1.239000) can0 3C3#0000000000A50000
(1.242000) can0 257#3981746E02403A01
(1.244000) can0 441#AA00B6C358003D21
(1.246000) can0 201#0300000000000000
(1.247000) can0 2E8#010100000600C0B2
(1.249000) can0 264#3A000000A000
(1.254000) can0 3A8#0102000700020100
(1.264000) can0 439#0000000000185A04
(1.273000) can0 61D#040D653D8D360904
(1.280000) can0 7D5#2BA46FFF00000000
(1.285000) can0 129#3522F45FFF1FFF3F
(1.287000) can0 211#C01C710F1001
(1.289000) can0 52F#0006545777610980
(1.291000) can0 405#113345374542334B
(1.293000) can0 7F1#0200000F000000
(1.295000) can0 359#2700000000000000
(1.297000) can0 1D5#290000000000403F
(1.299000) can0 3D2#54EF060384C42903
(1.301000) can0 1D8#29C20017000020FB
(1.303000) can0 400#00E0FBBEEFFB00
(1.307000) can0 492#2503FF0F280000
(1.313000) can0 3A3#12D00000280DFC01
(1.317000) can0 393#0380610000000000
(1.324000) can0 3C8#0400000000000000
(1.325000) can0 2E1#0400000000102007
(1.327000) can0 3A1#C1FFFF633D00102F
(1.329000) can0 2E5#000019300000DD00
(1.331000) can0 7A8#0240BC07000F0000
(1.333000) can0 247#CF0EFF0B00990100
(1.335000) can0 788#C4D4C18300009A00
(1.337000) can0 1D5#290000000000C0BF
(1.339000) can0 3E9#008822000000D066
(1.341000) can0 1E5#286C04000000209E
(1.343000) can0 1F9#0000000000000000
(1.346000) can0 421#F21A0000002000
(1.348000) can0 2C4#49D90D2FA694A589
(1.350000) can0 261#00100D00FF4F60C1
(1.352000) can0 129#9529F45F0020FF3F
(1.354000) can0 448#20001010000010
(1.356000) can0 439#0000000000185A04
(1.358000) can0 428#20001010000010
(1.364000) can0 118#F86D950000C81401
(1.366000) can0 261#31002900B0497AC3
(1.368000) can0 25B#D38000056A869033
(1.370000) can0 41D#00
(1.372000) can0 201#003E3E000080FF00
(1.373000) can0 719#6EC5500062530014
(1.375000) can0 132#8793E0FDE13B
(1.378000) can0 7D5#3200000000000000
(1.380000) can0 1D8#29BEC016000020B6
(1.382000) can0 243#00FCCFCC994E0E29
(1.385000) can0 401#042AD399C399CB99
(1.387000) can0 1D5#290000000000605F
(1.388000) can0 7FF#09EF000010000000
(1.390000) can0 2E5#000019300000DD00
(1.393000) can0 272#080003E107B00304
(1.395000) can0 201#0138980000000000
(1.397000) can0 1D5#290000000000807F
(1.398000) can0 282#943CF20830C40224
(1.400000) can0 23E#00003AC002FF4F8A
(1.402000) can0 3E2#040000612FCF00
(1.404000) can0 2E1#FB1FB02999A60900
(1.407000) can0 677#0300000000000000
(1.409000) can0 3A3#10D00000280DFC01
(1.411000) can0 545#010000000010409B
(1.413000) can0 289#C61289C494003D0F
(1.415000) can0 393#080004D107B00304
(1.417000) can0 285#02A800000000B200
(1.419000) can0 3C8#0500000000000000
(1.421000) can0 201#0200000000000000
(1.423000) can0 2F9#BCFB07100D1A8B84
(1.425000) can0 401#062AC699F299CD99
(1.427000) can0 22B#FFFFFF07F0FFFFFF
(1.429000) can0 261#052232CA9A42B0A5
(1.430000) can0 22A#0000A917
(1.432000) can0 419#00
(1.435000) can0 2D1#FF01
(1.437000) can0 1D5#29000000000000FF
(1.439000) can0 6A2#0000000000
(1.441000) can0 23E#00003AC002FF5F9A
(1.443000) can0 1F9#0000000000000000
(1.445000) can0 737#04000000E0F080
(1.447000) can0 2E8#010100000600E0D2
(1.453000) can0 224#0408004019011008
(1.455000) can0 3A2#F2A3FFFF03000000
(1.457000) can0 1D5#290000000000403F
(1.458000) can0 428#20001010000010
(1.460000) can0 195#000000000A002706
(1.462000) can0 126#30A0307CA3
(1.465000) can0 21D#0400B50000000000
(1.467000) can0 2C3#0000C04B010040CB
(1.469000) can0 395#091312401A040A7D
(1.471000) can0 1D8#29BA001600004012
(1.473000) can0 3AE#0840000800002071
(1.475000) can0 719#0D00000000000000
(1.477000) can0 1D5#290000000000807F
(1.479000) can0 225#5555FA00
(1.481000) can0 257#5D9D746E02483A01
(1.483000) can0 243#00FCCFCC994E0E29
(1.485000) can0 283#231F00004100
(1.487000) can0 211#C21E710F1001
(1.489000) can0 7FF#0191494642041601
(1.491000) can0 129#1727F45F0020FF3F
(1.495000) can0 263#700ED29F77B71A00
(1.499000) can0 207#00362D2221000000
(1.503000) can0 241#3B3CD60E8F5500
(1.507000) can0 31A#200100000000003E
(1.512000) can0 3A3#10D00000280DFC01
(1.522000) can0 3E8#0300000000000000
(1.528000) can0 2EC#5780C5
(1.533000) can0 2E5#000019300000DD00
(1.534000) can0 292#4A171DF5D3010000
(1.536000) can0 381#0600000000000000
(1.538000) can0 414#1233585646544756
(1.540000) can0 118#196F950000C83400
(1.542000) can0 2C2#20408069010080CB
(1.544000) can0 132#8C93E0FDE53B
(1.547000) can0 2BF#00000000000001
(1.549000) can0 224#0408004019011008
(1.551000) can0 1E5#286C0400000040BE
(1.553000) can0 3AE#0840000800004091
(1.555000) can0 448#20001010000010
(1.557000) can0 1D5#290000000000807F
(1.559000) can0 428#20001010000010
(1.561000) can0 27A#DAB1FC00E8056202
(1.563000) can0 126#2F403104CB
(1.565000) can0 1D6#00080000CA099808
(1.567000) can0 2C3#555BA90680C112AA
(1.569000) can0 397#13E0FFB21C120000
(1.575000) can0 201#003D3E000080FF00
(1.577000) can0 7D5#2BA76FFF00000000
(1.580000) can0 22B#FFFFFF07F0FFFFFF
(1.582000) can0 2E1#026D66021A700000
(1.583000) can0 132#A093F0FD003C
(1.585000) can0 283#231F00004100
(1.587000) can0 3A2#6025F3BD1C004369
(1.589000) can0 7FF#024612289C5181C2
(1.596000) can0 129#1521F45F0020FF3F
(1.602000) can0 2E1#FB1FB02999A60900
(1.606000) can0 243#0100684867008E8E
(1.609000) can0 39A#182FE38AF3FEDA7E
(1.611000) can0 118#4066950000C86400
(1.613000) can0 263#6136D29F77B79A00
(1.615000) can0 393#080003D107B00304
(1.617000) can0 3FD#0000003C20000180
(1.620000) can0 1D5#290000000000403F
(1.621000) can0 261#052232CA9A427065
(1.624000) can0 243#02FC1B10048E0000
(1.625000) can0 2C1#1304900000000000
(1.627000) can0 3A1#C1FFFF493D007075
(1.629000) can0 2E1#6580080076D2306A
(1.632000) can0 7A8#0240BC07000F0000
(1.638000) can0 132#9793E5FDEA3B
(1.640000) can0 2E5#000019300000DD00
(1.642000) can0 129#0026F45F0020FF3F
(1.644000) can0 243#03000000167A5B00
(1.646000) can0 2C1#0400000000000000
(1.648000) can0 39D#1D61F52700
(1.650000) can0 420#2801404B00008000
(1.653000) can0 118#936A950000C8B4FF
(1.655000) can0 448#20001010000010
(1.656000) can0 1D5#290000000000C0BF
(1.658000) can0 428#20001010000010
(1.660000) can0 195#000000000A002706
(1.662000) can0 126#2FE82F0C79
(1.665000) can0 21D#0400B50000000000
(1.671000) can0 3FD#01000A0000080280
(1.686000) can0 2D7#8CE98003
(1.689000) can0 3FD#0000003C20000180
(1.691000) can0 211#B410710F1001
(1.693000) can0 263#700ED29F77B71A00
(1.697000) can0 207#00362D231E000000
(1.703000) can0 282#943CF20830C40224
(1.707000) can0 3D3#000000
(1.711000) can0 3A3#10D00000280DFC01
(1.715000) can0 2F1#0D00000000000000
(1.717000) can0 261#052232CA9A42D0C5
(1.719000) can0 3A2#0110200000000000
(1.721000) can0 1E5#286C0400000060DE
(1.723000) can0 3F5#0000C838820C0000
(1.726000) can0 401#152AB899A999DF99
(1.727000) can0 38B#FEFE1F0FA0C02503
(1.729000) can0 2E5#000019300000DD00
(1.731000) can0 118#9C62950000C8C400
(1.733000) can0 263#0200000E1D6D6F21
(1.736000) can0 212#5904000081FF7731
(1.738000) can0 3FD#01000A0000080280
(1.741000) can0 6A2#0000000000
(1.743000) can0 1F9#0000000000000000
(1.745000) can0 553#0000000000003088
(1.747000) can0 1D5#290000000000E0DF
(1.749000) can0 264#3A000000A000
(1.751000) can0 1E5#286C0400000040BE
(1.753000) can0 383#8B183A00BD20A20F
(1.756000) can0 448#20001010000010
(1.757000) can0 423#00001000000000
(1.770000) can0 2E5#000019300000DD00
(1.776000) can0 2E3#0100004E010B00
(1.785000) can0 3A1#844C0FCA001CA227
(1.791000) can0 3FD#0200380000000090
(1.795000) can0 37A#B00C000000000000
(1.798000) can0 1D5#290000000000807F
(1.800000) can0 266#2100143814001D01
(1.802000) can0 3C2#0055555500006A05
(1.804000) can0 401#192AC699C299A399
(1.806000) can0 2E1#0400000000102007
(1.808000) can0 39D#2165F52700
(1.809000) can0 2E5#000019300000DD00
(1.812000) can0 118#C36A950000C8E4FF
(1.814000) can0 393#080003D107B00304
(1.816000) can0 719#0003140F14060E00
(1.818000) can0 3A2#0110200000000000
(1.821000) can0 287#655F6968F1020E0C
(1.823000) can0 2E5#000019300000DD00
(1.825000) can0 3F5#0000C838830C0000
(1.827000) can0 1D5#290000000000E0DF
(1.829000) can0 261#00100F00FF4F40A3
(1.831000) can0 22A#0000A917
(1.833000) can0 419#00
(1.834000) can0 247#D20EFF0B009D0100
(1.836000) can0 2F2#1201
(1.838000) can0 6A2#0000000000
(1.844000) can0 1D8#29B680150000E02D
(1.847000) can0 261#31003700AB495AAC
(1.849000) can0 204#010000FF00000010
(1.850000) can0 1D8#29B680150000004D
(1.853000) can0 383#8B183A00BD20A20F
(1.855000) can0 448#20001010000010
(1.857000) can0 1D5#290000000000403F
(1.859000) can0 428#20001010000010
(1.861000) can0 1D8#29B880150000206F
(1.863000) can0 126#2E50301CF1
(1.865000) can0 242#55558600
(1.867000) can0 25B#D38000056A86E083
(1.869000) can0 353#FB0F39801A10F2FE
(1.870000) can0 2E1#026D66021A710000
(1.872000) can0 118#EA60950000C81400
(1.875000) can0 132#A593E1FDF73B
(1.877000) can0 7D5#2BA66FFF00000000
(1.879000) can0 7D5#2C3E3E0000000000
(1.882000) can0 23E#00003AC002FF0F4A
(1.883000) can0 132#A293E8FD043C
(1.885000) can0 283#232000004100
(1.887000) can0 211#B612710F1001
(1.889000) can0 7FF#0500000120008000
(1.891000) can0 129#8E2FF45FFF1FFF3F
(1.893000) can0 263#700ED29F77B71A00
(1.895000) can0 201#0138980000000000
(1.897000) can0 103#22B38804A4EE2032
(1.899000) can0 282#943CF20830C40224
(1.901000) can0 266#2100143814001D01
(1.906000) can0 400#00E0FBBEEFFB00
(1.910000) can0 39A#6DFFFDFDFD01000A
(1.917000) can0 249#9B000000
(1.924000) can0 287#655F6968F1020E0D
(1.926000) can0 677#0100000000000000
(1.928000) can0 39D#2468F52700
(1.930000) can0 381#1100000000000000
(1.932000) can0 266#2100143814001D01
(1.934000) can0 2D1#FF01
(1.936000) can0 252#4815997900FC0F00
(1.937000) can0 1D5#290000000000403F
(1.939000) can0 228#0106184C00608176
(1.941000) can0 129#CD24F45F0020FF3F
(1.943000) can0 243#03000000167A5B00
(1.945000) can0 553#00000000000050A8
(1.952000) can0 2E8#0101000006003022
(1.957000) can0 3C2#2955000000000000
(1.961000) can0 428#20001010000010
(1.966000) can0 249#E8010000
(1.968000) can0 285#034A7D5277000000
(1.970000) can0 397#13E0FFB21C140000
(1.972000) can0 201#003D3E000080FF00
(1.974000) can0 545#20065DD09AA65936
(1.976000) can0 682#000000400411B0E5
(1.978000) can0 1D5#290000000000C0BF
(1.980000) can0 139#00
(1.981000) can0 2E1#FB1FAF09999F0900
(1.983000) can0 3A2#6025F3BF1C004369
(1.985000) can0 283#232000004100
(1.987000) can0 211#B713710F1001
(1.991000) can0 7FF#06003200000000C0
(1.992000) can0 2D3#5100B40316005B79
(1.994000) can0 441#4A8589003200382B
(1.996000) can0 1D5#29000000000000FF
(1.998000) can0 282#943CF2082CC40224
(2.000000) can0 118#C66D950000C8E4FF
(2.002000) can0 257#4F97746E02403A01
(2.004000) can0 132#A593DFFDF73B
(2.005000) can0 2C1#0219060000D00200
(2.007000) can0 39A#182FE38AF302DF7E
(2.010000) can0 2E5#000019300000DD00
(2.018000) can0 263#6136D29F77B79A00
(2.024000) can0 2E5#000019300000DD00
(2.028000) can0 2C1#1304900000000000
(2.032000) can0 1D8#29BC001600004014
(2.034000) can0 132#AB93D8FDF33B
(2.036000) can0 252#4815997900FC0F00
(2.038000) can0 261#31004000AE491A78
(2.039000) can0 666#0000C800
(2.041000) can0 1D8#29BC401600006074
(2.043000) can0 3E3#04000000
(2.045000) can0 421#F21A0000002000
(2.047000) can0 677#0400000000000000
(2.049000) can0 204#010000FF00000010
(2.051000) can0 1D8#29BE401600008096
(2.053000) can0 2A8#01010000060030E2
(2.055000) can0 448#20001010000010
(2.057000) can0 1D5#290000000000C0BF
(2.060000) can0 428#20001010000010
(2.062000) can0 1E5#286C04000000209E
(2.064000) can0 1D6#00080000CA099808
(2.066000) can0 2B6#000300
(2.068000) can0 1D5#290000000000E0DF
(2.070000) can0 682#000000400411C0F5
(2.072000) can0 129#4C21F55F0120FF3F
(2.074000) can0 376#013E3E0046000000
(2.076000) can0 376#04FFFFFFFF3D3C3C
(2.078000) can0 356#0000000000000000
(2.084000) can0 35A#0000000000000000
(2.086000) can0 283#232100004100
(2.088000) can0 211#B814710F1001
(2.090000) can0 7FF#0720000528000000
(2.094000) can0 266#2300143914001D01
(2.101000) can0 201#0138980000000000
(2.105000) can0 400#00E0FBBEEFFB00
(2.109000) can0 1D5#290000000000605F
(2.112000) can0 1E5#286C0400000040BE
(2.114000) can0 3A2#0110200000000000
(2.116000) can0 3FD#0000003C20000180
(2.118000) can0 719#0300000000000000
(2.124000) can0 201#0200000000000000
(2.126000) can0 2C1#1304900000000000
(2.128000) can0 39D#296DF52700
(2.130000) can0 1D8#29C08016000080D8
(2.131000) can0 118#146A950000C83400
(2.134000) can0 2D1#FF01
(2.136000) can0 252#4815997900FC0F00
(2.139000) can0 545#020005000000A0F1
(2.141000) can0 129#3428F55F0020FF3F
(2.143000) can0 288#0106184C0060B106
(2.145000) can0 553#00000000000070C8
(2.147000) can0 1D5#290000000000E0DF
(2.149000) can0 204#010000FF00000010
(2.151000) can0 1D8#29C080160000C018
(2.152000) can0 2E5#000019300000DD00
(2.154000) can0 448#20001010000010
(2.156000) can0 439#0000000000185A04
(2.158000) can0 428#20001010000010
(2.164000) can0 195#000000000A002706
(2.167000) can0 261#834D0A00004095A5
(2.168000) can0 3FD#01000A0000080280
(2.172000) can0 397#130080B21C120000
(2.174000) can0 132#A093CDFDED3B
(2.176000) can0 757#2C3F3E0000000000
(2.178000) can0 335#2104010100000000
(2.180000) can0 3B5#0000000000000000
(2.182000) can0 266#2300143914001D01
(2.184000) can0 7D5#2BA66FFF00000000
(2.186000) can0 122#01000000003F0000
(2.188000) can0 37A#B00C000000000000
(2.190000) can0 7FF#0800000100000000
(2.192000) can0 1D8#29C0801600004098
(2.195000) can0 266#2300143914001D01
(2.197000) can0 1D5#290000000000807F
(2.199000) can0 282#943C02092CC40224
(2.201000) can0 241#3B3CD60E8F5500
(2.203000) can0 243#0100684868008E8E
(2.205000) can0 2E1#6580080076D2306A
(2.207000) can0 39A#182FE38AF302DF7E
(2.209000) can0 3A3#12D00000280DFC01
(2.211000) can0 129#232FF45FFE1FFF3F
(2.213000) can0 289#C61008448C003D0F
(2.215000) can0 393#080003D107B00304
(2.217000) can0 1D5#290000000000C0BF
(2.219000) can0 3FD#0200380000000090
(2.221000) can0 3C8#0600000000000000
(2.223000) can0 3F5#0000C838820C0000
(2.225000) can0 2C1#1304900000000000
(2.227000) can0 4E3#0446600405580000
(2.230000) can0 344#00000000000060A7
(2.232000) can0 129#9B21F35FFD1FFF3F
(2.233000) can0 7A8#0240BC07000F0000
(2.235000) can0 212#5904000081FF7731
(2.237000) can0 3B2#4CF1C532C3A80100
(2.239000) can0 3C3#0000000000A50000
(2.241000) can0 1E5#286C0400000060DE
(2.243000) can0 3AE#054000080000A1EF
(2.245000) can0 553#00000000000080D8
(2.247000) can0 1D5#290000000000201F
(2.249000) can0 6A1#0000000000
(2.254000) can0 3A8#0103000700020100
(2.258000) can0 6E8#0100000000000000
(2.267000) can0 186#17080002003F2225
(2.276000) can0 2E5#000019300000DD00
(2.282000) can0 261#B40D884C004004CF
(2.288000) can0 132#A093D1FDEC3B
(2.290000) can0 318#1A06030410232DA2
(2.296000) can0 666#0000C800
(2.298000) can0 332#DD1EAF074856
(2.300000) can0 118#256B950000C84400
(2.302000) can0 2E1#6580080077D2306A
(2.304000) can0 123#01000000003F0000
(2.305000) can0 31A#200100000000407E
(2.307000) can0 39A#71FFFDFDFD01000A
(2.311000) can0 3A3#12D00000280DFC01
(2.315000) can0 289#C610080482003D0F
(2.319000) can0 390#1706
(2.326000) can0 201#0200000000000000
(2.330000) can0 3A1#C1FFFF6F3D00507B
(2.332000) can0 3AE#024000080000F03B
(2.334000) can0 132#A093DFFDF53B
(2.336000) can0 339#02F1FE008007800F
(2.338000) can0 2F2#1201
(2.340000) can0 228#0106184C0060C1B6
(2.342000) can0 257#70A8746E02503A01
(2.344000) can0 441#A800B6C3580015F7
(2.346000) can0 201#0300000000000000
(2.347000) can0 2E8#0101000006007062
(2.350000) can0 119#00000000
(2.352000) can0 266#2200143914001C01
(2.354000) can0 448#20001010000010
(2.356000) can0 439#0000000000185A04
(2.359000) can0 428#20001010000010
(2.361000) can0 1D8#29BC401600006074
(2.363000) can0 266#2200143914001C01
(2.365000) can0 1D6#00080000CA099808
(2.367000) can0 2C3#555BA90680C112AA
(2.369000) can0 381#22A2F027F1209001
(2.375000) can0 1E5#286C04000000007E
(2.377000) can0 7D5#2C3E3E0000000000
(2.379000) can0 3A2#6045F3BF1C004369
(2.381000) can0 1E5#286C04000000209E
(2.383000) can0 132#9E93DCFD023C
(2.385000) can0 283#232200004100
(2.387000) can0 211#BB17710F1001
(2.389000) can0 318#1A06030410232FA4
(2.392000) can0 129#A821F05FFD1FFF3F
(2.394000) can0 132#A193DFFDE73B
(2.395000) can0 234#30E10380430054C6
(2.397000) can0 103#22B38804A2EC2032
(2.399000) can0 2E5#000019300000DD00
(2.401000) can0 266#2200143814001C01
(2.403000) can0 123#00001392D2000000
(2.405000) can0 261#00101000FF4F80E4
(2.407000) can0 39A#142FE38AF702DF7E
(2.410000) can0 3A3#14D00000280DFC01
(2.412000) can0 118#1066950000C83400
(2.413000) can0 263#6136D29F77B79A00
(2.415000) can0 3E8#0500000000000000
(2.417000) can0 355#800C00FF940000
(2.420000) can0 3C8#0100000000000000
(2.422000) can0 20C#4FF8340A1E01300E
(2.424000) can0 132#8393E0FDE43B
(2.425000) can0 2C1#1304900000000000
(2.427000) can0 3A1#C1FFFF353D007061
(2.429000) can0 2E5#000019300000DD00
(2.431000) can0 129#7B25F05F0020FF3F
(2.433000) can0 263#0200000E1D6D6F21
(2.435000) can0 545#0200040000003080
(2.437000) can0 1D5#290000000000807F
(2.439000) can0 3C3#0000000000A50000
(2.441000) can0 1E5#286C0400000060DE
(2.443000) can0 288#0106184C0060E136
(2.445000) can0 3A2#F2A3FFFF03000000
(2.448000) can0 1D5#290000000000A09F
(2.450000) can0 119#00000000
(2.452000) can0 129#DF27F05FFF1FFF3F
(2.454000) can0 261#834D0A000040B5C5
(2.455000) can0 439#0000000000185A04
(2.457000) can0 423#00001000000000
(2.459000) can0 2E5#000019300000DD00
(2.461000) can0 108#0DB905DA02232225
(2.463000) can0 128#0000EC0A02
(2.466000) can0 25D#3741012A04F08803
(2.468000) can0 2E1#FB1FB12999A50900
(2.469000) can0 285#034A7D5277000000
(2.471000) can0 1E5#286C0400000040BE
(2.473000) can0 129#9929F05F0120FF3F
(2.476000) can0 757#3200000000000000
(2.478000) can0 2E1#0400000000102007
(2.480000) can0 1D8#29B680150000E02D
(2.482000) can0 129#462AF05F0120FF3F
(2.484000) can0 372#0310075000010000
(2.486000) can0 261#052232CA9A42D0C5
(2.488000) can0 211#BC18710F1001
(2.490000) can0 2E5#000019300000DD00
(2.491000) can0 207#00382F2223000000
(2.496000) can0 2E1#6580080077D2306A
(2.500000) can0 282#943C020928C40224
(2.506000) can0 1E5#286C04000000209E
(2.510000) can0 39A#71FFFDFDFD01000A
(2.515000) can0 221#6055551554519178
(2.521000) can0 1D5#290000000000807F
(2.525000) can0 257#80B1746EFA5F3A01
(2.531000) can0 1D5#290000000000A09F
(2.538000) can0 545#02000400000060B0
(2.544000) can0 3C3#5555550100000000
(2.548000) can0 553#000000000000B008
(2.553000) can0 2E5#000019300000DD00
(2.555000) can0 448#20001010000010
(2.557000) can0 1D5#29000000000000FF
(2.559000) can0 428#20001010000010
(2.561000) can0 23E#00003AC002FF1F5A
(2.563000) can0 249#130D0000
(2.565000) can0 25D#3741012A04F08803
(2.567000) can0 2C3#555BA90680C112AA
(2.574000) can0 396#090F0F3D1501117D
(2.576000) can0 719#0D00000000000000
(2.578000) can0 22B#FFFFFF07F0FFFFFF
(2.580000) can0 225#5555FA00
(2.582000) can0 129#0524F05FFF1FFF3F
(2.584000) can0 132#A993F1FD073C
(2.585000) can0 283#232200004100
(2.587000) can0 211#BD19710F1001
(2.591000) can0 7FF#0301082861428001
(2.595000) can0 272#080004E107B00304
(2.599000) can0 1D5#290000000000807F
(2.603000) can0 1E5#286C0400000060DE
(2.610000) can0 2E1#1021040010000004
(2.611000) can0 249#AF0E0000
(2.613000) can0 289#C610084486003D0F
(2.616000) can0 3FD#0000003C20000180
(2.618000) can0 3E8#0000000000000000
(2.624000) can0 1D8#29B0C0140000A026
(2.626000) can0 1D5#290000000000E0DF
(2.628000) can0 3A1#C1FFFF3F3D00B0AB
(2.630000) can0 2E5#000019300000DD00
(2.631000) can0 266#2000143814001C01
(2.634000) can0 2B3#08FA0000847E0000
(2.636000) can0 247#D30EFF0B009F0100
(2.638000) can0 2E1#026D66021A6F0000
(2.640000) can0 118#676D950000C88400
(2.642000) can0 257#86B7746EFA5F3A01
(2.644000) can0 243#03000000167A5B00
(2.646000) can0 201#0300000000000000
(2.648000) can0 2E8#010100000600A092
(2.650000) can0 2E5#000019300000DD00
(2.652000) can0 266#2000143814001C01
(2.654000) can0 448#20001010000010
(2.656000) can0 439#0000000000185A04
(2.658000) can0 428#20001010000010
(2.660000) can0 186#000C000200242225
(2.662000) can0 1E5#286C04000000209E
(2.664000) can0 243#04FC3303CE80FFFF
(2.666000) can0 2C1#68347E00008A0200
(2.668000) can0 3AE#01400008000091DB
(2.670000) can0 2E1#0400000000102007
(2.675000) can0 3FD#01000A0000080280
(2.683000) can0 360#0700000000000000
(2.688000) can0 122#00001392D2000000
(2.691000) can0 3FD#0000003C20000180
(2.692000) can0 2E5#000019300000DD00
(2.694000) can0 359#3700000000000000
(2.696000) can0 1D5#290000000000C0BF
(2.698000) can0 282#943C020928C40224
(2.702000) can0 118#DD63950000C80400
(2.708000) can0 243#0100674867008E8E
(2.714000) can0 261#3100F5FFB049BACE
(2.718000) can0 3E8#0100000000000000
(2.720000) can0 201#0200000000000000
(2.722000) can0 20C#4FF8340A1E01300E
(2.724000) can0 132#AF93F9FD183C
(2.726000) can0 2C1#1304900000000000
(2.729000) can0 39D#286CF52700
(2.731000) can0 22A#0000A917
(2.732000) can0 419#00
(2.734000) can0 343#0092686E97000000
(2.736000) can0 2D2#FA2E844E5005E822
(2.738000) can0 6A2#0000000000
(2.746000) can0 3FD#01000A0000080280
(2.749000) can0 1D8#29B0C014000020A6
(2.751000) can0 2E2#0714503F01000000
(2.753000) can0 3C2#2955000000000000
(2.755000) can0 448#20001010000010
(2.757000) can0 3AE#014000080000C00A
(2.759000) can0 428#20001010000010
(2.765000) can0 1A5#00101F683D
(2.770000) can0 25B#D38000056A867013
(2.777000) can0 2E3#A0000017010B00
(2.783000) can0 7D7#322D000000000000
(2.787000) can0 122#01000000003F0000
(2.795000) can0 3FD#0200380000000090
(2.798000) can0 113#019701
(2.800000) can0 118#A76D950000C8C400
(2.801000) can0 129#CE2AEF5F0020FF3F
(2.803000) can0 123#00001392D2000000
(2.805000) can0 261#31000400B0491A3E
(2.807000) can0 39A#182FE38AFB0ADF7E
(2.809000) can0 3A3#14D00000280DFC01
(2.811000) can0 129#1A2BF05F0020FF3F
(2.813000) can0 289#C61008C494003D0F
(2.815000) can0 287#655F6968F1020D0D
(2.817000) can0 1D5#290000000000403F
(2.819000) can0 295#3C00A1FF00000001
(2.821000) can0 129#7A2CF05F0020FF3F
(2.824000) can0 243#02FC1B10048E0000
(2.826000) can0 1D5#290000000000605F
(2.828000) can0 552#00000000000080D7
(2.830000) can0 2E1#026D66021A700000
(2.832000) can0 545#020004000000F040
(2.834000) can0 132#BA93F3FD1B3C
(2.836000) can0 227#2B04200048000081
(2.838000) can0 261#834D0A0000403545
(2.840000) can0 228#0106184C00601106
(2.841000) can0 129#B72EF05F0020FF3F
(2.843000) can0 243#03000000167A5B00
(2.846000) can0 553#000000000000E038
(2.848000) can0 39D#2B6FF52700
(2.850000) can0 420#2801404B00008006
(2.853000) can0 2A8#010100000600B062
(2.855000) can0 448#20001010000010
(2.857000) can0 423#00001000000000
(2.863000) can0 428#20001010000010
(2.865000) can0 21D#0400B50000000000
(2.867000) can0 396#090F0F3D1501117D
(2.869000) can0 286#FFFFFFFF31
(2.871000) can0 33D#1A290ABE874AFA98
(2.873000) can0 2E5#000019300000DD00
(2.875000) can0 129#9121EF5F0020FF3F
(2.877000) can0 682#0000004004114075
(2.879000) can0 3A1#844C0FCA001C0287
(2.881000) can0 1D8#29B200150000E0A9
(2.883000) can0 257#82B3746EFA5F3A01
(2.886000) can0 122#00001392D2000000
(2.888000) can0 39D#1C60F52700
(2.890000) can0 207#0036322424000000
(2.892000) can0 3C0#0400000000000000
(2.894000) can0 132#C193F2FD2A3C
(2.896000) can0 234#30E103804300F466
(2.898000) can0 282#943CF20828C40224
(2.900000) can0 2E5#000019300000DD00
(2.902000) can0 257#83B4746EFA5F3A01
(2.904000) can0 132#AF93F0FD203C
(2.905000) can0 2C1#0219060000D00200
(2.912000) can0 39A#65FFFDFDFD01000A
(2.916000) can0 132#B293ECFD203C
(2.922000) can0 261#322AA701805C8258
(2.928000) can0 2EC#5760A5
(2.934000) can0 2E5#000019300000DD00
(2.940000) can0 292#4A171DB5D3010000
(2.944000) can0 257#7DB6746EFA573A01
(2.947000) can0 6A1#0000000000
(2.948000) can0 204#010000FF00000010
(2.950000) can0 420#2801404B00000007
(2.952000) can0 266#2000143814001C01
(2.954000) can0 3C2#2955000000000000
(2.956000) can0 439#0000000000185A04
(2.958000) can0 428#20001010000010
(2.960000) can0 118#B66D950000C8D4FF
(2.962000) can0 129#0A2AEF5FFE1FFF3F
(2.964000) can0 232#8A00950ECA040000
(2.967000) can0 27A#FCCFFC00EC056202
(2.969000) can0 396#090F0F3D1501117D
(2.971000) can0 201#003E3E000080FF00
(2.973000) can0 545#D00562C09AA539B9
(2.975000) can0 54F#0000000000000000
(2.977000) can0 78A#010005009D0D0A00
(2.979000) can0 102#22B3880494FAA009
(2.981000) can0 7D7#322D000000000000
(2.983000) can0 243#00FCCFCC994E0E29
(2.985000) can0 122#01000000003F0000
(2.987000) can0 211#C11D710F1001
(2.989000) can0 318#1A06030410233BB0
(2.991000) can0 340#0B40000000000000
(2.993000) can0 2B3#CE2B5E01C0121900
(2.996000) can0 201#0138980000000000
(2.998000) can0 282#943CF2082CC40224
(3.000000) can0 118#2B61950000C85400
(3.002000) can0 129#562EEF5FFE1FFF3F
(3.003000) can0 243#0100684867008E8E
(3.005000) can0 2E1#398D2AFF0F000000
(3.007000) can0 39A#182FDF8AFF0ADF7E
(3.009000) can0 3A3#12D00000280DFC01
(3.011000) can0 118#AC62950000C8D400
(3.013000) can0 289#C61008C485003D0F
(3.015000) can0 393#080003D107B00304
(3.018000) can0 719#6EC51E00625C0014
(3.025000) can0 118#4D63950000C87400
(3.032000) can0 1D5#290000000000E0DF
(3.039000) can0 263#0200000E1D6D6F21
(3.045000) can0 1D8#29B880150000E02F
(3.051000) can0 2C1#0400000000000000
(3.055000) can0 383#8B183A00B710820F
(3.057000) can0 1FA#3AC001
(3.059000) can0 428#20001010000010
(3.061000) can0 1D8#29B880150000206F
(3.063000) can0 221#6105555501054079
(3.065000) can0 242#55558600
(3.067000) can0 253#0164A6C66490B505
(3.069000) can0 397#03E0FFB21C140000
(3.071000) can0 1E5#286C0400000040BE
(3.073000) can0 266#2100143814001C01
(3.076000) can0 3D6#3F3F3F3F3F2C0242
(3.078000) can0 261#00101000FF4F2084
(3.080000) can0 225#5555FA00
(3.082000) can0 75D#524FAE0000008049
(3.084000) can0 7AA#0C00000000000039
(3.086000) can0 7D7#322D000000000000
(3.092000) can0 1D5#290000000000A09F
(3.094000) can0 132#9993DBFD083C
(3.096000) can0 234#30E10380430034A6
(3.097000) can0 409#00
(3.099000) can0 2E5#000019300000DD00
(3.101000) can0 241#3C3C160F8F5500
(3.103000) can0 38D#4E40AAAAAA244902
(3.105000) can0 3A2#0110200000000000
(3.113000) can0 39A#61FFFDFDFD01000A
(3.119000) can0 3FD#0000003C20000180
(3.124000) can0 393#0380610000000000
(3.126000) can0 545#02000300000080CF
(3.128000) can0 22B#FFFFFF07F0FFFFFF
(3.130000) can0 1D8#29BAC01500000091
(3.132000) can0 266#2100143814001C01
(3.133000) can0 2D1#FF01
(3.135000) can0 252#4915977900FC0F00
(3.137000) can0 3B2#4F6A02D8FFD5A426
(3.139000) can0 309#0000000000000000
(3.141000) can0 129#9B2CEF5FFE1FFF3F
(3.143000) can0 288#0106184C006051A6
(3.145000) can0 553#0000000000001068
(3.148000) can0 1D5#290000000000605F
(3.150000) can0 1E5#286C0400000040BE
(3.152000) can0 266#2100143814001C01
(3.154000) can0 448#20001010000010
(3.156000) can0 439#0000000000185A04
(3.158000) can0 428#20001010000010
(3.160000) can0 195#000000000A002706
(3.162000) can0 1E5#286C0400000060DE
(3.164000) can0 128#0000EC0A02
(3.166000) can0 27A#FFC10C01EC056202
(3.168000) can0 3FD#01000A0000080280
(3.171000) can0 1D5#290000000000A09F
(3.173000) can0 315#18453D55503DAE7D
(3.176000) can0 261#00101000FF4F80E4
(3.179000) can0 45A#FD07F8FF0300006F
(3.181000) can0 1D8#29BAC0150000A031
(3.183000) can0 257#81B2746EFA5F3A01
(3.185000) can0 36B#0000000000000000
(3.186000) can0 2C1#215B1D8C02000000
(3.188000) can0 78A#010000001C13020D
(3.190000) can0 717#01CAFF76002400
(3.192000) can0 1D8#29BAC0150000C051
(3.194000) can0 3C0#0700000000000000
(3.196000) can0 441#4B8589003200180C
(3.198000) can0 1D5#29000000000000FF
(3.204000) can0 266#2100143814001C01
(3.210000) can0 677#0300000000000000
(3.213000) can0 266#2100143814001C01
(3.215000) can0 393#080004D107B00304
(3.219000) can0 3FD#0200380000000090
(3.220000) can0 3C8#0200000000000000
(3.222000) can0 4E2#01400E0100002800
(3.224000) can0 45A#24B6B437E04B4868
(3.226000) can0 545#020003000000B0FF
(3.228000) can0 552#000000000000C017
(3.230000) can0 2E5#000019300000DD00
(3.232000) can0 3AE#FF3F00080000D118
(3.234000) can0 7A8#C8CCB18300008200
(3.236000) can0 212#5904000081FF7731
(3.238000) can0 2F2#1201
(3.240000) can0 2E5#000019300000DD00
(3.242000) can0 3E3#04000000
(3.245000) can0 421#F21A0000002000
(3.247000) can0 1D5#290000000000A09F
(3.249000) can0 204#010000FF00000010
(3.251000) can0 1D8#29BAC01500008011
(3.252000) can0 2A8#010100000600F0A2
(3.254000) can0 448#20001010000010
(3.256000) can0 439#0000000000185A04
(3.258000) can0 545#D00562209BA7C9AC
(3.260000) can0 195#000000000A002706
(3.262000) can0 1E5#286C04000000209E
(3.264000) can0 132#9D93E0FD0F3C
(3.266000) can0 2B6#000300
(3.279000) can0 395#091313401A040B7D
(3.288000) can0 243#00FCCFCC994E0E29
(3.295000) can0 2E5#000019300000DD00
(3.300000) can0 1D5#290000000000403F
(3.302000) can0 452#B7A400
(3.304000) can0 243#0100684867008E8E
(3.306000) can0 1F8#3A000000
(3.308000) can0 3A3#16D00000280DFC01
(3.310000) can0 2E1#026D66021A710000
(3.312000) can0 221#6055551554519178
(3.313000) can0 289#C610080488003D0F
(3.315000) can0 3E8#0000000000000000
(3.317000) can0 3E9#F0882221000000A7
(3.323000) can0 3C8#0300000000000000
(3.327000) can0 2E1#FB1FB41999AB0900
(3.331000) can0 3F9#0300000000000008
(3.335000) can0 419#00
(3.340000) can0 252#4915977900FC0F00
(3.346000) can0 2C2#20408069010080CB
(3.348000) can0 2C4#C835404841D142AA
(3.350000) can0 1D8#29BC40160000C0D4
(3.352000) can0 3AE#0040000800001059
(3.354000) can0 2B3#036767020900003C
(3.356000) can0 439#0000000000185A04
(3.358000) can0 2E1#6580080078D2306A
(3.359000) can0 2E5#000019300000DD00
(3.361000) can0 266#2200143814001C01
(3.363000) can0 21D#0400B50000000000
(3.366000) can0 25D#3741012A04F08803
(3.368000) can0 25B#D38000056A86D073
(3.370000) can0 41D#00
(3.373000) can0 2E3#03000032010B00
(3.375000) can0 45A#FD07F8FF0300006F
(3.377000) can0 7D5#2BA46FFF00000000
(3.379000) can0 22B#FFFFFF07F0FFFFFF
(3.380000) can0 118#4167950000C86400
(3.382000) can0 243#00FCCFCC994E0E29
(3.384000) can0 122#01000000003F0000
(3.386000) can0 37A#C00C000000000000
(3.388000) can0 113#019701
(3.390000) can0 1D8#29BE401600004056
(3.392000) can0 3C0#0900000000000000
(3.394000) can0 132#9B93D9FDF73B
(3.396000) can0 1D5#290000000000807F
(3.398000) can0 282#943C02092CC40224
(3.400000) can0 266#2200143914001C01
(3.403000) can0 3A2#0110200000000000
(3.405000) can0 2E1#026D66021A710000
(3.407000) can0 39A#182FE38A030FE37E
(3.409000) can0 3A3#14D00000280DFC01
(3.411000) can0 129#DF27F05FFF1FFF3F
(3.413000) can0 289#C61008C4A5003D0F
(3.415000) can0 393#080003D107B00304
(3.417000) can0 1D5#290000000000C0BF
(3.419000) can0 3C8#0400000000000000
(3.420000) can0 266#2200143914001C01
(3.423000) can0 2F9#BCFB072000000000
(3.425000) can0 2C1#1304900000000000
(3.427000) can0 2AA#579093
(3.429000) can0 2E5#000019300000DD00
(3.432000) can0 129#1129EF5F0020FF3F
(3.434000) can0 132#9393E0FDF83B
(3.436000) can0 292#4A171DB5D3010000
(3.438000) can0 2E1#0400000000102007
(3.444000) can0 228#0106184C00607166
(3.446000) can0 234#30F00230C104A052
(3.448000) can0 39D#065EE12700
(3.450000) can0 420#2801404B00008001
(3.452000) can0 118#286E950000C84400
(3.454000) can0 132#8C93D6FDDB3B
(3.456000) can0 439#0000000000185A04
(3.458000) can0 428#20001010000010
(3.460000) can0 1A5#00101F20F5
(3.462000) can0 221#610555550105C0F9
(3.465000) can0 243#04FC3303CE80FFFF
(3.467000) can0 1D5#290000000000605F
(3.469000) can0 396#090F103D1501127D
(3.471000) can0 1E5#286C0400000040BE
(3.473000) can0 54F#0000000000000000
(3.475000) can0 682#000000400411A0D5
(3.477000) can0 7AA#04000FC000260000
(3.479000) can0 381#0600000000000000
(3.481000) can0 1D8#29BC401600006074
(3.484000) can0 243#00FCCFCC994E0E29
(3.485000) can0 2E1#398D2AFF0F000000
(3.487000) can0 211#B612710F1001
(3.489000) can0 7FF#0301082861428001
(3.491000) can0 118#7C62950000C8A400
(3.498000) can0 263#700ED29F77B71A00
(3.504000) can0 118#CC63950000C8F4FF
(3.510000) can0 2C1#0219060000D00200
(3.512000) can0 221#605555155451D1B8
(3.513000) can0 263#6136D29F77B79A00
(3.515000) can0 3E8#0200000000000000
(3.517000) can0 1D5#29000000000000FF
(3.520000) can0 2E5#000019300000DD00
(3.526000) can0 545#0200050000004091
(3.531000) can0 552#000000000000F047
(3.537000) can0 419#00
(3.541000) can0 405#113345374542334B
(3.543000) can0 1F9#0000000000000000
(3.545000) can0 401#0C2AC599BB99DD99
(3.547000) can0 1D5#290000000000605F
(3.554000) can0 2B4#4805C60E6301
(3.556000) can0 439#0000000000185A04
(3.558000) can0 261#00101200FF4F0066
(3.564000) can0 118#3369950000C85400
(3.566000) can0 324#7828B6CE9E010000
(3.568000) can0 253#0164A6C66490B505
(3.570000) can0 397#03E0FFB21C140000
(3.572000) can0 1E5#286C04000000007E
(3.575000) can0 360#0500000000000000
(3.576000) can0 7D5#2BA66FFF00000000
(3.579000) can0 102#22B3880494FAA009
(3.580000) can0 118#756B950000C89400
(3.582000) can0 243#00FCCFCC994E0E29
(3.589000) can0 122#01000000003F0000
(3.593000) can0 340#0500000000000000
(3.599000) can0 201#0138980000000000
(3.603000) can0 3A2#0110200000000000
(3.605000) can0 261#834D0A0000403545
(3.607000) can0 1D5#290000000000201F
(3.609000) can0 3A3#16D00000280DFC01
(3.611000) can0 287#655F6968F1020E0E
(3.613000) can0 2F1#0D00000000000000
(3.615000) can0 393#080004D107B00304
(3.617000) can0 3FD#0000003C20000180
(3.619000) can0 333#0010890700
(3.621000) can0 201#0200000000000000
(3.623000) can0 3F5#0000C838820C0000
(3.626000) can0 545#02000700000070C3
(3.628000) can0 3A1#C1FFFF473D00F0F3
(3.630000) can0 2E1#0400000000102007
(3.631000) can0 266#2100143814001C01
(3.633000) can0 263#0200000E1D6D6F21
(3.635000) can0 252#4A15977900FC0F00
(3.637000) can0 227#29041F0048000081
(3.639000) can0 6A2#0000000000
(3.641000) can0 1E5#286C0400000060DE
(3.644000) can0 1F9#0000000000000000
(3.646000) can0 301#0B06000000000000
(3.648000) can0 39D#FB53E12700
(3.650000) can0 119#00000000
(3.652000) can0 129#632FEF5F0020FF3F
(3.654000) can0 261#00101200FF4F60C6
(3.656000) can0 439#0000000000185A04
(3.658000) can0 428#20001010000010
(3.660000) can0 1A5#00101F3005
(3.662000) can0 221#6105555501050039
(3.664000) can0 243#04FC3303CE80FFFF
(3.666000) can0 2C1#68347E00008A0200
(3.668000) can0 281#2000FF1F0001
(3.670000) can0 3FD#01000A0000080280
(3.680000) can0 401#122A059A079A209A
(3.686000) can0 257#A2CB746EFA673A01
(3.689000) can0 3FD#0000003C20000180
(3.691000) can0 545#01000000001090EB
(3.693000) can0 263#700ED29F77B71A00
(3.695000) can0 441#4A858900320000F3
(3.702000) can0 1D5#290000000000403F
(3.708000) can0 243#0100684867008E8E
(3.714000) can0 2E5#000019300000DD00
(3.715000) can0 719#3302600000000000
(3.717000) can0 261#B40D804C0040A467
(3.719000) can0 2E5#000019300000DD00
(3.722000) can0 201#0200000000000000
(3.724000) can0 372#0700000000000000
(3.726000) can0 2C1#1304900000000000
(3.728000) can0 39D#FD55E12700
(3.730000) can0 381#0D00000000000000
(3.731000) can0 266#2100143814001C01
(3.733000) can0 263#0200000E1D6D6F21
(3.735000) can0 252#4A15977900FC0F00
(3.738000) can0 3FD#01000A0000080280
(3.741000) can0 227#2A041F0048000081
(3.743000) can0 3AE#FF3F00080000D017
(3.745000) can0 553#00000000000070C8
(3.747000) can0 1D5#290000000000E0DF
(3.750000) can0 264#39000000A000
(3.752000) can0 129#CA29ED5FFD1FFF3F
(3.753000) can0 545#D00561C09AA5B938
(3.755000) can0 439#0000000000185A04
(3.757000) can0 423#00001000000000
(3.759000) can0 428#20001010000010
(3.761000) can0 1A5#00101F380D
(3.763000) can0 229#A50900
(3.765000) can0 242#55558600
(3.767000) can0 61D#040D653D8D360904
(3.778000) can0 281#2000FF1F0001
(3.786000) can0 2E5#000019300000DD00
(3.792000) can0 3FD#0200380000000090
(3.798000) can0 211#B915710F1001
(3.800000) can0 1D8#29B2001500006029
(3.802000) can0 3E2#040000611FCF00
(3.804000) can0 3AE#FE3F00080000F137
(3.806000) can0 1F8#3A000000
(3.808000) can0 3A3#14D00000280DFC01
(3.810000) can0 2E5#000019300000DD00
(3.811000) can0 221#6055551554513118
(3.813000) can0 261#B40D804C004004C7
(3.815000) can0 3E8#0500000000000000
(3.819000) can0 3C8#0100000000000000
(3.821000) can0 1E5#286C04000000209E
(3.823000) can0 3F5#0000C838830C0000
(3.825000) can0 2C1#1304900000000000
(3.827000) can0 2AA#57D0D3
(3.829000) can0 3F9#0800000000000000
(3.831000) can0 3A2#F2A3FFFF03000000
(3.833000) can0 263#0200000E1D6D6F21
(3.835000) can0 252#4A15977900FC0F00
(3.837000) can0 788#01000000FFA1F812
(3.839000) can0 3C3#0000000000A50000
(3.841000) can0 129#7622ED5FFF1FFF3F
(3.843000) can0 243#03000000167A5B00
(3.845000) can0 421#F21A0000002000
(3.847000) can0 1D5#290000000000201F
(3.850000) can0 264#3B000000A000
(3.852000) can0 118#7F66950000C8A4FF
(3.854000) can0 263#0300000000000000
(3.855000) can0 439#0000000000185A04
(3.858000) can0 423#00001000000000
(3.860000) can0 195#000000000A002706
(3.862000) can0 221#6105555501054079
(3.864000) can0 243#04FC3303CE80FFFF
(3.866000) can0 2C3#0000C04B010040CB
(3.868000) can0 25B#D38000056A8620C3
(3.870000) can0 2E5#000019300000DD00
(3.872000) can0 303#0B07000000000000
(3.874000) can0 54F#0000000000000000
(3.876000) can0 719#150009B400000000
(3.879000) can0 3AE#FF3F000800001158
(3.881000) can0 2E5#000019300000DD00
(3.882000) can0 243#00FCCFCC994E0E29
(3.884000) can0 122#00001392D2000000
(3.887000) can0 2E1#026D66021A700000
(3.889000) can0 7F4#01
(3.891000) can0 129#CA27EE5F0120FF3F
(3.893000) can0 263#700ED29F77B71A00
(3.895000) can0 201#0138980000000000
(3.897000) can0 1D5#290000000000C0BF
(3.899000) can0 282#943CF20828C40224
(3.900000) can0 241#3D3C560F8F5500
(3.902000) can0 40A#09100000000090B7
(3.904000) can0 3AE#FF3F000800002067
(3.909000) can0 1D5#290000000000E0DF
(3.915000) can0 287#655F6968F1020D0D
(3.921000) can0 1D5#29000000000000FF
(3.927000) can0 3F5#0000C838820C0000
(3.933000) can0 3F9#0000000000000000
(3.939000) can0 20E#110100
(3.943000) can0 1E5#286C04000000209E
(3.945000) can0 6A1#0000000000
(3.947000) can0 2E8#0101000006007062
(3.949000) can0 2B4#4B05C40E5D01
(3.951000) can0 2E2#0100004E010B0000
(3.953000) can0 383#8B183A00B700820F
(3.955000) can0 545#200662E09AA7190C
(3.957000) can0 1FA#3AC001
(3.959000) can0 428#20001010000010
(3.962000) can0 23E#00003AC002FF4F8A
(3.964000) can0 243#04FC3303CE80FFFF
(3.966000) can0 279#63B8FC01E8056502
(3.969000) can0 372#0B2CFC00005C1500
(3.970000) can0 41D#00
(3.972000) can0 129#602FED5FFE1FFF3F
(3.974000) can0 132#BA9300FE2E3C
(3.976000) can0 757#3200000000000000
(3.978000) can0 3A1#844C0FCA001C62E7
(3.980000) can0 1E5#286C04000000209E
(3.982000) can0 243#00FCCFCC994E0E29
(3.984000) can0 401#2200000000000000
(3.986000) can0 2C1#215B1D8C02000000
(3.988000) can0 113#019701
(3.990000) can0 7FF#0800000100000000
(3.992000) can0 266#1F00143814001C01
(3.995000) can0 441#4A8589003200180B
(3.997000) can0 103#22B38804A2EC2032
(3.999000) can0 282#943CE20830C40224
(4.001000) can0 118#4E65950000C874FF
(4.003000) can0 400#00E0FBBEEFFB00
(4.005000) can0 261#B40D884C0040C48F
(4.007000) can0 1D5#290000000000201F
(4.009000) can0 287#655F6968F1020D0D
(4.011000) can0 7AA#0B4B002849003E00
(4.013000) can0 289#C61008448E003D0F
(4.014000) can0 393#080003D107B00304
(4.021000) can0 43B#007F00FF00000000
(4.025000) can0 243#02FC2310048E0000
(4.031000) can0 22B#FFFFFF07F0FFFFFF
(4.036000) can0 419#00
(4.040000) can0 727#0200
(4.047000) can0 1E5#286C0400000060DE
(4.053000) can0 204#010000FF00000010
(4.059000) can0 448#20001010000010
(4.063000) can0 1D8#29AC40140000A0A2
(4.065000) can0 2B6#000300
(4.067000) can0 396#090F0F3D1501117D
(4.069000) can0 54F#0000000000000000
(4.071000) can0 1E5#286C0400000040BE
(4.073000) can0 376#10433D3D503E8A7D
(4.075000) can0 376#FBFFFBFFFB0FD003
(4.077000) can0 757#463D3C3D3C343B3C
(4.079000) can0 357#0000000000000000
(4.082000) can0 23E#00003AC002FF7FBA
(4.084000) can0 3AE#FE3F0008000081C7
(4.086000) can0 122#00001392D2000000
(4.088000) can0 39D#065EE12700
(4.090000) can0 7FF#09EF000010000000
(4.092000) can0 3C0#0500010000000000
(4.094000) can0 132#C09300FE2E3C
(4.095000) can0 201#0138980000000000
(4.097000) can0 409#00
(4.099000) can0 282#943CE2082CC40224
(4.101000) can0 129#F12CED5FFF1FFF3F
(4.103000) can0 38D#4E3DAA6AAA244902
(4.105000) can0 31A#200100000000D00E
(4.107000) can0 39A#65FFFDFDFD01000A
(4.115000) can0 3A3#16D00000280DFC01
(4.119000) can0 3FD#0000003C20000180
(4.126000) can0 1D5#290000000000807F
(4.128000) can0 22B#FFFFFF07F0FFFFFF
(4.130000) can0 1D8#29AC401400008082
(4.132000) can0 266#1F00143814001C01
(4.134000) can0 261#00101200FF4F40A6
(4.136000) can0 252#4A15967900FC0F00
(4.138000) can0 316#0B00194701000000
(4.140000) can0 2E5#000019300000DD00
(4.141000) can0 2C2#20408069010080CB
(4.143000) can0 243#03000000167A5B00
(4.145000) can0 553#000000000000B008
(4.148000) can0 2E8#0101000006009082
(4.151000) can0 420#2801404B00000005
(4.153000) can0 383#8B183A00B300820F
(4.155000) can0 448#20001010000010
(4.156000) can0 439#0000000000185A04
(4.158000) can0 428#20001010000010
(4.160000) can0 195#000000000A002706
(4.162000) can0 1E5#286C0400000060DE
(4.164000) can0 128#0000EC0A02
(4.166000) can0 261#322AA701805C6238
(4.168000) can0 396#090F0F3D1501117D
(4.170000) can0 3FD#01000A0000080280
(4.173000) can0 41D#00
(4.176000) can0 379#00000A48333F2100
(4.178000) can0 5D7#506E0B0002
(4.180000) can0 757#2C3F3E0000000000
(4.182000) can0 3E5#0000000000000000
(4.184000) can0 757#3200000000000000
(4.186000) can0 122#01000000003F0000
(4.188000) can0 211#BD19710F1001
(4.190000) can0 7F4#01
(4.192000) can0 1D8#29AC401400004042
(4.194000) can0 3C0#0600000000000000
(4.196000) can0 359#5500000000000000
(4.198000) can0 409#00
(4.204000) can0 1D8#29AA401400006060
(4.206000) can0 2C1#0219060000D00200
(4.208000) can0 39D#F951E12700
(4.210000) can0 129#5427ED5F0020FF3F
(4.212000) can0 2F1#00DAEA8043801800
(4.215000) can0 393#080003D107B00304
(4.219000) can0 3FD#0200380000000090
(4.221000) can0 3C8#0500000000000000
(4.223000) can0 4E2#04B4200B19900100
(4.224000) can0 45A#24B6B437E04B4868
(4.226000) can0 1D5#290000000000E0DF
(4.228000) can0 344#0000000000002067
(4.230000) can0 261#00101200FF4FA006
(4.232000) can0 118#066C950000C82400
(4.234000) can0 132#C69306FE663C
(4.236000) can0 292#4A171DB5D3010000
(4.239000) can0 247#D60EFF0B00A70100
(4.241000) can0 23E#00003AC002FFBFFA
(4.243000) can0 1F9#0000000000000000
(4.246000) can0 553#000000000000C018
(4.248000) can0 2E8#010100000600A092
(4.250000) can0 2B4#4C05CA0E5601
(4.252000) can0 118#B76E950000C8D4FF
(4.254000) can0 132#AF930BFE583C
(4.255000) can0 6E8#0100000000000000
(4.257000) can0 423#00001000000000
(4.259000) can0 2E5#000019300000DD00
(4.261000) can0 1E5#286C04000000209E
(4.263000) can0 128#0000EC0A02
(4.265000) can0 261#322AA701805CC298
(4.269000) can0 1D5#290000000000605F
(4.275000) can0 2E1#026D66021A710000
(4.282000) can0 1D5#290000000000807F
(4.292000) can0 283#232300004100
(4.298000) can0 263#700ED29F77B71A00
(4.302000) can0 2E5#000019300000DD00
(4.305000) can0 123#01000000003F0000
(4.307000) can0 39A#65FFFDFDFD01000A
(4.309000) can0 3A3#18D00000280DFC01
(4.311000) can0 129#3F21ED5FFF1FFF3F
(4.313000) can0 289#C610088490003D0F
(4.315000) can0 393#0380610000000000
(4.317000) can0 2E1#6580080079D2306A
(4.319000) can0 3C8#0600000000000000
(4.323000) can0 23E#00003AC002FFDF1A
(4.329000) can0 39B#0318FF80B088C030
(4.333000) can0 129#6123ED5FFF1FFF3F
(4.338000) can0 422#700010000000
(4.342000) can0 228#0106184C006001F6
(4.344000) can0 243#03000000167A5B00
(4.346000) can0 201#0300000000000000
(4.347000) can0 2E8#010100000600B0A2
(4.354000) can0 119#00000000
(4.356000) can0 439#0000000000185A04
(4.357000) can0 423#00001000000000
(4.359000) can0 186#FC0D0002001F2225
(4.361000) can0 266#1E00143814001C01
(4.364000) can0 21D#0400B50000000000
(4.366000) can0 2C1#68347E00008A0200
(4.368000) can0 372#0161140340003C01
(4.370000) can0 41D#00
(4.372000) can0 129#3D27ED5FFF1FFF3F
(4.375000) can0 263#04000000B0200000
(4.377000) can0 7D5#2C3E3E0000000000
(4.379000) can0 381#0400000000000000
(4.381000) can0 118#156B950000C83400
(4.383000) can0 243#00FCCFCC994E0E29
(4.385000) can0 122#01000000003F0000
(4.386000) can0 1D5#290000000000E0DF
(4.388000) can0 113#019701
(4.390000) can0 1E5#286C0400000040BE
(4.393000) can0 272#080005E107B00304
(4.395000) can0 201#0138980000000000
(4.397000) can0 3AE#FF3F000800002067
(4.399000) can0 282#943CF20830C40224
(4.401000) can0 118#F76D950000C81400
(4.403000) can0 400#00E0FBBEEFFB00
(4.405000) can0 261#052232CA9A425045
(4.407000) can0 39A#182FE38A0717E37E
(4.409000) can0 3A3#16D00000280DFC01
(4.411000) can0 118#776E950000C894FF
(4.413000) can0 289#C610094486003D0F
(4.415000) can0 393#080003D107B00304
(4.417000) can0 285#02A800000000B200
(4.419000) can0 3C8#0000000000000000
(4.421000) can0 201#0200000000000000
(4.423000) can0 243#02FC1B10048E0000
(4.425000) can0 3A2#02A4FFFF03000000
(4.427000) can0 4E3#D5028201001C0000
(4.429000) can0 2E5#000019300000DD00
(4.432000) can0 129#272DED5F0120FF3F
(4.434000) can0 132#BC9309FE3C3C
(4.435000) can0 252#4A15967900FC0F00
(4.437000) can0 392#000B000000000000
(4.439000) can0 2E5#000019300000DD00
(4.441000) can0 266#1E00143814001C01
(4.443000) can0 288#0106184C00602176
(4.445000) can0 553#000000000000E038
(4.447000) can0 3AE#FF3F000800004188
(4.450000) can0 2C4#1783001E04002000
(4.452000) can0 129#092FED5F0120FF3F
(4.453000) can0 737#02000000E0F080
(4.455000) can0 448#20001010000010
(4.457000) can0 423#00001000000000
(4.460000) can0 428#20001010000010
(4.462000) can0 221#6105555501050039
(4.464000) can0 126#2B982F6C85
(4.466000) can0 268#68149501B6
(4.467000) can0 285#034A7D5277000000
(4.469000) can0 401#082AFE99039AF499
(4.471000) can0 201#003F3F000080FF00
(4.473000) can0 379#03C00E4833B92200
(4.475000) can0 31E#0000000000000000
(4.478000) can0 1D5#29000000000000FF
(4.480000) can0 545#010000000010106B
(4.482000) can0 2D3#5100B40316005B79
(4.484000) can0 372#0310075000010000
(4.486000) can0 283#232300004100
(4.489000) can0 39D#0058E12700
(4.491000) can0 1E5#286C04000000007E
(4.493000) can0 272#0380610000000000
(4.494000) can0 441#4A858900320000F3
(4.496000) can0 1D5#290000000000403F
(4.498000) can0 282#943CF2082CC40224
(4.500000) can0 266#1E00143814001C01
(4.502000) can0 40A#091000000000C0E7
(4.504000) can0 320#0100000800000000
(4.508000) can0 1F8#3A000000
(4.514000) can0 2E5#000019300000DD00
(4.520000) can0 3E8#0500000000000000
(4.525000) can0 20C#51F8340A1E01300E
(4.536000) can0 2AA#574043
(4.545000) can0 407#1207000000000000
(4.550000) can0 2C1#0400000000000000
(4.557000) can0 118#166C950000C83400
(4.559000) can0 428#20001010000010
(4.561000) can0 1A5#00101F784D
(4.563000) can0 21D#0400B50000000000
(4.565000) can0 243#04FC3303CE80FFFF
(4.571000) can0 3B3#8C8004300100A800
(4.574000) can0 2E3#03000032010B00
(4.576000) can0 757#3200000000000000
(4.577000) can0 3A1#844C0FCA001C22A7
(4.579000) can0 2E5#000019300000DD00
(4.581000) can0 129#AB2CEE5F0020FF3F
(4.583000) can0 243#00FCCFCC994E0E29
(4.585000) can0 122#01000000003F0000
(4.592000) can0 37A#D00D000000000000
(4.598000) can0 359#DA3FDF118F51010C
(4.604000) can0 2E5#000019300000DD00
(4.606000) can0 2E1#6580080079D2306A
(4.607000) can0 39A#182FE38A0717E37E
(4.609000) can0 3A3#18D00000280DFC01
(4.611000) can0 118#7B62950000C8A4FF
(4.614000) can0 289#C61008C494003D0F
(4.616000) can0 3FD#0000003C20000180
(4.618000) can0 04F#6F769DF344A7170C
(4.620000) can0 1D8#29A240130000A097
(4.622000) can0 257#A1CA746EFA673A01
(4.624000) can0 243#02FC1B10048E0000
(4.625000) can0 2C1#1304900000000000
(4.628000) can0 4E3#00AC010000002800
(4.630000) can0 1E5#286C0400000040BE
(4.632000) can0 7A8#0240BC07000F0000
(4.634000) can0 2D1#FF01
(4.636000) can0 292#4A171DB5D3010000
(4.638000) can0 2E1#398D2AFF0F000000
(4.644000) can0 228#0106184C00603126
(4.647000) can0 234#31F00230C10420D3
(4.649000) can0 204#010000FF00000010
(4.651000) can0 1E5#286C04000000007E
(4.653000) can0 383#8B183A00B300820F
(4.655000) can0 448#20001010000010
(4.656000) can0 1D5#290000000000403F
(4.658000) can0 428#20001010000010
(4.661000) can0 118#9167950000C8B400
(4.663000) can0 1D6#00080000CA099808
(4.665000) can0 261#834D0A0000405565
(4.667000) can0 3FD#01000A0000080280
(4.670000) can0 2C1#68347E00008A0200
(4.675000) can0 1E5#286C0400000040BE
(4.682000) can0 757#3200000000000000
(4.687000) can0 3AE#014000080000C10B
(4.689000) can0 3A2#0110200000000000
(4.691000) can0 118#E46A950000C80400
(4.697000) can0 263#700ED29F77B71A00
(4.699000) can0 282#943CF2082CC40224
(4.701000) can0 241#3D3C560F8F5500
(4.703000) can0 7AA#073CFE37FE0CFD48
(4.710000) can0 3D3#000000
(4.714000) can0 249#3F080000
(4.721000) can0 3FD#0200380000000090
(4.723000) can0 3E8#0000000000000000
(4.725000) can0 261#3100FDFFB1499AB7
(4.727000) can0 22B#FFFFFF07F0FFFFFF
(4.730000) can0 3F9#0800000000000000
(4.732000) can0 7A8#C4CCB18300008200
(4.734000) can0 2B3#6900F04B6400160B
(4.736000) can0 292#4A171DB5D3010000
(4.738000) can0 381#0E00000000E0FF00
(4.740000) can0 228#0106184C00604136
(4.742000) can0 257#97C0746EFA673A01
(4.744000) can0 243#03000000167A5B00
(4.746000) can0 6A1#0000000000
(4.748000) can0 2C4#018000D200000000
(4.750000) can0 420#2801404B00000000
(4.752000) can0 118#6960950000C894FF
(4.754000) can0 132#D59322FE5A3C
(4.756000) can0 448#20001010000010
(4.758000) can0 261#834D0A000040B5C5
(4.760000) can0 1A5#00101F08DD
(4.762000) can0 221#6105555501056099
(4.764000) can0 21D#0400B50000000000
(4.766000) can0 61D#040D653D8D360904
(4.768000) can0 319#26000000FFFFFFFF
(4.770000) can0 3AA#0100000000000000
(4.772000) can0 1D8#299EC012000080F2
(4.774000) can0 360#0600000000000000
(4.776000) can0 45A#FD07F8FF0300006F
(4.788000) can0 3FD#0000003C20000180
(4.796000) can0 78A#0100020060066206
(4.802000) can0 2E1#6580080079D2306A
(4.808000) can0 243#0100684867008E8E
(4.811000) can0 1E5#286C04000000007E
(4.813000) can0 289#C61008C4A5003D0F
(4.815000) can0 393#080003D107B00304
(4.817000) can0 1D5#290000000000403F
(4.819000) can0 3C8#0400000000000000
(4.821000) can0 201#0200000000000000
(4.823000) can0 3A2#F2A3FFFF03000000
(4.824000) can0 401#1A2A079AFA99FB99
(4.827000) can0 1D5#290000000000605F
(4.829000) can0 2E5#000019300000DD00
(4.831000) can0 129#C325EE5FFF1FFF3F
(4.833000) can0 343#0092685E97000000
(4.835000) can0 212#5904000081FF7731
(4.838000) can0 1D5#290000000000807F
(4.840000) can0 3FD#01000A0000080280
(4.843000) can0 227#2B04200048000081
(4.844000) can0 372#0900000000F83F00
(4.846000) can0 2C1#0400000000000000
(4.848000) can0 2E8#01010000060000F2
(4.850000) can0 2B4#4905CE0E4B01
(4.852000) can0 266#1C00143813001D01
(4.854000) can0 261#834D0A0000401525
(4.857000) can0 448#20001010000010
(4.859000) can0 428#20001010000010
(4.861000) can0 1D8#299A40120000A08E
(4.863000) can0 229#430400
(4.865000) can0 279#60B1FC01EC056502
(4.867000) can0 373#055E4EB06CE31814
(4.869000) can0 397#03C0FFB21C140000
(4.871000) can0 201#003F3E000080FF00
(4.873000) can0 379#07C0EF09DDC01406
(4.875000) can0 129#8C29EE5FFF1FFF3F
(4.877000) can0 1D5#29000000000000FF
(4.879000) can0 102#22B3880494FAA009
(4.881000) can0 1E5#286C0400000060DE
(4.883000) can0 243#00FCCFCC994E0E29
(4.885000) can0 122#00001392D2000000
(4.888000) can0 37A#CBE0010000000000
(4.890000) can0 3FD#0200380000000090
(4.892000) can0 2E5#000019300000DD00
(4.896000) can0 2E1#6580080079D2306A
(4.902000) can0 409#00
(4.908000) can0 243#0100684867008E8E
(4.912000) can0 3A3#14D00000280DFC01
(4.914000) can0 132#E59329FE7A3C
(4.916000) can0 3E8#0200000000000000
(4.918000) can0 261#3100FEFFB4495A7B
(4.920000) can0 3C8#0500000000000000
(4.921000) can0 129#3F2EEF5F0120FF3F
(4.924000) can0 243#02FC2310048E0000
(4.926000) can0 2E1#398D2AFF0F000000
(4.931000) can0 4E3#03FD000000002800
(4.935000) can0 419#00
(4.939000) can0 1D5#290000000000C0BF
(4.944000) can0 1E5#286C04000000209E
(4.948000) can0 6A1#0000000000
(4.950000) can0 420#2801404B00000001
(4.952000) can0 266#1C00143813001C01
(4.954000) can0 3CC#0321831B000E0900
(4.956000) can0 1D5#29000000000000FF
(4.958000) can0 2E1#FB1FB21999AA0900
(4.960000) can0 118#7E65950000C8A4FF
(4.961000) can0 266#1C00143813001C01
(4.963000) can0 21D#0400B50000000000
(4.965000) can0 25D#3741012A04F08803
(4.968000) can0 2B6#000300
(4.970000) can0 396#090F0F3D1601117D
(4.972000) can0 201#003F3E000080FF00
(4.975000) can0 677#0200000000000000
(4.977000) can0 757#2C3F3E0000000000
(4.978000) can0 7D5#3200000000000000
(4.980000) can0 139#00
(4.982000) can0 257#9BCC746EFA5F3A01
(4.984000) can0 401#2200000000000000
(4.986000) can0 2C1#215B1D8C02000000
(4.988000) can0 113#019701
(4.990000) can0 7FF#09EF000010000000
(4.992000) can0 129#C825F15F0520FF3F
(4.993000) can0 359#5E69414BFC9DF5F5
(4.995000) can0 201#0138980000000000
(4.998000) can0 103#22B38804A2EC2032
(5.000000) can0 1D8#299A00120000600E
(5.002000) can0 257#8CBD746EFA5F3A01
(5.004000) can0 3AE#05400008000080CE
(5.006000) can0 1F8#3A000000
(5.008000) can0 545#020001000000105D
(5.010000) can0 1D8#299A00120000802E
(5.012000) can0 249#AF0E0000
(5.013000) can0 261#3100FCFFB049BAD5
(5.015000) can0 3E8#0300000000000000
(5.017000) can0 253#0064A6C66490B505
(5.019000) can0 3A2#02A4FFFF03000000
(5.021000) can0 129#9428F25F0720FF3F
(5.024000) can0 243#02FC1B10048E0000
(5.026000) can0 2C1#1304900000000000
(5.032000) can0 3F9#0200000000000000
(5.041000) can0 2B3#CE2B5E01C0121900
(5.047000) can0 2C2#5563A80680C11AAA
(5.053000) can0 204#010000FF00000010
(5.055000) can0 448#20001010000010
(5.057000) can0 1D5#290000000000403F
(5.059000) can0 428#20001010000010
(5.060000) can0 195#000000000A002706
(5.062000) can0 221#610555550105C0F9
(5.065000) can0 243#04FC3303CE80FFFF
(5.067000) can0 473#0000030000000000
(5.068000) can0 395#091313401A040B7D
(5.070000) can0 2E5#000019300000DD00
(5.073000) can0 266#1B00143813001D01
(5.076000) can0 376#FBFFFBFFFB0FD003
(5.078000) can0 356#0000000000000000
(5.084000) can0 757#463D3C3D3C343B3C
(5.086000) can0 283#1E2300004100
(5.088000) can0 37A#D10D000000000000
(5.090000) can0 2E5#000019300000DD00
(5.092000) can0 266#1B00143813001D01
(5.093000) can0 261#00101000FF4F0064
(5.095000) can0 201#0138980000000000
(5.097000) can0 103#22B38804A4EC2032
(5.099000) can0 2E5#000019300000DD00
(5.101000) can0 129#E520F35F0220FF3F
(5.103000) can0 38D#4E3DAA6AAA244902
(5.110000) can0 31A#200100000000205E
(5.115000) can0 249#9B000000
(5.119000) can0 1D5#29000000000000FF
(5.124000) can0 3FD#0000003C20000180
(5.126000) can0 266#1C00143813001D01
(5.128000) can0 39D#0058E12700
(5.129000) can0 1D8#299A0012000000AE
(5.131000) can0 266#1B00143813001D01
(5.133000) can0 343#0092681E97000000
(5.135000) can0 212#5904000081FF7731
(5.137000) can0 524#86730302201001
(5.139000) can0 2E5#000019300000DD00
(5.141000) can0 129#5F24F35F0020FF3F
(5.143000) can0 1F9#0000000000000000
(5.146000) can0 553#00000000000050A8
(5.149000) can0 2E8#0101000006003022
(5.151000) can0 2E2#07D44F3F01000000
(5.153000) can0 3A2#602573C01C004369
(5.155000) can0 448#20001010000010
(5.157000) can0 439#0000000000185A04
(5.159000) can0 2E5#000019300000DD00
(5.161000) can0 1A5#00101F28FD
(5.162000) can0 229#F90700
(5.164000) can0 243#04FC3303CE80FFFF
(5.166000) can0 2C3#555BA90680C112AA
(5.168000) can0 39D#0159E12700
(5.170000) can0 1D8#299800120000802C
(5.172000) can0 3FD#01000A0000080280
(5.176000) can0 719#0100040000000000
(5.179000) can0 545#01000000001060BB
(5.181000) can0 3B5#0000000000000000
(5.183000) can0 2E1#6580080079D2306A
(5.185000) can0 36B#0000000000000000
(5.187000) can0 2C1#215B1D8C02000000
(5.189000) can0 318#1A0605041023279E
(5.191000) can0 7D5#439FAC937D3F0000
(5.193000) can0 1E5#286C0400000040BE
(5.195000) can0 7D5#485564000080955F
(5.196000) can0 1D5#29000000000000FF
(5.198000) can0 2E5#000019300000DD00
(5.200000) can0 118#E76D950000C80400
(5.202000) can0 3E2#040000711FCF00
(5.205000) can0 287#655F6968F3020C0E
(5.207000) can0 1D5#290000000000201F
(5.209000) can0 3A3#16D00000280DFC01
(5.211000) can0 118#886E950000C8A400
(5.213000) can0 263#6136D29F77B79A00
(5.215000) can0 393#080003D107B00304
(5.217000) can0 3A2#F2A3FFFF03000000
(5.219000) can0 2E5#000019300000DD00
(5.221000) can0 201#0200000000000000
(5.223000) can0 3FD#0200380000000090
(5.225000) can0 4E2#00D100FE0F002800
(5.227000) can0 22B#FFFFFF07F0FFFFFF
(5.229000) can0 344#0000000000004087
(5.231000) can0 2E1#026D66021A710000
(5.233000) can0 380#0000000000000000
(5.236000) can0 212#5904000081FF7731
(5.238000) can0 6A2#0000000000
(5.244000) can0 1D8#299800120000600C
(5.246000) can0 234#32F00231C504E099
(5.248000) can0 718#04000000000000
(5.250000) can0 420#2801404B00008002
(5.252000) can0 118#FC62950000C82400
(5.254000) can0 132#149439FECD3C
(5.256000) can0 6E8#147C00F412200C00
(5.257000) can0 423#00001000000000
(5.259000) can0 186#13060002003D2225
(5.261000) can0 108#B1C5046202342225
(5.265000) can0 257#89BA746EFA5F3A01
(5.271000) can0 61D#040D653D8D360904
(5.278000) can0 545#01000000001090EB
(5.284000) can0 1D8#299800120000E08C
(5.292000) can0 677#0000000000000000
(5.296000) can0 7F1#0200000F000000
(5.304000) can0 3E9#F0882221000040E7
(5.310000) can0 31A#200100000000306E
(5.316000) can0 249#D3040000
(5.324000) can0 261#322AA701805CE2B8
(5.326000) can0 2C1#1304900000000000
(5.328000) can0 3A1#C1FFFF493D001015
(5.330000) can0 1D8#299800120000802C
(5.332000) can0 266#1B00133813001D01
(5.336000) can0 263#0200000E1D6D6F21
(5.342000) can0 292#4A171DB5D3010000
(5.347000) can0 243#03000000167A5B00
(5.353000) can0 264#39000000A000
(5.355000) can0 448#20001010000010
(5.357000) can0 439#0000000000185A04
(5.359000) can0 2E5#000019300000DD00
(5.361000) can0 1D8#2996C0110000E049
(5.363000) can0 108#81B6045A021B2225
(5.365000) can0 243#04FC3303CE80FFFF
(5.366000) can0 2C1#68347E00008A0200
(5.368000) can0 281#2100FF1F0001
(5.370000) can0 1D8#2996C01100000069
(5.372000) can0 286#FFFFFFFF31
(5.375000) can0 263#04000000B0200000
(5.377000) can0 302#0D16389367000000
(5.380000) can0 207#002D321E22000000
(5.382000) can0 3A2#0110200000000000
(5.384000) can0 132#10943AFECA3C
(5.385000) can0 283#1E2300004100
(5.387000) can0 211#B915710F1001
(5.389000) can0 318#1A06060410232BA3
(5.391000) can0 118#4A60950000C87400
(5.393000) can0 263#700ED29F77B71A00
(5.395000) can0 201#0138980000000000
(5.397000) can0 3AE#064000080000509F
(5.399000) can0 2E5#000019300000DD00
(5.400000) can0 1E5#286C0400000060DE
(5.403000) can0 400#00E0FBBEEFFB00
(5.405000) can0 2E1#398D2AFF0F000000
(5.407000) can0 39A#182FE38A0713E77E
(5.410000) can0 2E5#000019300000DD00
(5.412000) can0 221#6055551554513118
(5.413000) can0 289#C61008448C003D0F
(5.415000) can0 393#080003D107B00304
(5.419000) can0 2E5#000019300000DD00
(5.421000) can0 118#2D63950000C85400
(5.422000) can0 2E1#026D66021A710000
(5.424000) can0 2EC#57F035
(5.426000) can0 3E3#00000000
(5.428000) can0 3A1#C1FFFF6F3D00305B
(5.430000) can0 261#834D0A0000405565
(5.432000) can0 266#1A00133813001D01
(5.434000) can0 20E#100000
(5.436000) can0 312#D8E466441F691314
(5.439000) can0 2E1#FB1FAF0999A00900
(5.441000) can0 227#28041F0048000081
(5.443000) can0 1F9#0000000000000000
(5.445000) can0 421#F21A0000002000
(5.447000) can0 1D5#290000000000201F
(5.449000) can0 737#03000000E0F080
(5.451000) can0 2E5#000019300000DD00
(5.453000) can0 266#1A00133813001D01
(5.455000) can0 132#0F943DFEC73C
(5.457000) can0 439#0000000000185A04
(5.459000) can0 2E5#000019300000DD00
(5.461000) can0 129#CD24F45F0020FF3F
(5.463000) can0 1D6#00080000CA099808
(5.465000) can0 279#66B7FC01EC056502
(5.468000) can0 31E#0000000000000000
(5.470000) can0 2E5#000019300000DD00
(5.472000) can0 129#B325F45FFF1FFF3F
(5.474000) can0 719#140000000000A200
(5.476000) can0 78A#0100020060066406
(5.478000) can0 7D7#322C000000000000
(5.480000) can0 1D8#2992401100006045
(5.482000) can0 3A2#0110200000000000
(5.483000) can0 132#149449FEE23C
(5.485000) can0 283#1E2300004100
(5.488000) can0 211#BA16710F1001
(5.490000) can0 7FF#0500000120008000
(5.492000) can0 3C0#0800000000000000
(5.494000) can0 132#299456FEF43C
(5.499000) can0 234#31E10380430034A7
(5.505000) can0 257#9EC6746E02603A01
(5.509000) can0 39A#65FFFDFDFD01000A
(5.513000) can0 118#A56C950000C8C4FF
(5.516000) can0 253#0064A6C66490B505
(5.518000) can0 726#0C0000
(5.520000) can0 3C8#0400000000000000
(5.521000) can0 129#AE2AF15FFC1FFF3F
(5.523000) can0 2EC#570045
(5.525000) can0 261#834D0A000040B5C5
(5.528000) can0 4E3#0200000000002800
(5.532000) can0 1E5#286C04000000007E
(5.538000) can0 2D1#FF01
(5.542000) can0 2E5#000019300000DD00
(5.546000) can0 288#0106184C0060D126
(5.551000) can0 3A2#6005F3BD1C804269
(5.556000) can0 383#8B183A00B300820F
(5.558000) can0 2E5#000019300000DD00
(5.560000) can0 118#4A61950000C874FF
(5.562000) can0 1E5#286C0400000060DE
(5.564000) can0 21D#0400B50000000000
(5.566000) can0 473#0000030000000000
(5.568000) can0 5F3#8EE720
(5.570000) can0 281#2100FF1F0001
(5.572000) can0 545#010000000010207B
(5.574000) can0 677#0200000000000000
(5.576000) can0 45A#FD07F8FF0300006F
(5.578000) can0 78A#01000300AE048902
(5.580000) can0 225#5555FA00
(5.582000) can0 266#1A00133813001D01
(5.589000) can0 132#209454FEE43C
(5.593000) can0 261#3100E4FFAC49FAF9
(5.597000) can0 234#31E10380430054C7
(5.604000) can0 2E5#000019300000DD00
(5.606000) can0 1D5#290000000000201F
(5.608000) can0 2E5#000019300000DD00
(5.610000) can0 118#6F66950000C894FF
(5.612000) can0 22B#FFFFFF03F0FFFFFF
(5.615000) can0 2E1#026D66021A710000
(5.617000) can0 399#000000
(5.618000) can0 2E5#000019300000DD00
(5.620000) can0 118#A067950000C8C4FF
(5.622000) can0 3FD#0000003C20000180
(5.624000) can0 334#3F3F1408FF019263
(5.627000) can0 3E3#00000000
(5.629000) can0 2E5#000019300000DD00
(5.631000) can0 118#5168950000C874FF
(5.633000) can0 263#0200000E1D6D6F21
(5.635000) can0 545#D00549E09AA749D2
(5.637000) can0 3AE#054000080000F13F
(5.639000) can0 6A2#0000000000
(5.641000) can0 20A#F61509821801
(5.643000) can0 1F9#0000000000000000
(5.645000) can0 6A1#0000000000
(5.647000) can0 301#1100000000000000
(5.654000) can0 2B4#4A05D10E5101
(5.656000) can0 1D5#290000000000C0BF
(5.658000) can0 2E5#000019300000DD00
(5.660000) can0 195#000000000A002706
(5.662000) can0 229#490C00
(5.664000) can0 257#A6CE746E02603A01
(5.666000) can0 2B6#000300
(5.668000) can0 387#3A43303338341540
(5.670000) can0 41D#00
(5.675000) can0 3FD#01000A0000080280
(5.686000) can0 428#20001010000010
(5.688000) can0 211#BC18710F1001
(5.690000) can0 3FD#0000003C20000180
(5.692000) can0 340#0200000000000000
(5.694000) can0 2E1#398D2AFF0F000000
(5.696000) can0 234#31E10380430074E7
(5.698000) can0 2E5#000019300000DD00
(5.700000) can0 282#943CF20830C40224
(5.704000) can0 266#1900133813001D01
(5.710000) can0 31A#200100000000508E
(5.716000) can0 249#3A0C0000
(5.724000) can0 261#834D0A0000407585
(5.726000) can0 2C1#1304900000000000
(5.729000) can0 39D#FF57E12700
(5.731000) can0 22A#0000B917
(5.732000) can0 419#00
(5.734000) can0 252#4B15967900FC0F00
(5.736000) can0 422#700010000000
(5.738000) can0 6A2#0000000000
(5.740000) can0 3FD#01000A0000080280
(5.743000) can0 228#0106184C0060E1D6
(5.745000) can0 3A2#602573BF1C004369
(5.747000) can0 381#EFFFFFCD0300A609
(5.750000) can0 224#0408004019011008
(5.752000) can0 118#FE64950000C82400
(5.754000) can0 132#2E9458FED53C
(5.756000) can0 1D5#29000000000000FF
(5.758000) can0 2E5#000019300000DD00
(5.760000) can0 1A5#00101F582D
(5.762000) can0 108#0D5A041A02432225
(5.764000) can0 132#309464FEED3C
(5.766000) can0 279#6DBAFC01F0056502
(5.768000) can0 2C3#555BA90680C112AA
(5.770000) can0 397#F3DFFFB21C140000
(5.772000) can0 1D8#298A00100000009C
(5.774000) can0 266#1800133813001D01
(5.776000) can0 132#379461FEDC3C
(5.777000) can0 757#2C3F3E0000000000
(5.780000) can0 3A2#0110200000000000
(5.783000) can0 261#3100C1FFB149BA9B
(5.790000) can0 1D5#290000000000605F
(5.794000) can0 3FD#0200380000000090
(5.800000) can0 118#3168950000C854FF
(5.804000) can0 266#1900133813001D01
(5.806000) can0 2E1#026D66021A720000
(5.808000) can0 39D#0159E12700
(5.809000) can0 3A3#16D00000280DFC01
(5.811000) can0 221#605555155451B198
(5.813000) can0 289#C610084486003D0F
(5.815000) can0 393#080003D107B00304
(5.817000) can0 381#1100000000000000
(5.819000) can0 2E5#000019300000DD00
(5.822000) can0 201#0200000000000000
(5.824000) can0 132#2B945EFEDB3C
(5.826000) can0 2C1#1304900000000000
(5.828000) can0 3F9#0100000000000000
(5.830000) can0 22A#0000C917
(5.832000) can0 545#200662209BA7A9DD
(5.834000) can0 212#5904000081FF7731
(5.836000) can0 343#00925C0E98000000
(5.838000) can0 6A2#0000000000
(5.840000) can0 228#0106184C0060F1E6
(5.841000) can0 129#2C2AF25F0020FF3F
(5.844000) can0 243#03000000167A5B00
(5.845000) can0 553#000000000000C018
(5.847000) can0 6A1#0000000000
(5.850000) can0 224#0408004019011008
(5.852000) can0 266#1900133813001D01
(5.855000) can0 132#2A945CFECC3C
(5.856000) can0 439#0000000000185A04
(5.858000) can0 2E5#000019300000DD00
(5.860000) can0 1A5#00101F6035
(5.862000) can0 221#610555550105C0F9
(5.864000) can0 132#399456FEC73C
(5.866000) can0 286#FFFFFFFF31
(5.868000) can0 3D8#5B005800
(5.870000) can0 2E5#000019300000DD00
(5.872000) can0 266#1900133813001D01
(5.874000) can0 263#04000000B0200000
(5.876000) can0 682#0000004004112055
(5.878000) can0 75D#523BAE0000008049
(5.881000) can0 2E5#000019300000DD00
(5.883000) can0 132#429459FED53C
(5.885000) can0 122#00001392D2000000
(5.887000) can0 211#BE1A710F1001
(5.889000) can0 2E5#000019300000DD00
(5.891000) can0 118#9B62950000C8C4FF
(5.893000) can0 263#700ED29F77B71A00
(5.895000) can0 234#31E103804300B427
(5.897000) can0 103#22B38804A2EE2032
(5.899000) can0 2E5#000019300000DD00
(5.901000) can0 241#3D3C560F8F5500
(5.903000) can0 40A#0910000000003057
(5.905000) can0 401#1E2A1C9A169A249A
(5.906000) can0 1D5#290000000000E0DF
(5.912000) can0 2E5#000019300000DD00
(5.918000) can0 263#6136D29F77B79A00
(5.924000) can0 118#9E65950000C8C4FF
(5.928000) can0 261#B40D804C00404407
(5.929000) can0 1D8#298E801000000020
(5.931000) can0 129#A123F45F0420FF3F
(5.933000) can0 343#009268DE97000000
(5.935000) can0 212#5904000081FF7731
(5.937000) can0 339#02F1FE008007800F
(5.939000) can0 2E5#000019300000DD00
(5.941000) can0 129#8A24F45F0520FF3F
(5.943000) can0 288#0106184C00601166
(5.945000) can0 401#2000000000000000
(5.947000) can0 1D5#290000000000605F
(5.953000) can0 264#39000000A000
(5.959000) can0 448#20001010000010
(5.966000) can0 266#1900133813001D01
(5.968000) can0 381#1500523E3E000001
(5.970000) can0 2E5#000019300000DD00
(5.972000) can0 266#1A00133813001D01
(5.974000) can0 263#04000000B0200000
(5.976000) can0 757#2C3F3E0000000000
(5.978000) can0 7D5#3200000000000000
(5.980000) can0 1D8#2990C0100000A002
(5.984000) can0 243#00FCCFCC994E0E29
(5.986000) can0 283#202300004100
(5.987000) can0 211#BF1B710F1001
(5.989000) can0 2E5#000019300000DD00
(5.993000) can0 118#B56C950000C8D4FF
(5.995000) can0 234#31E103804300D447
(5.997000) can0 1D5#29000000000000FF
(5.999000) can0 545#020004000000F040
(6.000000) can0 23E#00003AC002FF7FBA
(6.002000) can0 3E2#040000610FCF00
(6.004000) can0 261#834D0A00004095A5
(6.006000) can0 1F8#3A000000
(6.008000) can0 2E5#000019300000DD00
(6.010000) can0 1D8#29900011000000A3
(6.012000) can0 221#605555155451F1D8
(6.013000) can0 289#C61008C49C003D0F
(6.020000) can0 3E8#0600000000000000
(6.022000) can0 261#B40D804C0040A467
(6.025000) can0 132#299441FEB93C
(6.027000) can0 4E3#00AC010000002800
(6.029000) can0 2E5#000019300000DD00
(6.031000) can0 118#C960950000C8F4FF
(6.035000) can0 343#009268AE97000000
(6.041000) can0 788#0240C10700030000
(6.045000) can0 227#2E04200048000081
(6.051000) can0 1D5#290000000000A09F
(6.055000) can0 739#2F07250100
(6.059000) can0 439#0000000000185A04
(6.060000) can0 1D8#299200110000A045
(6.067000) can0 128#0000EC0A02
(6.069000) can0 428#20001010000010
(6.071000) can0 376#10433D3D503E8A7D
(6.074000) can0 381#1800000000000000
(6.076000) can0 719#150009B400000000
(6.078000) can0 757#3200000000000000
(6.080000) can0 225#5555FA00
(6.082000) can0 129#CE22F35F0020FF3F
(6.084000) can0 243#00FCCFCC994E0E29
(6.086000) can0 261#322AA701805CE2B8
(6.088000) can0 113#019701
(6.090000) can0 458#00002000000000
(6.092000) can0 266#1A00133813001E01
(6.093000) can0 359#8C3F000002000002
(6.095000) can0 234#31E103804300F467
(6.097000) can0 409#00
(6.099000) can0 2E5#000019300000DD00
(6.103000) can0 241#3D3C560F8F5500
(6.110000) can0 31A#20010000000070AE
(6.116000) can0 266#1A00133813001E01
(6.121000) can0 3FD#0000003C20000180
(6.123000) can0 261#B40D884C004004CF
(6.124000) can0 45A#24B6B437E04B4868
(6.126000) can0 1D5#290000000000A09F
(6.128000) can0 3A1#C1FFFF5D3D001029
(6.130000) can0 1E5#286C04000000007E
(6.132000) can0 419#00
(6.134000) can0 261#052232CA9A421005
(6.136000) can0 252#4C15967900FC0F00
(6.138000) can0 316#1100000000000000
(6.140000) can0 228#0106184C00602116
(6.142000) can0 2E1#658008007AD2306A
(6.145000) can0 132#289439FEB13C
(6.147000) can0 2E8#010100000600D0C2
(6.149000) can0 2B4#4905D10E6601
(6.151000) can0 2E2#1000005B010B0000
(6.153000) can0 263#0300000000000000
(6.155000) can0 448#20001010000010
(6.157000) can0 439#0000000000185A04
(6.158000) can0 2E5#000019300000DD00
(6.160000) can0 118#976D950000C8B400
(6.162000) can0 229#440100
(6.164000) can0 22B#FFFFFF03F0FFFFFF
(6.166000) can0 279#6DBEFC01EC056502
(6.169000) can0 3FD#01000A0000080280
(6.172000) can0 2C3#555BA90680C112AA
(6.174000) can0 379#080000000A000C03
(6.177000) can0 315#5B2BD0264000D003
(6.178000) can0 335#0B001C4B00000000
(6.181000) can0 139#00
(6.182000) can0 3C5#0000000000000000
(6.184000) can0 243#00FCCFCC994E0E29
(6.186000) can0 757#3200000000000000
(6.188000) can0 78A#0100020060066306
(6.190000) can0 7D5#2C3E3E0000000000
(6.192000) can0 1D8#2994401100004027
(6.194000) can0 3C0#0400000000000000
(6.197000) can0 441#4A858900320008FB
(6.199000) can0 287#655F6968F3020D0E
(6.200000) can0 23E#00003AC002FFCF0A
(6.202000) can0 400#00E0FBBEEFFB00
(6.205000) can0 3AE#064000080000F03F
(6.207000) can0 3A2#F2A3FFFF03000000
(6.209000) can0 2E5#000019300000DD00
