(0.000000) can0 1D8#29E6C01B0000E0A3
(0.003000) can0 37A#C00D000000000000
(0.007000) can0 2F9#BCFB07030D1A8B84
(0.009000) can0 118#3369950000C85400
(0.011000) can0 1D8#29E8801B000060E5
(0.013000) can0 224#0408004019011008
(0.015000) can0 3FD#02009E0000000090
(0.017000) can0 421#F21A0000002000
(0.020000) can0 724#000000
(0.020000) can0 25B#D38000056A866003
(0.023000) can0 2E1#398D2AFF0F000000
(0.023000) can0 545#E00462009BA609DA
(0.026000) can0 2E5#000021300000AC00
(0.026000) can0 1F9#0000000000000000
(0.027000) can0 6A2#0000000000
(0.029000) can0 2EC#573075
(0.029000) can0 257#B866838202B04101
(0.030000) can0 261#322A8C01805CC27D
(0.031000) can0 422#700010000000
(0.034000) can0 423#00001000000000
(0.034000) can0 3C8#0400000000000000
(0.037000) can0 2E5#000021300000AC00
(0.037000) can0 2D2#022F904E000BE822
(0.038000) can0 252#3E2A7F7700FC0F00
(0.039000) can0 129#DD26EE5F0120FF3F
(0.039000) can0 118#766C950000C89400
(0.040000) can0 292#670EE9E69A010000
(0.041000) can0 2E1#026D66021B520000
(0.042000) can0 392#0111A467000A0300
(0.043000) can0 2AA#571013
(0.046000) can0 2E5#000021300000AC00
(0.046000) can0 303#10000000FFFFFFFF
(0.047000) can0 3A8#F4E07F45FE0F0000
(0.048000) can0 3C2#2955000000000000
(0.048000) can0 1D8#29E8C01B0000E0A5
(0.049000) can0 266#310018481800E000
(0.050000) can0 126#37302F7431
(0.051000) can0 1D6#400800004A029808
(0.051000) can0 2B6#000300
(0.052000) can0 682#0000004004113065
(0.053000) can0 719#0D00000000000000
(0.054000) can0 78A#010005009D0D0A00
(0.054000) can0 2C1#218B9C8502000000
(0.057000) can0 2E5#000021300000AC00
(0.058000) can0 288#0106184C00600156
(0.059000) can0 129#B028EE5F0020FF3F
(0.060000) can0 243#00FCCFCC99260E29
(0.060000) can0 315#185145675045C086
(0.061000) can0 315#0145450055470000
(0.062000) can0 315#5B2BD02640006004
(0.063000) can0 295#1D2C000000000000
(0.063000) can0 381#0600000000000000
(0.064000) can0 3A2#602573BF1C00436C
(0.065000) can0 201#0104980000000000
(0.065000) can0 7D5#2B81CFFF00000000
(0.066000) can0 132#F98C1FFD543A
(0.067000) can0 372#0BCFFA0000481500
(0.068000) can0 360#0500000000000000
(0.069000) can0 118#296F950000C84400
(0.070000) can0 241#3C3C160F8F5500
(0.071000) can0 257#BA68838202B04101
(0.071000) can0 3B5#0000000000000000
(0.072000) can0 3C5#0000000000000000
(0.073000) can0 103#22B38804A2EC2032
(0.074000) can0 1D5#290000000000201F
(0.074000) can0 36E#0000000000000000
(0.075000) can0 2C1#0219060000D00A00
(0.076000) can0 7D5#449E52605D470050
(0.077000) can0 2E5#000021300000AC00
(0.077000) can0 7D5#48677F0000805B5B
(0.078000) can0 123#01000000003F0000
(0.080000) can0 1E5#286C0400000040BE
(0.080000) can0 31A#200100000000E01E
(0.081000) can0 122#00001392D2000000
(0.084000) can0 1D5#290000000000403F
(0.084000) can0 3A3#18D00000280DFC01
(0.087000) can0 2E5#000021300000AC00
(0.087000) can0 401#2200000000000000
(0.088000) can0 118#6A61950000C894FF
(0.089000) can0 263#6136D29F976F9A00
(0.089000) can0 201#0200000000000000
(0.090000) can0 21D#0400B50000000000
(0.091000) can0 272#0380610000000000
(0.092000) can0 393#0380610000000000
(0.092000) can0 3C9#0198000501010000
(0.094000) can0 3F5#0000C838820C0000
(0.095000) can0 2C1#1304900000000000
(0.095000) can0 3AE#FF3F0008000081C8
(0.096000) can0 3A2#0110200000000000
(0.097000) can0 234#31E10380430054C7
(0.098000) can0 757#2C3F3E0000000000
(0.098000) can0 1D8#29E8C01B00008045
(0.099000) can0 1E5#286C04000000007E
(0.100000) can0 266#320018481800E100
(0.101000) can0 458#00002000000000
(0.104000) can0 4E3#0452008506580000
(0.106000) can0 420#2801404B00000006
(0.108000) can0 2D3#590054031B125775
(0.108000) can0 343#009264CE97000000
(0.111000) can0 266#310018481800E100
(0.113000) can0 709#1800000000000000
(0.115000) can0 284#300000004008302E
(0.117000) can0 3C3#5555550100000000
(0.119000) can0 554#D08403051ED000
(0.121000) can0 1E5#286C0400000040BE
(0.123000) can0 339#02F1FE008007800F
(0.125000) can0 552#00000000000070C7
(0.127000) can0 2E5#000021300000AD00
(0.127000) can0 2EC#574085
(0.128000) can0 118#7E65950000C8A4FF
(0.129000) can0 263#0300000000000000
(0.130000) can0 1E5#286C0400000060DE
(0.130000) can0 221#610555550105E019
(0.132000) can0 423#00001000000000
(0.133000) can0 1D5#290000000000E0DF
(0.135000) can0 3C8#0500000000000000
(0.135000) can0 677#0200000000000000
(0.136000) can0 7A8#0240BF07000F0000
(0.139000) can0 2D2#022F8F4E000BE822
(0.139000) can0 118#9E66950000C8C4FE
(0.140000) can0 266#320018481800E100
(0.141000) can0 2C3#555BA90680C112AA
(0.141000) can0 439#0000000000185A04
(0.142000) can0 261#834D0A0000403545
(0.145000) can0 228#0106184C006001F6
(0.145000) can0 2E5#000021300000AD00
(0.146000) can0 132#F08C25FD7D3A
(0.148000) can0 1FB#0502000000000000
(0.148000) can0 263#04000000A01C0000
(0.149000) can0 2B3#ECE6666038425300
(0.150000) can0 257#DE7C838202C04101
(0.150000) can0 128#0000EC0A02
(0.151000) can0 279#26BFFC01A4056502
(0.152000) can0 395#091D1D501D120B7D
(0.153000) can0 45A#FD07F8FF03000824
(0.153000) can0 719#0300000000000000
(0.154000) can0 78A#0100060003000000
(0.157000) can0 545#010000000010409B
(0.157000) can0 23E#00003AC002FF1F5A
(0.158000) can0 243#00FCCFCC99260E29
(0.159000) can0 129#DB22ED5FFE1FFF3F
(0.160000) can0 118#2268950000C84400
(0.161000) can0 7D5#2B7DCFFF00000000
(0.162000) can0 3A2#6045F3BE1C00436C
(0.163000) can0 441#4A8589003200382B
(0.163000) can0 139#00
(0.164000) can0 285#61018E0308002E00
(0.165000) can0 353#FB0F39801A10FB06
(0.165000) can0 2E5#000021300000AD00
(0.166000) can0 2A8#010100000600A052
(0.167000) can0 3C0#0200000000000000
(0.170000) can0 118#D369950000C8F400
(0.170000) can0 37A#C20D000000000000
(0.173000) can0 6A1#0000000000
(0.175000) can0 428#20001010000010
(0.177000) can0 677#0300000000000000
(0.180000) can0 123#00001392D2000000
(0.182000) can0 2F1#02DAED8043000000
(0.184000) can0 2E1#6580080072DC306A
(0.186000) can0 3A3#14D00000280DFC01
(0.188000) can0 195#400800000A002706
(0.189000) can0 21D#0400B50000000000
(0.190000) can0 257#D87E838202B84101
(0.191000) can0 261#00100B00FF4F60BF
(0.191000) can0 39A#1427E792FB0EC77E
(0.192000) can0 545#020002000000509E
(0.193000) can0 1D5#290000000000A09F
(0.196000) can0 2C1#1304900000000000
(0.196000) can0 20C#0098330AE800300C
(0.197000) can0 23E#00003AC002FF2F6A
(0.199000) can0 757#3200000000000000
(0.199000) can0 118#256C950000C844FF
(0.200000) can0 458#00002000000000
(0.201000) can0 34A#0007000000000020
(0.202000) can0 7FF#06003200000000C0
(0.202000) can0 4E3#D5028201001C0000
(0.203000) can0 287#4C4B4D4DCF020002
(0.206000) can0 420#2801404B00008006
(0.206000) can0 261#3100E8FFAC497A7D
(0.209000) can0 118#866D950000C8A4FF
(0.209000) can0 1E5#286C0400000060DE
(0.210000) can0 289#CA0A87C385003D8F
(0.211000) can0 2B4#4905190E5F01
(0.211000) can0 224#0408004019011008
(0.213000) can0 3F9#0800000000000000
(0.216000) can0 3C3#0000000000A50000
(0.216000) can0 132#038D3EFD8C3A
(0.217000) can0 718#03000000000000
(0.218000) can0 247#260EFF0000000000
(0.218000) can0 1D8#29E0401B0000003D
(0.219000) can0 118#286E950000C84400
(0.220000) can0 339#02F1FE008007800F
(0.221000) can0 25B#D38000056A868023
(0.221000) can0 545#400461309BA569C8
(0.222000) can0 261#322A8C01805C823D
(0.225000) can0 552#00000000000080D7
(0.225000) can0 2E5#000021300000AB00
(0.226000) can0 1F9#0000000000000000
(0.228000) can0 6A2#0000000000
(0.228000) can0 263#0300000000000000
(0.229000) can0 1D8#29E0001B0000201D
(0.232000) can0 2E1#026D66021B520000
(0.232000) can0 423#00001000000000
(0.233000) can0 119#00000000
(0.236000) can0 3C8#0600000000000000
(0.236000) can0 281#0000FF1F0000
(0.237000) can0 2D2#022F8F4E000BE822
(0.238000) can0 212#5904000081FF7731
(0.238000) can0 1D8#29E0001B0000403D
(0.239000) can0 118#B960950000C8E4FF
(0.240000) can0 243#04FC8303D680FFFF
(0.241000) can0 2C2#2040C04B010080CB
(0.242000) can0 439#0000000000185A04
(0.243000) can0 082#017FFF1CFF033104
(0.244000) can0 228#0106184C00601106
(0.247000) can0 2E5#000021300000AB00
(0.247000) can0 3A8#00FF000000000000
(0.248000) can0 118#FA61950000C824FF
(0.249000) can0 263#04000000A01C0000
(0.249000) can0 414#1133535459323530
(0.250000) can0 1E5#286C0400000060DE
(0.252000) can0 1D6#400800004A029808
(0.256000) can0 3E9#F088222100006007
(0.262000) can0 400#00E0FBBEEFFB00
(0.268000) can0 2E1#0400000000102007
(0.270000) can0 266#2F0018481800E000
(0.273000) can0 6A1#0000000000
(0.275000) can0 428#20001010000010
(0.277000) can0 2E5#000021300000AB00
(0.279000) can0 359#B03FA911C848010C
(0.281000) can0 118#5E64950000C88400
(0.282000) can0 381#0C00000000000000
(0.284000) can0 3A3#16D00000280DFC01
(0.286000) can0 2E5#000021300000AB00
(0.288000) can0 27A#97B2FC00A4056202
(0.290000) can0 263#6136D29F976F9A00
(0.293000) can0 257#DD83838202B84101
(0.295000) can0 3A2#0110200000000000
(0.297000) can0 282#7CD04107FCF30224
(0.299000) can0 40A#091000000000C0E7
(0.301000) can0 1E5#286C04000000007E
(0.303000) can0 2D1#FF01
(0.305000) can0 420#2801404B00000007
(0.307000) can0 2F9#BCFB071800000000
(0.309000) can0 118#B067950000C8D4FF
(0.311000) can0 257#CE74838202B84101
(0.312000) can0 224#0408004019011008
(0.314000) can0 39D#045CE12700
(0.316000) can0 201#0300000000000000
(0.318000) can0 23E#00003AC002FF5F9A
(0.321000) can0 1E5#286C0400000040BE
(0.323000) can0 545#900462E09AA499F7
(0.325000) can0 552#00000000000090E7
(0.327000) can0 2E5#000021300000AB00
(0.329000) can0 383#9118340073702103
(0.331000) can0 257#E785838202C04101
(0.333000) can0 423#00001000000000
(0.335000) can0 3C8#0000000000000000
(0.337000) can0 132#168D46FDB63A
(0.339000) can0 2D2#022F8F4E000BE822
(0.341000) can0 229#430400
(0.342000) can0 2C3#555BA90680C112AA
(0.344000) can0 228#0106184C00602116
(0.346000) can0 2E5#000021300000AB00
(0.349000) can0 3A1#844C0FCA001C22A7
(0.351000) can0 1D8#29DA401A0000A0D6
(0.353000) can0 409#00
(0.355000) can0 397#F3FFFFD81C180000
(0.356000) can0 545#010000000010A0FB
(0.359000) can0 77A#00AC01FF5B13785B
(0.361000) can0 266#2D0018471800E000
(0.363000) can0 7D5#2B7CCFFF00000000
(0.365000) can0 473#0000030000000000
(0.367000) can0 2E5#000021300000AB00
(0.369000) can0 118#766D950000C894FF
(0.371000) can0 241#3D3C560F8F5500
(0.373000) can0 6A1#0000000000
(0.375000) can0 428#20001010000010
(0.379000) can0 677#0300000000000000
(0.385000) can0 1E5#286C04000000007E
(0.389000) can0 2E5#000021300000AB00
(0.393000) can0 1D8#29D6001A00002012
(0.396000) can0 1D5#290000000000201F
(0.403000) can0 234#31E103804300B427
(0.405000) can0 492#2503FF0F280000
(0.407000) can0 3AE#034000080000408C
(0.409000) can0 118#DC61950000C80401
(0.411000) can0 1E5#286C0400000060DE
(0.413000) can0 224#0408004019011008
(0.415000) can0 3FD#0000003C20000180
(0.418000) can0 3BC#00007474
(0.420000) can0 1D8#29D48019000080EF
(0.422000) can0 3E8#0500000000000000
(0.424000) can0 709#190000008F040000
(0.426000) can0 3A2#02A6FFFF03000000
(0.428000) can0 383#9118340073702103
(0.430000) can0 129#822DF05F0420FF3F
(0.432000) can0 261#834D0A0000405565
(0.434000) can0 39D#075FE12700
(0.436000) can0 2E5#000021300000AC00
(0.438000) can0 23E#00003AC002FF8FCA
(0.440000) can0 129#6F2EF05F0320FF3F
(0.442000) can0 252#3E2A7F7700FC0F00
(0.444000) can0 35F#00
(0.445000) can0 2E5#000021300000AC00
(0.450000) can0 401#022AE192E892FA92
(0.454000) can0 3CC#03210319000E0900
(0.460000) can0 719#0100040000000000
(0.465000) can0 3FD#01000A0000080280
(0.468000) can0 381#1100000000000000
(0.470000) can0 266#2B0017471700E000
(0.472000) can0 6A1#0000000000
(0.475000) can0 7AA#23D8F8F90610001C
(0.477000) can0 22B#FFFF3F00E00F0000
(0.479000) can0 359#320400002B2D35DB
(0.481000) can0 243#010070376E009393
(0.482000) can0 122#00001392D2000000
(0.485000) can0 3A3#18D00000280DFC01
(0.487000) can0 132#168D66FDEA3A
(0.489000) can0 419#00
(0.491000) can0 21D#0400B50000000000
(0.493000) can0 257#DF7D838202C04101
(0.495000) can0 1D5#290000000000605F
(0.497000) can0 282#6CD04107FCF30224
(0.499000) can0 40A#091000000000D0F7
(0.500000) can0 1E5#286C04000000007E
(0.504000) can0 3AE#04400008000071BE
(0.512000) can0 132#2F8D78FD4C3B
(0.518000) can0 3FD#02009E0000000090
(0.523000) can0 3F9#0200000000000000
(0.526000) can0 3A2#02A6FFFF03000000
(0.528000) can0 1F9#0000000000000000
(0.530000) can0 118#576D950000C87400
(0.532000) can0 307#000000000000003B
(0.533000) can0 423#00001000000000
(0.535000) can0 3C8#0200000000000000
(0.537000) can0 7A8#C8CCC18300008200
(0.539000) can0 1D8#29C80018000000E2
(0.541000) can0 243#04FC8303D680FFFF
(0.543000) can0 330#0A010000FFFF3800
(0.546000) can0 228#0106184C00604136
(0.548000) can0 2E3#94926020850400
(0.550000) can0 129#C029F15F0020FF3F
(0.552000) can0 257#E280838202C04101
(0.554000) can0 2E8#010100000600F0E2
(0.556000) can0 682#00000040041180B5
(0.558000) can0 23E#00003AC002FFBFFA
(0.560000) can0 1E5#286C0400000040BE
(0.562000) can0 340#0500000000000000
(0.564000) can0 1D5#290000000000403F
(0.566000) can0 61D#022168398D290908
(0.568000) can0 2A8#010100000600E092
(0.570000) can0 129#1A2BF05F0020FF3F
(0.572000) can0 2B3#E24900AC50A00000
(0.579000) can0 302#10000000FFFFFFFF
(0.585000) can0 118#4C62950000C87400
(0.590000) can0 2E5#000021300000AD00
(0.592000) can0 3AE#054000080000A0EE
(0.595000) can0 41D#00
(0.597000) can0 282#6CD0410700F40224
(0.599000) can0 3C2#0055555500006A05
(0.601000) can0 1E5#286C0400000040BE
(0.603000) can0 45A#2438393860473770
(0.605000) can0 420#2801404B00008000
(0.607000) can0 2F9#BCFB07030D1A8B84
(0.609000) can0 118#DE65950000C804FF
(0.610000) can0 1E5#286C0400000060DE
(0.612000) can0 224#0408004019011008
(0.615000) can0 441#CB00B6C358001D22
(0.617000) can0 132#368D8AFD5F3B
(0.619000) can0 243#030000001B775700
(0.621000) can0 247#2B0EFF0000000000
(0.624000) can0 553#0000000000002078
(0.626000) can0 2E5#000021300000AC00
(0.628000) can0 1F9#0000000000000000
(0.630000) can0 1D8#29BE401700002037
(0.632000) can0 221#61055555010580B9
(0.638000) can0 423#00001000000000
(0.640000) can0 129#FD22F05F0020FF3F
(0.642000) can0 266#260017471700E100
(0.644000) can0 54F#0000000000000000
(0.645000) can0 2E5#000021300000AC00
(0.648000) can0 372#0400000000009011
(0.650000) can0 263#04000000A01C0000
(0.652000) can0 1D6#400800004A029808
(0.654000) can0 1D5#290000000000605F
(0.657000) can0 225#5555FA00
(0.659000) can0 243#00FCCFCC99260E29
(0.661000) can0 118#936A950000C8B4FF
(0.662000) can0 7D5#2B85CFFF00000000
(0.664000) can0 441#4B85890032002014
(0.666000) can0 2E5#000021300000AC00
(0.668000) can0 3AE#064000080000C110
(0.670000) can0 263#700ED29FA7AF1A00
(0.672000) can0 261#00100B00FF4F409F
(0.674000) can0 1D5#290000000000A09F
(0.676000) can0 102#22B3880494FAA009
(0.678000) can0 207#0000100007000000
(0.680000) can0 129#8C26F25F0420FF3F
(0.683000) can0 221#6055551554519178
(0.685000) can0 545#020002000000408E
(0.686000) can0 2E5#000021300000AC00
(0.688000) can0 27A#9FB6FC00A8056202
(0.690000) can0 263#6136D29F976F9A00
(0.692000) can0 21D#0400B50000000000
(0.694000) can0 39A#6DFFFDFDFD01000A
(0.696000) can0 75D#0400000000000000
(0.698000) can0 20C#0098330AE800300C
(0.704000) can0 1D8#29B60016000000CE
(0.706000) can0 420#2801404B00000001
(0.708000) can0 401#0F2AAB92CF92AC92
(0.710000) can0 266#260017471700E100
(0.712000) can0 2C4#06C8A28CCA681500
(0.715000) can0 3F9#0400000000000000
(0.717000) can0 2E5#000021300000AC00
(0.719000) can0 3AE#094000080000E133
(0.721000) can0 227#0000000039000080
(0.723000) can0 3E8#0100000000000000
(0.727000) can0 2E5#000021300000AC00
(0.728000) can0 2EC#57A0E5
(0.730000) can0 1D8#29B2C015000060E9
(0.732000) can0 423#00001000000000
(0.734000) can0 1D5#290000000000605F
(0.736000) can0 2C1#68347E00008A0200
(0.739000) can0 281#0000FF1F0000
(0.740000) can0 229#4C0800
(0.742000) can0 2C3#555BA90680C112AA
(0.745000) can0 1D5#290000000000807F
(0.747000) can0 132#5E8DDBFD113C
(0.749000) can0 3C2#2955000000000000
(0.751000) can0 414#1000000000434956
(0.756000) can0 128#0000EC0A02
(0.772000) can0 2E5#000021300000AC00
(0.780000) can0 103#22B38804A2EC2032
(0.787000) can0 2F1#0802003004C80300
(0.789000) can0 419#00
(0.791000) can0 201#0200000000000000
(0.792000) can0 272#080005E907B00304
(0.794000) can0 39D#0058E12700
(0.801000) can0 2E5#000021300000AD00
(0.805000) can0 287#4C4B4D4DD1020003
(0.810000) can0 2F9#BCFB07100D1A8B84
(0.817000) can0 3FD#0000003C20000180
(0.820000) can0 264#3A000000A000
(0.822000) can0 339#02F1FE008007800F
(0.824000) can0 552#000000000000E037
(0.826000) can0 2E5#000021300000AD00
(0.828000) can0 1F9#0000000000000000
(0.830000) can0 129#2125F35FFF1FFF3F
(0.831000) can0 261#B40E904C0040E4B8
(0.838000) can0 423#00001000000000
(0.840000) can0 129#FB26F35FFF1FFF3F
(0.842000) can0 266#230017461600E100
(0.849000) can0 439#0000000000185A04
(0.856000) can0 266#200017461600E100
(0.860000) can0 400#00E0FBBEEFFB00
(0.862000) can0 7D5#2B91DFFF00000000
(0.864000) can0 3FD#01000A0000080280
(0.867000) can0 1D5#29000000000000FF
(0.869000) can0 118#D86F950000C8F4FF
(0.871000) can0 2B3#07A8709300000000
(0.873000) can0 103#22B38804A2EE2032
(0.875000) can0 428#20001010000010
(0.877000) can0 132#898D29FE913C
(0.879000) can0 123#01000000003F0000
(0.881000) can0 243#010070376E009393
(0.883000) can0 122#00001392D2000000
(0.886000) can0 3A3#18D00000280DFC01
(0.888000) can0 27A#B6B80C01AC056202
(0.890000) can0 1D8#2992001200006006
(0.892000) can0 20E#150500
(0.893000) can0 31E#0200000000000000
(0.895000) can0 41D#00
(0.897000) can0 282#7CD0410700F40224
(0.904000) can0 3C2#0055555500006A05
(0.906000) can0 2E1#026D66021B520000
(0.908000) can0 757#484646000080515B
(0.910000) can0 129#E52DF55F0320FF3F
(0.912000) can0 257#EC8283820AC04101
(0.918000) can0 3FD#0000003C20000180
(0.922000) can0 334#3F3F1408FF01C293
(0.924000) can0 1D5#290000000000C0BF
(0.926000) can0 2E5#000021300000AD00
(0.928000) can0 383#9118340073702103
(0.930000) can0 266#1F0016461600E100
(0.932000) can0 7AA#09F506F506010000
(0.934000) can0 119#00000000
(0.936000) can0 2E1#0400000000102007
(0.938000) can0 2C2#555BA90680C112AA
(0.940000) can0 1E5#286C04000000007E
(0.942000) can0 266#200016461600E100
(0.944000) can0 2AA#57A0A3
(0.946000) can0 2E5#000021300000AD00
(0.948000) can0 2E2#07D44F4001000000
(0.950000) can0 263#04000000A01C0000
(0.952000) can0 128#0000EC0A02
(0.955000) can0 395#091D1D501D120B7D
(0.957000) can0 45A#FD07F8FF03000625
(0.959000) can0 682#000000400411C0F5
(0.961000) can0 1E5#286C0400000040BE
(0.963000) can0 340#0900000000000000
(0.964000) can0 3FD#01000A0000080280
(0.968000) can0 7D5#2C3E3E0000000000
(0.970000) can0 401#1C2AD892E392C892
(0.971000) can0 241#3B3CD60E8F5500
(0.973000) can0 103#22B38804A2EE2032
(0.977000) can0 428#20001010000010
(0.983000) can0 359#38040000FC6A1300
(0.989000) can0 3A3#16D00000280DFC01
(0.994000) can0 1E5#286C04000000209E
(0.996000) can0 2C1#1304900000000000
(0.998000) can0 234#31E10380430074E7
(1.000000) can0 129#7426F75F0520FF3F
(1.002000) can0 55A#0400000000000000
(1.005000) can0 458#00002000000000
(1.013000) can0 118#B56D950000C8D4FE
(1.019000) can0 3FD#02009E0000000090
(1.024000) can0 7AA#0A8B068B06005900
(1.026000) can0 2E5#000021300000AD00
(1.029000) can0 1F9#0000000000000000
(1.030000) can0 266#210016461600E100
(1.032000) can0 38B#FEFE6F0FF0C02503
(1.034000) can0 39D#065EE12700
(1.036000) can0 2C1#68347E00008A0200
(1.038000) can0 39B#0318FF80B0882090
(1.040000) can0 229#8C0B00
(1.042000) can0 22B#FFFF1F00F0FF031C
(1.044000) can0 1D5#290000000000403F
(1.046000) can0 2E5#000021300000AD00
(1.048000) can0 234#2DE00231C5048024
(1.050000) can0 129#252BF75F0120FF3F
(1.052000) can0 128#0000EC0A02
(1.054000) can0 2E8#0101000006004032
(1.057000) can0 682#000000400411D005
(1.059000) can0 788#C8D4C18300009A00
(1.061000) can0 118#4B62950000C874FF
(1.063000) can0 315#0200011700000000
(1.065000) can0 1D5#290000000000807F
(1.067000) can0 5D7#506E0E0002
(1.069000) can0 372#0B73FC0000481500
(1.071000) can0 241#3C3C160F8F5500
(1.073000) can0 5F3#B6EA20
(1.075000) can0 367#0000000000000000
(1.077000) can0 428#20001010000010
(1.079000) can0 7D7#3237000000000000
(1.081000) can0 243#010070376E009393
(1.083000) can0 31A#200100000000306E
(1.085000) can0 3A3#12D00000280DFC01
(1.087000) can0 195#400800000A002706
(1.089000) can0 118#2E65950000C854FF
(1.091000) can0 1E5#286C0400000060DE
(1.093000) can0 37D#ACFEADFE01F80F00
(1.095000) can0 41D#00
(1.098000) can0 2E5#000021300000AE00
(1.100000) can0 234#31E1038043009407
(1.102000) can0 7FF#06003200000000C0
(1.104000) can0 2D1#FF01
(1.106000) can0 420#2801404B00000003
(1.107000) can0 381#0800000000000000
(1.109000) can0 1D8#29A00013000020D5
(1.114000) can0 257#C66C83820AB04101
(1.120000) can0 545#400458309BA81972
(1.126000) can0 266#220016461600E100
(1.130000) can0 1F9#0000000000000000
(1.132000) can0 3AE#0D4000080000D127
(1.134000) can0 1D5#290000000000605F
(1.135000) can0 3C8#0100000000000000
(1.138000) can0 7A8#C8CCC18300008200
(1.140000) can0 1E5#286C04000000007E
(1.142000) can0 262#0B00A8B200B09010
(1.144000) can0 1D5#290000000000807F
(1.146000) can0 2E5#000021300000AE00
(1.148000) can0 234#2EE00232C904A04A
(1.150000) can0 129#4425F75F0120FF3F
(1.153000) can0 128#0000EC0A02
(1.154000) can0 1D5#290000000000A09F
(1.156000) can0 719#0D00000000000000
(1.158000) can0 23E#00003AC002FFAFEA
(1.160000) can0 243#00FCCFCC99260E29
(1.162000) can0 340#0B40000000000000
(1.164000) can0 286#FFFFFFFF31
(1.166000) can0 139#00
(1.169000) can0 2A8#01010000060040F2
(1.171000) can0 241#3C3C160F8F5500
(1.173000) can0 6A1#0000000000
(1.174000) can0 207#0000080003000000
(1.176000) can0 2E1#398D2AFF0F000000
(1.178000) can0 359#3A00000000000000
(1.182000) can0 1E5#286C04000000007E
(1.186000) can0 261#322A8C01805C42FD
(1.192000) can0 195#400800000A002706
(1.199000) can0 3F5#0000C838820C0000
(1.200000) can0 118#9860950000C8C4FE
(1.202000) can0 7FF#0720000528000000
(1.204000) can0 1D5#290000000000403F
(1.206000) can0 420#2801404B00008003
(1.209000) can0 118#DA61950000C804FF
(1.211000) can0 257#BB6183820AB04101
(1.213000) can0 545#400462009BAA497E
(1.215000) can0 285#02A800000000B200
(1.217000) can0 2E5#000021300000AE00
(1.219000) can0 3A2#02A6FFFF03000000
(1.222000) can0 266#230017461600E100
(1.223000) can0 2E1#0400000000102007
(1.225000) can0 6C8#0C7C00F412200C00
(1.227000) can0 132#768DF4FD2F3C
(1.229000) can0 118#7C63950000C8A4FF
(1.231000) can0 257#B46283820AA84101
(1.233000) can0 423#00001000000000
(1.234000) can0 39D#FB53E12700
(1.237000) can0 2E5#000021300000AE00
(1.239000) can0 212#5904000081FF7731
(1.241000) can0 243#04FC8303D280FFFF
(1.243000) can0 2E1#6580080073DC306A
(1.245000) can0 7AA#C0E78E3C00088C29
(1.247000) can0 132#7A8DE7FD1F3C
(1.249000) can0 3A8#00FF000000000000
(1.251000) can0 55A#0500000000000000
(1.253000) can0 279#25BAFC01A8056502
(1.256000) can0 1D5#290000000000E0DF
(1.264000) can0 788#0240C40700030000
(1.270000) can0 201#0104980000000000
(1.274000) can0 37A#B10D000000000000
(1.276000) can0 102#22B3880494FAA009
(1.279000) can0 23E#00003AC002FFDF1A
(1.281000) can0 118#2268950000C84400
(1.282000) can0 122#00001392D2000000
(1.284000) can0 3A2#0110200000000000
(1.286000) can0 2E5#000021300000AE00
(1.288000) can0 2E1#026D66021C520000
(1.291000) can0 129#1123F75FFF1FFF3F
(1.293000) can0 2B3#CE2B5E0100141900
(1.295000) can0 75D#8000000000000000
(1.297000) can0 2E5#000021300000AD00
(1.299000) can0 40A#0910000000001037
(1.301000) can0 118#A36A950000C8C4FF
(1.303000) can0 719#140000000000BE00
(1.304000) can0 2E1#FB1FB31999A20900
(1.307000) can0 2F9#BCFB070800000000
(1.309000) can0 118#B36B950000C8D4FE
(1.311000) can0 204#010000FF00000010
(1.317000) can0 343#0092689E97000000
(1.319000) can0 1D8#29AC80140000C002
(1.322000) can0 266#250017461700E200
(1.323000) can0 381#0E00000000E0FF00
(1.325000) can0 2E5#000021300000AD00
(1.327000) can0 1F9#0000000000000000
(1.329000) can0 118#F76D950000C81400
(1.331000) can0 221#6105555501056099
(1.333000) can0 423#00001000000000
(1.335000) can0 3C8#0300000000000000
(1.337000) can0 2E5#000021300000AD00
(1.340000) can0 2C2#555BA90680C112AA
(1.342000) can0 292#670EE9E69A010000
(1.344000) can0 1D5#29000000000000FF
(1.346000) can0 2E5#000021300000AD00
(1.348000) can0 2E2#0100004B010B0000
(1.350000) can0 118#E96F950000C80400
(1.352000) can0 1D6#400800004A029808
(1.354000) can0 395#091D1D501D120B7D
(1.356000) can0 225#5555FA00
(1.358000) can0 379#02000A48333F2100
(1.360000) can0 129#D42AF75F0120FF3F
(1.362000) can0 283#000400004100
(1.364000) can0 473#0000030000000000
(1.366000) can0 7D5#3200000000000000
(1.368000) can0 3C0#0300000000000000
(1.370000) can0 266#250017461700E200
(1.372000) can0 6A1#0000000000
(1.374000) can0 207#0000060004000000
(1.376000) can0 261#322A8C01805C02BD
(1.380000) can0 359#4300000000000000
(1.386000) can0 2F1#2E00C0210C013804
(1.390000) can0 1A5#00101F683D
(1.396000) can0 249#9B000000
(1.398000) can0 20C#0098330AE800300C
(1.404000) can0 1E5#286C0400000040BE
(1.406000) can0 72A#028010D65C000000
(1.408000) can0 261#B40E884C004024F0
(1.410000) can0 263#020060C810414221
(1.417000) can0 3FD#0000003C20000180
(1.420000) can0 264#3A000000A000
(1.422000) can0 227#0000000039000080
(1.424000) can0 1D5#29000000000000FF
(1.426000) can0 2E5#000021300000AD00
(1.428000) can0 2EC#571055
(1.430000) can0 266#250017461700E200
(1.432000) can0 362#000000
(1.434000) can0 1D5#290000000000201F
(1.436000) can0 3C8#0400000000000000
(1.438000) can0 281#0000FF1F0000
(1.440000) can0 1D8#29AE001500004005
(1.442000) can0 212#5904000081FF7731
(1.443000) can0 2F2#1201
(1.445000) can0 228#0106184C0060D1C6
(1.450000) can0 132#5C8DDBFD013C
(1.456000) can0 128#0000EC0A02
(1.462000) can0 400#00E0FBBEEFFB00
(1.466000) can0 3FD#01000A0000080280
(1.469000) can0 2F3#0D0D0B0400600002
(1.471000) can0 241#3C3C160F8F5500
(1.473000) can0 103#22B38804A2EC2032
(1.475000) can0 428#20001010000010
(1.477000) can0 545#020001000000C00D
(1.479000) can0 359#440400008AAB72AE
(1.481000) can0 243#010070376E009393
(1.483000) can0 122#00001392D2000000
(1.485000) can0 3A3#14D00000280DFC01
(1.486000) can0 2E5#000021300000AD00
(1.489000) can0 27A#B8BE0C01A8056202
(1.491000) can0 257#B95F83820AB04101
(1.494000) can0 39A#79FFFDFDFD01000A
(1.496000) can0 2C1#1304900000000000
(1.498000) can0 757#3200000000000000
(1.504000) can0 1D8#29AA801400000040
(1.509000) can0 420#2801404B00000005
(1.515000) can0 3FD#02009E0000000090
(1.523000) can0 204#010000FF00000010
(1.530000) can0 552#00000000000050A7
(1.532000) can0 3AE#104000080000A1FA
(1.534000) can0 1D5#290000000000605F
(1.536000) can0 261#00100A00FF4FA0FE
(1.538000) can0 281#0000FF1F0000
(1.540000) can0 1D8#29A840140000807E
(1.543000) can0 249#D3030000
(1.545000) can0 545#010000000010E03B
(1.547000) can0 132#688DE7FD0B3C
(1.549000) can0 3A2#600573C01C00436C
(1.551000) can0 1E5#286C04000000209E
(1.553000) can0 279#28BDFC01A8056502
(1.555000) can0 45A#FD07F8FF03000625
(1.557000) can0 2E5#000021300000AE00
(1.559000) can0 1D8#29A840140000C0BE
(1.561000) can0 266#230017461600E200
(1.563000) can0 387#5860504B4E4E0040
(1.565000) can0 139#00
(1.566000) can0 2E5#000021300000AE00
(1.569000) can0 360#0900000000000000
(1.572000) can0 1E5#286C0400000060DE
(1.574000) can0 1D5#290000000000E0DF
(1.576000) can0 428#20001010000010
(1.578000) can0 677#0300000000000000
(1.580000) can0 123#00001392D2000000
(1.581000) can0 2F1#109E03EB13000000
(1.583000) can0 261#834D0A000040D5E5
(1.585000) can0 3A3#12D00000280DFC01
(1.587000) can0 132#5B8DF0FD1F3C
(1.589000) can0 419#00
(1.591000) can0 201#0200000000000000
(1.593000) can0 2B3#C249006850A00000
(1.594000) can0 3F5#0000C838830C0000
(1.599000) can0 2E5#000021300000AD00
(1.604000) can0 243#02FCA31004A80000
(1.610000) can0 420#2801404B00008005
(1.617000) can0 2C4#13A400D30D40F501
(1.619000) can0 1D8#29A600140000803C
(1.621000) can0 3E8#0300000000000000
(1.623000) can0 2E1#6580080074DC306A
(1.625000) can0 2E5#000021300000AD00
(1.627000) can0 401#0B2A5A935B934F93
(1.629000) can0 2EC#573075
(1.631000) can0 257#C06683820AB04101
(1.633000) can0 3AE#0F4000080000D028
(1.635000) can0 3C8#0600000000000000
(1.636000) can0 2E5#000021300000AD00
(1.639000) can0 23E#00003AC002FF6FAA
(1.641000) can0 201#003E3E000082FF00
(1.644000) can0 2F2#1201
(1.646000) can0 2E5#000021300000AD00
(1.648000) can0 261#3100FBFFB0491A34
(1.649000) can0 118#166D950000C834FF
(1.651000) can0 126#2AE02E74D3
(1.653000) can0 2B6#000300
(1.655000) can0 1FA#1AC001
(1.657000) can0 677#0000000000000000
(1.659000) can0 78A#010000001813080D
(1.661000) can0 266#240017461600E200
(1.663000) can0 7D5#2C3E3E0000000000
(1.665000) can0 286#FFFFFFFF31
(1.667000) can0 2E5#000021300000AD00
(1.669000) can0 118#686F950000C884FF
(1.671000) can0 241#3D3C560F8F5500
(1.674000) can0 103#22B38804A4EC2032
(1.676000) can0 102#22B3880494FAA009
(1.682000) can0 359#4600000000000000
(1.684000) can0 1D5#290000000000403F
(1.686000) can0 211#B01C710F0001
(1.688000) can0 1A5#00101F00D5
(1.689000) can0 1D8#29A600140000601C
(1.691000) can0 20E#150500
(1.693000) can0 3F5#0000C838820C0000
(1.695000) can0 261#B40E984C00404420
(1.697000) can0 757#2C3F3E0000000000
(1.705000) can0 757#3200000000000000
(1.707000) can0 2E5#000021300000AD00
(1.708000) can0 118#0C63950000C834FF
(1.711000) can0 266#240017461600E200
(1.717000) can0 3FD#0000003C20000180
(1.720000) can0 2B4#4905260E4E01
(1.722000) can0 381#1900000000000000
(1.724000) can0 552#00000000000070C7
(1.726000) can0 2E5#000021300000AD00
(1.728000) can0 261#00100900FF4F60BD
(1.729000) can0 1D8#29A600140000E09C
(1.731000) can0 221#610555550105E019
(1.733000) can0 423#00001000000000
(1.736000) can0 3C8#0000000000000000
(1.738000) can0 281#0000FF1F0000
(1.740000) can0 1D8#29A60014000000BC
(1.742000) can0 266#230017461600E200
(1.745000) can0 54F#0000000000000000
(1.747000) can0 132#708DF6FD243C
(1.749000) can0 118#9067950000C8B4FF
(1.751000) can0 414#1133535459323530
(1.753000) can0 1D6#400800004A029808
(1.755000) can0 2E8#010100000600B0A2
(1.763000) can0 381#1A00000000000000
(1.777000) can0 3FD#01000A0000080280
(1.788000) can0 132#6A8DEEFD1D3C
(1.792000) can0 1D8#29A400140000A05A
(1.798000) can0 393#080004E107B00304
(1.804000) can0 3AE#104000080000217A
(1.806000) can0 420#2801404B00008006
(1.808000) can0 261#052233CA9A42B0A6
(1.815000) can0 263#020040C810414221
(1.821000) can0 2E1#6580080074DC306A
(1.826000) can0 3FD#02009E0000000090
(1.829000) can0 227#0000000039000080
(1.831000) can0 2B3#06BC52EDE47DCC1F
(1.833000) can0 423#00001000000000
(1.835000) can0 3C8#0100000000000000
(1.838000) can0 132#728DEEFD243C
(1.840000) can0 1D8#29A2C013000040B7
(1.842000) can0 252#302A837700FC0F00
(1.844000) can0 439#0000000000185A04
(1.846000) can0 3A2#604573C11C00436C
(1.848000) can0 2E1#398D2AFF0F000000
(1.850000) can0 118#EB61950000C81400
(1.852000) can0 257#A35183820AA84101
(1.854000) can0 45A#FD07F8FF03000626
(1.856000) can0 261#322A8C01805CE29D
(1.858000) can0 2D7#8C490105
(1.860000) can0 129#842CFC5F0720FF3F
(1.862000) can0 242#55558600
(1.868000) can0 7D7#3237000000000000
(1.871000) can0 129#622DFD5F0720FF3F
(1.873000) can0 545#02000100000080CD
(1.875000) can0 428#20001010000010
(1.877000) can0 132#7E8D03FE513C
(1.879000) can0 359#4900000000000000
(1.881000) can0 118#FE64950000C82400
(1.882000) can0 3D3#000000
(1.884000) can0 3A3#14D00000280DFC01
(1.887000) can0 2E5#000021300000AE00
(1.889000) can0 419#00
(1.891000) can0 201#0200000000000000
(1.893000) can0 2B3#07A8709300000000
(1.895000) can0 3F5#0000C838830C0000
(1.897000) can0 282#74D0410708F40224
(1.900000) can0 376#0200FFFFFFFF0000
(1.902000) can0 266#230016461600E100
(1.903000) can0 45A#2438393860473770
(1.905000) can0 1F8#1A000000
(1.907000) can0 35B#0000000000000000
(1.909000) can0 401#192A7F9379936693
(1.911000) can0 204#010000FF00000010
(1.913000) can0 2E1#6580080074DC306A
(1.916000) can0 3FD#0000003C20000180
(1.919000) can0 1D5#290000000000201F
(1.921000) can0 261#00100900FF4F207D
(1.923000) can0 247#340EFF0000000000
(1.925000) can0 2E5#000021300000AE00
(1.928000) can0 132#738D01FE3B3C
(1.930000) can0 129#D323FE5F0720FF3F
(1.932000) can0 221#6105555501052059
(1.933000) can0 423#00001000000000
(1.935000) can0 3C8#0200000000000000
(1.937000) can0 132#7E8D01FE393C
(1.939000) can0 212#5904000081FF7731
(1.941000) can0 243#04FC8303D280FFFF
(1.943000) can0 439#0000000000185A04
(1.946000) can0 228#0106184C00602116
(1.948000) can0 234#2DE00231C504A044
(1.950000) can0 129#7025FE5F0020FF3F
(1.952000) can0 3CC#0321C319000E0900
(1.954000) can0 2B3#08FA0000A4810000
(1.957000) can0 1FA#1AC001
(1.958000) can0 788#C8D4C18300009A00
(1.960000) can0 243#00FCCFCC99260E29
(1.962000) can0 340#0700000000000000
(1.964000) can0 3FD#01000A0000080280
(1.967000) can0 1D5#290000000000C0BF
(1.969000) can0 360#0200000000000000
(1.971000) can0 241#3C3C160F8F5500
(1.973000) can0 6A1#0000000000
(1.975000) can0 428#20001010000010
(1.982000) can0 677#0300000000000000
(1.988000) can0 261#B40EA04C00406448
(1.994000) can0 1D8#29A4801300002059
(1.996000) can0 2E5#000021300000AF00
(1.998000) can0 23E#00003AC002FFFF3A
(2.004000) can0 129#892AFE5FFF1FFF3F
(2.006000) can0 420#2801404B00008007
(2.013000) can0 372#0AF84406010000AA
(2.019000) can0 3FD#02009E0000000090
(2.027000) can0 294#14C1400040000000
(2.033000) can0 6A2#0000000000
(2.035000) can0 3C8#0300000000000000
(2.037000) can0 132#6C8DF1FD1F3C
(2.039000) can0 2C2#2040C04B010080CB
(2.042000) can0 201#003D3D000082FF00
(2.045000) can0 2AA#575053
(2.046000) can0 2E5#000021300000AF00
(2.048000) can0 3A1#844C0FCA001C42C7
(2.050000) can0 129#622FFD5FFD1FFF3F
(2.052000) can0 1D6#400800004A029808
(2.054000) can0 1D5#290000000000E0DF
(2.056000) can0 225#5555FA00
(2.058000) can0 379#090000000A000C03
(2.060000) can0 129#8720FD5FFD1FFF3F
(2.062000) can0 242#55558600
(2.064000) can0 7D5#2B8BCFFF00000000
(2.066000) can0 441#4B85890032001004
(2.068000) can0 232#8A00990ECA040000
(2.071000) can0 118#AF67950000C8D4FE
(2.073000) can0 2E1#FB1FB04999A50900
(2.075000) can0 6A1#0000000000
(2.077000) can0 3AE#134000080000C01C
(2.079000) can0 7D5#3200000000000000
(2.081000) can0 1E5#286C0400000040BE
(2.083000) can0 31A#20010000000080BE
(2.085000) can0 7D5#48677F0000805B5B
(2.087000) can0 132#678DEBFDFC3B
(2.089000) can0 419#00
(2.091000) can0 249#AF0E0000
(2.093000) can0 37D#01560A5600000000
(2.095000) can0 3F5#0000C838820C0000
(2.097000) can0 287#4C4B4D4DD1020002
(2.098000) can0 3A1#C1FFFF6D3D005079
(2.102000) can0 1E5#286C04000000007E
(2.104000) can0 1F8#1A000000
(2.106000) can0 420#2801404B00000000
(2.107000) can0 401#2300000000000000
(2.109000) can0 1D8#29A600140000A05C
(2.111000) can0 264#3B000000A000
(2.113000) can0 224#0408004019011008
(2.115000) can0 441#C300B6C358001512
(2.121000) can0 132#6D8DEEFD133C
(2.123000) can0 22B#FFFF0100FEFFFFFF
(2.125000) can0 552#000000000000B007
(2.127000) can0 132#7A8DEFFD1D3C
(2.129000) can0 118#056D950000C824FE
(2.130000) can0 1E5#286C0400000060DE
(2.134000) can0 423#00001000000000
(2.141000) can0 2E1#398D2AFF0F000000
(2.145000) can0 2C3#555BA90680C112AA
(2.149000) can0 2E5#000021300000AD00
(2.153000) can0 266#230017461600E200
(2.155000) can0 719#EEC55F0063620014
(2.157000) can0 400#00E0FBBEEFFB00
(2.159000) can0 1D8#29A60014000040FC
(2.161000) can0 261#834D0A0000401525
(2.163000) can0 7D5#2B8FCFFF00000000
(2.165000) can0 3D8#45004000
(2.167000) can0 132#6B8DF0FD173C
(2.169000) can0 360#0400000000000000
(2.170000) can0 257#A35183820AA84101
(2.174000) can0 6A1#0000000000
(2.179000) can0 428#20001010000010
(2.183000) can0 118#9B62950000C8C4FF
(2.193000) can0 3A3#14D00000280DFC01
(2.195000) can0 2C1#1304900000000000
(2.197000) can0 132#738DF1FD183C
(2.199000) can0 3E2#040000613FCF00
(2.201000) can0 318#1A06280510113FC8
(2.203000) can0 43B#007F00FF00000000
(2.205000) can0 2D1#FF01
(2.207000) can0 2E5#000021300000AD00
(2.209000) can0 3A2#02A6FFFF03000000
(2.210000) can0 1E5#286C0400000060DE
(2.213000) can0 224#0408004019011008
(2.215000) can0 727#0200
(2.217000) can0 132#5E8DECFD0B3C
(2.220000) can0 1D8#29A60014000000BC
(2.222000) can0 553#0000000000002078
(2.223000) can0 1D5#29000000000000FF
(2.225000) can0 6C8#0100000000000000
(2.227000) can0 1F9#0000000000000000
(2.229000) can0 118#3067950000C854FF
(2.235000) can0 257#A65483820AA84101
(2.237000) can0 132#728DECFDFC3B
(2.239000) can0 2C2#2040C04B010080CB
(2.241000) can0 229#F90700
(2.242000) can0 292#670EE9E69A010000
(2.245000) can0 54F#0000000000000000
(2.247000) can0 372#0E00000C067B0000
(2.249000) can0 1D8#29A600140000601C
(2.252000) can0 666#0000C800
(2.254000) can0 395#091D1D501C110B7D
(2.256000) can0 719#0D00000000000000
(2.259000) can0 400#00E0FBBEEFFB00
(2.267000) can0 288#0106184C006061B6
(2.273000) can0 545#020001000000408D
(2.277000) can0 3A2#0110200000000000
(2.279000) can0 3AE#114000080000409A
(2.281000) can0 243#010071376E009393
(2.282000) can0 31A#20010000000090CE
(2.284000) can0 3A3#14D00000280DFC01
(2.287000) can0 2E5#000021300000AD00
(2.289000) can0 118#976D950000C8B400
(2.291000) can0 201#0200000000000000
(2.294000) can0 39A#7DFFFDFDFD01000A
(2.296000) can0 287#4C4B4D4DD1020003
(2.298000) can0 20C#0098330AE800300C
(2.304000) can0 709#1F00000000000000
(2.310000) can0 420#2801404B00000001
(2.312000) can0 3AE#0F400008000060B8
(2.314000) can0 3F9#0200000000000000
(2.316000) can0 441#C200B6C358002521
(2.317000) can0 2E5#000021300000AE00
(2.319000) can0 1D8#29A40014000040FA
(2.321000) can0 339#02F1FE008007800F
(2.324000) can0 247#330EFF0000000000
(2.326000) can0 2E5#000021300000AE00
(2.328000) can0 2E1#398D2AFF0F000000
(2.330000) can0 129#F52BFB5FFC1FFF3F
(2.332000) can0 422#700010000000
(2.334000) can0 119#00000000
(2.336000) can0 2C1#68347E00008A0200
(2.338000) can0 281#0000FF1F0000
(2.340000) can0 129#952CFB5FFC1FFF3F
(2.342000) can0 252#292A847700FC0F00
(2.343000) can0 54F#0000000000000000
(2.345000) can0 2E5#000021300000AE00
(2.347000) can0 132#758DFAFD1D3C
(2.349000) can0 118#7C63950000C8A4FF
(2.352000) can0 126#29E02E2C8A
(2.354000) can0 1D5#290000000000A09F
(2.356000) can0 788#01000000FFA1F812
(2.359000) can0 23E#00003AC002FF8FCA
(2.361000) can0 118#CC64950000C8F4FE
(2.362000) can0 448#20001010000010
(2.364000) can0 139#00
(2.366000) can0 2E5#000021300000AE00
(2.368000) can0 2A8#01010000060000B2
(2.370000) can0 129#A92FFB5FFC1FFF3F
(2.372000) can0 22B#FFFF0100FEFFFFFF
(2.374000) can0 3A2#0110200000000000
(2.376000) can0 102#22B3880494FAA009
(2.378000) can0 3AE#0F400008000081D9
(2.382000) can0 129#E120FB5FFD1FFF3F
(2.388000) can0 261#052233CA9A42F0E6
(2.394000) can0 263#6136D29F976F9A00
(2.399000) can0 2C1#1304900000000000
(2.401000) can0 118#1268950000C83400
(2.403000) can0 3D2#302F0703D8C82903
(2.405000) can0 381#1100000000000000
(2.407000) can0 3A2#02A6FFFF03000000
(2.413000) can0 118#F369950000C81400
(2.415000) can0 3FD#0000003C20000180
(2.418000) can0 333#0410890700
(2.420000) can0 129#5B24FB5FFF1FFF3F
(2.422000) can0 553#0000000000004098
(2.424000) can0 552#000000000000E037
(2.426000) can0 2E5#000021300000AE00
(2.428000) can0 3AE#0E4000080000A1F8
(2.430000) can0 129#4C25FB5FFF1FFF3F
(2.432000) can0 261#322A8C01805C22DD
(2.434000) can0 1D5#290000000000A09F
(2.436000) can0 2E5#000021300000AE00
(2.438000) can0 3AE#0D4000080000B006
(2.440000) can0 243#04FC8303D280FFFF
(2.442000) can0 266#200016461600E200
(2.444000) can0 1D5#290000000000C0BF
(2.446000) can0 439#0000000000185A04
(2.448000) can0 261#834D0A0000403545
(2.452000) can0 1D8#2996C0120000E04A
(2.458000) can0 397#E3FF7FD81C140000
(2.464000) can0 3FD#01000A0000080280
(2.469000) can0 1E5#286C04000000007E
(2.471000) can0 241#3C3C160F8F5500
(2.473000) can0 3A2#0110200000000000
(2.476000) can0 428#20001010000010
(2.478000) can0 3AE#0D4000080000C016
(2.480000) can0 1D8#2992401200004026
(2.482000) can0 31A#200100000000A0DE
(2.483000) can0 1D5#290000000000403F
(2.485000) can0 3A3#14C00000280DFC01
(2.487000) can0 195#400800000A002706
(2.490000) can0 419#00
(2.491000) can0 249#4C060000
(2.493000) can0 3F5#0000C838820C0000
(2.495000) can0 261#00100900FF4F60BD
(2.497000) can0 132#9B8D3BFE9F3C
(2.499000) can0 1D8#2990C011000080E3
(2.501000) can0 52F#000654580FE84740
(2.504000) can0 55A#0100000000000000
(2.506000) can0 3A2#02A6FFFF03000000
(2.513000) can0 118#6D63950000C89400
(2.521000) can0 3FD#02009E0000000090
(2.532000) can0 294#14C1400040000000
(2.534000) can0 1D5#290000000000E0DF
(2.536000) can0 3C8#0100000000000000
(2.538000) can0 2D2#022F954EFA0AE822
(2.540000) can0 1E5#286C04000000007E
(2.542000) can0 2C2#555BA90680C112AA
(2.544000) can0 261#834D0A00004095A5
(2.546000) can0 2E5#000021300000AE00
(2.548000) can0 234#2EE00230C1046000
(2.550000) can0 129#D021F75FF91FFF3F
(2.553000) can0 1D6#400800004A029808
(2.555000) can0 3C2#2955000000000000
(2.557000) can0 2E5#000021300000AE00
(2.559000) can0 400#00E0FBBEEFFB00
(2.561000) can0 261#B40E984C0040A480
(2.563000) can0 7D5#2B96DFFF00000000
(2.566000) can0 201#0104980000000000
(2.567000) can0 3C0#0400000000000000
(2.569000) can0 1D8#298880100000607A
(2.571000) can0 257#8F4583820AA04101
(2.573000) can0 103#22B38804A4EC2032
(2.575000) can0 428#20001010000010
(2.577000) can0 22B#FFFF0000FCFFFFFF
(2.579000) can0 1D8#298840100000805A
(2.586000) can0 266#1D0016461600E200
(2.592000) can0 27A#B7B90C01AC056202
(2.598000) can0 1D5#290000000000A09F
(2.600000) can0 1E5#286C0400000040BE
(2.602000) can0 7FF#0301082861428001
(2.604000) can0 1D5#290000000000C0BF
(2.607000) can0 420#2801404B00008002
(2.609000) can0 118#566D950000C874FF
(2.610000) can0 257#914783820AA04101
(2.612000) can0 2C4#0400000000C0704D
(2.614000) can0 3F9#0500000000000000
(2.616000) can0 2C1#0400000000000000
(2.618000) can0 4E2#025D040500002800
(2.620000) can0 1E5#286C04000000007E
(2.623000) can0 25B#D38000056A8600A3
(2.625000) can0 552#0000000000000057
(2.627000) can0 132#BA8D5FFEFF3C
(2.629000) can0 118#B86F950000C8D4FF
(2.630000) can0 1E5#286C04000000209E
(2.633000) can0 422#700010000000
(2.635000) can0 3C8#0200000000000000
(2.637000) can0 132#B98D5EFED33C
(2.639000) can0 2C2#2040C04B010080CB
(2.641000) can0 118#8960950000C8B4FF
(2.643000) can0 292#670EE9E69A010000
(2.644000) can0 712#012A570B260BDE0A
(2.646000) can0 2E5#000021300000AE00
(2.648000) can0 3A1#844C0FCA001C0287
(2.651000) can0 1D8#2982C00F000060B3
(2.653000) can0 279#27B8FC01AC056502
(2.655000) can0 1FA#1AC001
(2.657000) can0 381#1800000000000000
(2.659000) can0 1D8#2980001000008012
(2.661000) can0 266#1D0016461600E200
(2.664000) can0 2E1#0400000000102007
(2.666000) can0 201#0104980000000000
(2.668000) can0 2A8#01010000060030E2
(2.670000) can0 129#FA2DF75F0020FF3F
(2.671000) can0 2B3#037373E50600003C
(2.673000) can0 103#22B38804A2EC2032
(2.675000) can0 428#20001010000010
(2.677000) can0 23E#00003AC002FF0F4A
(2.680000) can0 1D8#297EC00F0000C00F
(2.682000) can0 221#60555515545111F8
(2.684000) can0 1D5#290000000000C0BF
(2.686000) can0 3A3#14D00000280DFC01
(2.688000) can0 1A5#00101F5025
(2.690000) can0 263#6136D29F976F9A00
(2.692000) can0 272#0380610000000000
(2.694000) can0 287#4C4B4D4DD3020003
(2.696000) can0 2C1#1304900000000000
(2.698000) can0 234#31E1038043009407
(2.700000) can0 1E5#286C04000000007E
(2.702000) can0 318#1A062905101129B3
(2.704000) can0 1F8#1A000000
(2.706000) can0 420#2801404B00000003
(2.708000) can0 372#05493B1500000000
(2.710000) can0 266#1C0016461500E200
(2.712000) can0 2C4#2522420800000020
(2.714000) can0 22A#0000B916
(2.716000) can0 3FD#0000003C20000180
(2.720000) can0 421#F21A0000002000
(2.722000) can0 3AE#0A400008000050A3
(2.724000) can0 1D5#290000000000403F
(2.726000) can0 2E5#000021300000AE00
(2.727000) can0 401#102A74935F936893
(2.729000) can0 118#6269950000C884FF
(2.731000) can0 257#763D838102984101
(2.733000) can0 423#00001000000000
(2.735000) can0 3C8#0300000000000000
(2.737000) can0 132#BE8D6CFE213D
(2.740000) can0 2D2#022F964EF90AE822
(2.741000) can0 252#252A867700FC0F00
(2.743000) can0 3B2#0400000000000000
(2.746000) can0 2E5#000021300000AE00
(2.748000) can0 234#2EE00231C504A045
(2.750000) can0 129#8025F75FFF1FFF3F
(2.759000) can0 55A#0200000000000000
(2.763000) can0 3FD#01000A0000080280
(2.781000) can0 266#1B0016451500E200
(2.785000) can0 122#01000000003F0000
(2.789000) can0 2E5#000021300000AE00
(2.790000) can0 1E5#286C04000000209E
(2.792000) can0 272#080005E907B00304
(2.794000) can0 3F5#0000C838820C0000
(2.801000) can0 2E5#000021300000AF00
(2.805000) can0 45A#2438393860473771
(2.810000) can0 2F9#BCFB072000000000
(2.815000) can0 289#C80E86429D003D8F
(2.817000) can0 3FD#02009E0000000090
(2.820000) can0 301#1F000000FFFFFFFF
(2.822000) can0 3AE#09400008000081D3
(2.824000) can0 2E1#026D66021C510000
(2.826000) can0 2E5#000021300000AF00
(2.827000) can0 372#0700000000000000
(2.829000) can0 1D8#297E400F0000A06F
(2.831000) can0 545#01000000001050AB
(2.833000) can0 423#00001000000000
(2.846000) can0 3C8#0400000000000000
(2.850000) can0 261#B40EA04C0040C4A8
(2.856000) can0 126#2188305454
(2.858000) can0 2D7#8C490105
(2.859000) can0 1D8#297E400F000000CF
(2.861000) can0 340#0400000000000000
(2.863000) can0 545#02000200000060AE
(2.865000) can0 3B3#8C8004300100A800
(2.867000) can0 401#172AA893BC93BF93
(2.869000) can0 118#6167950000C88400
(2.871000) can0 241#3C3C160F8F5500
(2.873000) can0 103#22B38804A4EC2032
(2.875000) can0 428#20001010000010
(2.877000) can0 132#C38D62FEF83C
(2.879000) can0 1D8#297C000F000040CD
(2.882000) can0 243#010071376E009393
(2.884000) can0 3A3#16D00000280DFC01
(2.886000) can0 2E5#000021300000AF00
(2.888000) can0 3AE#094000080000A0F2
(2.890000) can0 1D8#297C000F000060ED
(2.892000) can0 21D#0400B50000000000
(2.894000) can0 39A#71FFFDFDFD01000A
(2.896000) can0 75D#0100000000000080
(2.898000) can0 132#C58D68FE1D3D
(2.904000) can0 376#FBFFFBFFFB0F7004
(2.906000) can0 4E3#0452000506580000
(2.908000) can0 2E5#000021300000AF00
(2.910000) can0 1D8#297A000F0000A02B
(2.912000) can0 264#3A000000A000
(2.915000) can0 3FD#0000003C20000180
(2.918000) can0 224#0408004019011008
(2.920000) can0 243#030000001B775700
(2.922000) can0 553#00000000000090E8
(2.924000) can0 247#3D0EFF0000000000
(2.930000) can0 2E5#000021300000AF00
(2.932000) can0 422#700010000000
(2.934000) can0 1D5#290000000000E0DF
(2.936000) can0 2E1#FB1FAE4999A50900
(2.938000) can0 7A8#C8CCC18300008200
(2.940000) can0 1D8#2978800E00000008
(2.941000) can0 249#CE0F0000
(2.943000) can0 1D5#29000000000000FF
(2.946000) can0 228#0106184C0060C1B6
(2.949000) can0 234#2DE00230C104E07F
(2.955000) can0 1E5#286C04000000209E
(2.957000) can0 788#01000000FFA1F812
(2.959000) can0 1D8#2976800E00004046
(2.961000) can0 261#052233CA9A423026
(2.962000) can0 545#02000200000090DE
(2.965000) can0 3FD#01000A0000080280
(2.968000) can0 441#4B8589003200180C
(2.970000) can0 360#0100000000000000
(2.972000) can0 257#7A39838102A04101
(2.973000) can0 103#22B38804A2EC2032
(2.975000) can0 428#20001010000010
(2.979000) can0 677#0300000000000000
(2.983000) can0 243#010070376E009393
(2.990000) can0 3A3#16D00000280DFC01
(2.996000) can0 257#733A838102984101
(2.998000) can0 234#31E103804300F467
(3.004000) can0 243#02FCA31004A80000
(3.006000) can0 420#2801404B00008004
(3.008000) can0 261#322A8C01805C621D
(3.009000) can0 129#A12FF05FF51FFF3F
(3.018000) can0 3FD#02009E0000000090
(3.029000) can0 289#C80E064386003D8F
(3.033000) can0 2B3#6900F04764000402
(3.037000) can0 119#00000000
(3.041000) can0 2C2#2040C04B010080CB
(3.043000) can0 2D2#022F974EF80AE822
(3.045000) can0 54F#0000000000000000
(3.048000) can0 132#F78DB9FEAE3D
(3.050000) can0 129#C423F05FFA1FFF3F
(3.052000) can0 128#0000EC0A02
(3.054000) can0 2E8#0101000006008072
(3.056000) can0 78A#010000001A13060D
(3.058000) can0 400#00E0FBBEEFFB00
(3.060000) can0 129#EF24F05FFB1FFF3F
(3.061000) can0 283#000900004100
(3.063000) can0 315#5B2BD02640005004
(3.065000) can0 3B6#A1AFDB0C0000E0D0
(3.067000) can0 132#F08DA3FEB13D
(3.070000) can0 118#E36B950000C804FE
(3.072000) can0 261#00100700FF4FA0FB
(3.074000) can0 367#0000000000000000
(3.077000) can0 36B#0000000000000000
(3.079000) can0 7D7#3236000000000000
(3.081000) can0 129#6526F05FFE1FFF3F
(3.083000) can0 31A#200100000000D00E
(3.084000) can0 3A3#16D00000280DFC01
(3.086000) can0 2E5#000021300000AF00
(3.088000) can0 261#3100E2FFAF49BABA
(3.090000) can0 263#6136D29F976F9A00
(3.092000) can0 272#0380610000000000
(3.094000) can0 39A#75FFFDFDFD01000A
(3.097000) can0 33D#1A290ABE874AFA98
(3.099000) can0 3C2#0055555500006A05
(3.101000) can0 129#9528F15F0020FF3F
(3.103000) can0 458#00002000000000
(3.105000) can0 234#31E1038043001487
(3.107000) can0 401#2300000000000000
(3.109000) can0 118#486F950000C864FF
(3.111000) can0 204#010000FF00000010
(3.113000) can0 2E1#026D66021C510000
(3.115000) can0 421#F21A0000002000
(3.117000) can0 2E5#000021300000AE00
(3.119000) can0 7B5#000000
(3.121000) can0 261#834D0A000040D5E5
(3.123000) can0 380#0000004000000000
(3.127000) can0 247#410EFF0000000000
(3.133000) can0 118#5961950000C884FE
(3.139000) can0 3C8#0000000000000000
(3.143000) can0 118#0B62950000C834FF
(3.146000) can0 228#0106184C0060E1D6
(3.148000) can0 2E3#F7D34F3F010000
(3.150000) can0 129#772DF25F0320FF3F
(3.152000) can0 128#0000EC0A02
(3.154000) can0 395#091D1D501C110B7D
(3.155000) can0 719#0003140F14070E00
(3.157000) can0 132#198EDEFEFF3D
(3.159000) can0 1D8#2954800A0000C0A0
(3.161000) can0 2E1#6580080075DC306A
(3.163000) can0 7D5#2BB00F0000000000
(3.166000) can0 139#00
(3.168000) can0 3C0#0A00000000000000
(3.170000) can0 129#592FF25F0320FF3F
(3.172000) can0 37A#D00C000000000000
(3.173000) can0 103#22B38804A2EC2032
(3.178000) can0 428#20001010000010
(3.184000) can0 1E5#286C04000000007E
(3.188000) can0 3A3#14D00000280DFC01
(3.194000) can0 263#6136D29F976F9A00
(3.196000) can0 381#0C00000000000000
(3.198000) can0 234#31E10380430034A7
(3.204000) can0 129#D022F25F0420FF3F
(3.206000) can0 420#2801404B00008005
(3.208000) can0 2E1#026D66021C510000
(3.210000) can0 129#3323F35F0420FF3F
(3.212000) can0 2B4#4805390E5A01
(3.214000) can0 313#0264640500009075
(3.216000) can0 201#0300000000000000
(3.218000) can0 4E2#01400EFF0F002800
(3.221000) can0 243#030000001B775700
(3.223000) can0 3E9#008822000000D066
(3.225000) can0 552#00000000000060B7
(3.227000) can0 132#1E8EF8FE063E
(3.229000) can0 118#D46B950000C8F4FF
(3.231000) can0 1E5#286C04000000209E
(3.232000) can0 3A2#602573C01C00436C
(3.234000) can0 39D#FD55E12700
(3.236000) can0 3C8#0100000000000000
(3.239000) can0 2D2#012F994EF70AE822
(3.241000) can0 229#440100
(3.243000) can0 439#0000000000185A04
(3.245000) can0 228#0106184C0060F1E6
(3.246000) can0 132#1E8EE1FE1E3E
(3.249000) can0 3A1#844C0FCA001CC247
(3.251000) can0 666#0000C800
(3.253000) can0 268#75158E01FF
(3.255000) can0 1D5#290000000000E0DF
(3.257000) can0 2E1#6580080075DC306A
(3.259000) can0 78A#0100020061066206
(3.262000) can0 266#0E0015451400E300
(3.268000) can0 2D3#590053031B125775
(3.274000) can0 263#700ED29FA7AF1A00
(3.279000) can0 2C1#0219060000D00A00
(3.285000) can0 243#010071376E009393
(3.289000) can0 2E5#000021300000AF00
(3.295000) can0 21D#0400B50000000000
(3.300000) can0 2E5#000021300000B000
(3.302000) can0 719#0CAB0F005B0B6000
(3.304000) can0 1D5#290000000000807F
(3.306000) can0 2E5#000021300000B000
(3.308000) can0 118#8B63950000C8B4FE
(3.310000) can0 129#C62DF25FFF1FFF3F
(3.312000) can0 3AE#07400008000090E0
(3.314000) can0 253#0064A6C66490B505
(3.316000) can0 421#F21A0000002000
(3.319000) can0 4E2#025D040000002800
(3.321000) can0 118#0D64950000C834FF
(3.323000) can0 1D5#290000000000C0BF
(3.325000) can0 545#010000000010409B
(3.326000) can0 132#548E40FFB73E
(3.328000) can0 383#9118340069502103
(3.330000) can0 257#6C3B838102904101
(3.333000) can0 423#00001000000000
(3.335000) can0 2E1#0400000000102007
(3.337000) can0 677#0200000000000000
(3.339000) can0 2C2#555BA90680C112AA
(3.341000) can0 229#520200
(3.343000) can0 2F2#1201
(3.344000) can0 2AA#572023
(3.352000) can0 2E5#000021300000B000
(3.354000) can0 45A#FD07F8FF03000625
(3.356000) can0 788#0240C40700030000
(3.358000) can0 379#0A00000009000C03
(3.359000) can0 1E5#286C0400000040BE
(3.361000) can0 288#0106184C00601166
(3.363000) can0 7D5#3200000000000000
(3.366000) can0 441#4B8589003200382C
(3.368000) can0 2E1#1021040010000004
(3.370000) can0 129#6923F05FFB1FFF3F
(3.372000) can0 6A1#0000000000
(3.374000) can0 1D5#290000000000605F
(3.376000) can0 261#3100DFFFB049DAD8
(3.377000) can0 677#0300000000000000
(3.382000) can0 1E5#286C04000000007E
(3.392000) can0 1D5#290000000000807F
(3.399000) can0 39A#182BE78E1317CF7E
(3.400000) can0 118#C46C950000C8E4FE
(3.402000) can0 7FF#024612289C5181C2
(3.404000) can0 1D5#290000000000C0BF
(3.406000) can0 2E5#000021300000B100
(3.409000) can0 372#001F003EF2117423
(3.411000) can0 263#020040C810414221
(3.413000) can0 381#5200000000000A02
(3.415000) can0 3FD#0000003C20000180
(3.418000) can0 04F#252598B34724170C
(3.420000) can0 129#D028F05FFC1FFF3F
(3.422000) can0 3E8#0000000000000000
(3.424000) can0 552#00000000000080D7
(3.426000) can0 2E5#000021300000B100
(3.428000) can0 1F9#0000000000000000
(3.430000) can0 129#2829F05FFD1FFF3F
(3.432000) can0 2E1#0400000000102007
(3.434000) can0 423#00001000000000
(3.436000) can0 2C1#68347E00008A0200
(3.438000) can0 7A8#0240C007000F0000
(3.440000) can0 243#04FC7303D280FFFF
(3.442000) can0 22B#7F000000FEFFFFFF
(3.444000) can0 2AA#573033
(3.446000) can0 2E5#000021300000B100
(3.448000) can0 2E1#6580080075DC306A
(3.452000) can0 1D8#292800050000608F
(3.458000) can0 2B6#000300
(3.464000) can0 1E5#286C04000000007E
(3.468000) can0 3FD#01000A0000080280
(3.471000) can0 201#0104980000000000
(3.473000) can0 1D5#290000000000A09F
(3.475000) can0 428#20001010000010
(3.477000) can0 132#698E5AFF1F3F
(3.479000) can0 1D8#292240050000C029
(3.481000) can0 243#010071376E009393
(3.483000) can0 1D5#290000000000C0BF
(3.485000) can0 3A3#16D00000280DFC01
(3.487000) can0 132#778E61FF2B3F
(3.490000) can0 419#00
(3.491000) can0 249#E20A0000
(3.493000) can0 39A#7DFFFDFDFD01000A
(3.495000) can0 2E1#026D66021C510000
(3.497000) can0 677#0100000000000000
(3.499000) can0 40A#091000000000C0E7
(3.501000) can0 3ED#00
(3.503000) can0 113#019701
(3.509000) can0 7F4#01
(3.517000) can0 3FD#02009E0000000090
(3.530000) can0 264#3B000000A000
(3.536000) can0 221#6105555501052059
(3.540000) can0 281#0000FF1F0000
(3.542000) can0 292#670AE9E69A010000
(3.544000) can0 392#000B000000000000
(3.545000) can0 228#0106184C00602116
(3.547000) can0 401#072A3A945B944494
(3.549000) can0 1D8#2918C0030000A07D
(3.551000) can0 126#1820300C9B
(3.553000) can0 279#28B1FC01B4056502
(3.555000) can0 45A#FD07F8FF03000625
(3.557000) can0 545#020003000000B0FF
(3.559000) can0 7AA#04000FC000260000
(3.561000) can0 266#020014431500E300
(3.563000) can0 448#20001010000010
(3.565000) can0 238#8839F63C3E000873
(3.568000) can0 132#928EB0FFA63F
(3.570000) can0 129#6F27F35F0420FF3F
(3.572000) can0 6A1#0000000000
(3.574000) can0 1D5#290000000000E0DF
(3.576000) can0 428#20001010000010
(3.578000) can0 359#03000000FF010000
(3.580000) can0 123#00001392D2000000
(3.582000) can0 2F1#113E011201160600
(3.583000) can0 1D5#29000000000000FF
(3.585000) can0 3A3#14D00000280DFC01
(3.587000) can0 3AE#0840000800003182
(3.589000) can0 419#00
(3.591000) can0 21D#0400B50000000000
(3.593000) can0 287#4C4B4D4DD7020004
(3.601000) can0 1D5#290000000000201F
(3.605000) can0 1D5#290000000000403F
(3.609000) can0 2F9#BCFB07030D1A8B84
(3.614000) can0 257#4219838102884101
(3.616000) can0 7B1#0224232121212121
(3.618000) can0 132#9D8EC0FFEE3F
(3.620000) can0 1E5#286C04000000007E
(3.621000) can0 553#0000000000000058
(3.623000) can0 1D5#290000000000807F
(3.625000) can0 247#520EFF0000000000
(3.627000) can0 3AE#0840000800004192
(3.629000) can0 118#DC63950000C804FF
(3.631000) can0 2B3#E24900D850A00000
(3.633000) can0 1D5#290000000000A09F
(3.636000) can0 3C8#0500000000000000
(3.638000) can0 2C2#2040C04B010080CB
(3.640000) can0 118#8C64950000C8B4FE
(3.642000) can0 292#670AE9E69A010000
(3.644000) can0 1D5#290000000000C0BF
(3.646000) can0 2E5#000021300000B100
(3.648000) can0 22B#07000000F8FFFFFF
(3.650000) can0 129#812FF25F0020FF3F
(3.652000) can0 263#04000000A01C0000
(3.654000) can0 409#00
(3.656000) can0 545#020003000000E02F
(3.657000) can0 132#9A8EA7FFAC3F
(3.659000) can0 1E5#286C04000000007E
(3.661000) can0 3A2#0110200000000000
(3.664000) can0 7D7#3235000000000000
(3.667000) can0 7B1#0321020202010202
(3.669000) can0 360#0800000000000000
(3.671000) can0 263#700ED29FA7AF1A00
(3.673000) can0 1D5#290000000000201F
(3.675000) can0 428#20001010000010
(3.677000) can0 132#9F8EC5FFC13F
(3.678000) can0 359#0400000000000000
(3.680000) can0 118#9168950000C8B4FF
(3.682000) can0 2F1#3226008700010000
(3.684000) can0 3A3#16D00000280DFC01
(3.686000) can0 211#A410710F0001
(3.688000) can0 27A#BEB40C01B8056202
(3.690000) can0 1D8#290C8001000060EF
(3.693000) can0 21D#0400B50000000000
(3.695000) can0 3A2#02A6FFFF03000000
(3.697000) can0 22B#03000000F8FFFFFF
(3.704000) can0 40A#091000000000D0F7
(3.706000) can0 420#2801404B00000000
(3.708000) can0 401#0F2AFC931994F293
(3.709000) can0 129#1125F25F0120FF3F
(3.711000) can0 264#3A000000A000
(3.713000) can0 1D5#290000000000A09F
(3.715000) can0 3FD#0000003C20000180
(3.718000) can0 441#C200B6C358001511
(3.720000) can0 118#346C950000C854FE
(3.723000) can0 545#010000000010005B
(3.725000) can0 7B1#0403030404040000
(3.727000) can0 132#AB8EBCFFC83F
(3.730000) can0 118#A56D950000C8C4FE
(3.731000) can0 221#6105555501056099
(3.733000) can0 1D5#290000000000E0DF
(3.735000) can0 2E1#6580080076DC306A
(3.737000) can0 132#B38EDDFF3440
(3.739000) can0 212#5904000081FF7731
(3.741000) can0 201#003D3D000082FF00
(3.743000) can0 439#0000000000185A04
(3.745000) can0 228#0106184C00604136
(3.747000) can0 22B#01000000F8FFFFFF
(3.749000) can0 3A1#844C0FCA001862E3
(3.758000) can0 266#FE0715421500E400
(3.764000) can0 3FD#01000A0000080280
(3.772000) can0 1E5#286C0400000040BE
(3.781000) can0 428#20001010000010
(3.785000) can0 122#01000000003F0000
(3.791000) can0 186#B005000200D62725
(3.793000) can0 393#080004D107B00304
(3.795000) can0 3F5#0000C838830C0000
(3.797000) can0 282#7CD0410708F40224
(3.799000) can0 3A1#C1FFFF653D007091
(3.801000) can0 318#1A062A0510113FCA
(3.803000) can0 45A#2438393860483771
(3.805000) can0 420#2801404B00008000
(3.809000) can0 2F9#BCFB07100D1A8B84
(3.815000) can0 3FD#02009C0000000090
(3.821000) can0 204#010000FF00000010
(3.826000) can0 1D5#29000000000000FF
(3.831000) can0 1F9#0000000000000000
(3.837000) can0 1D5#290000000000201F
(3.843000) can0 2C2#2040C04B010080CB
(3.846000) can0 228#0106184C00605146
(3.848000) can0 2E1#1021040010000004
(3.850000) can0 266#FE0714421500E400
(3.852000) can0 1D6#400800004A029808
(3.854000) can0 1D5#290000000000605F
(3.856000) can0 225#5555FA00
(3.859000) can0 379#03C00D4833B92200
(3.861000) can0 118#336A950000C854FF
(3.863000) can0 78A#01000100DC5CCC5D
(3.865000) can0 473#0000030000000000
(3.867000) can0 7AA#0800000018011B0E
(3.869000) can0 360#0A00000000000000
(3.871000) can0 37A#CBE0010000000000
(3.873000) can0 1D5#290000000000A09F
(3.875000) can0 428#20001010000010
(3.877000) can0 132#B08ED7FFA03F
(3.879000) can0 359#0700000000000000
(3.881000) can0 243#010071376E009393
(3.883000) can0 3D3#000000
(3.884000) can0 211#A612710F0001
(3.887000) can0 2E5#000021300000B200
(3.889000) can0 118#A46D950000C8C4FD
(3.891000) can0 263#6136D29F976F9A00
(3.893000) can0 393#0380610000000000
(3.895000) can0 3F5#0000C838830C0000
(3.897000) can0 2E5#000021310000B200
(3.899000) can0 376#FBFFFBFFFB0F7004
(3.901000) can0 118#366E950000C854FE
(3.903000) can0 40A#091000000000E007
(3.905000) can0 261#B40E904C0040E4B8
(3.907000) can0 757#3200000000000000
(3.909000) can0 132#CD8EF9FF3A40
(3.911000) can0 1E5#286C04000000209E
(3.913000) can0 2B4#48054B0E5E01
(3.916000) can0 3FD#0000003C20000180
(3.919000) can0 3F9#0000000000000000
(3.921000) can0 243#030000001B775700
(3.923000) can0 1D5#290000000000403F
(3.925000) can0 552#000000000000D027
(3.927000) can0 247#570EFF0000000000
(3.929000) can0 1D8#29EC3FFF07006093
(3.931000) can0 2EC#57A0E5
(3.933000) can0 7AA#0953075307010000
(3.935000) can0 261#00100600FF4F005A
(3.937000) can0 677#0200000000000000
(3.939000) can0 2C2#555BA90680C112AA
(3.942000) can0 229#4C0800
(3.944000) can0 54F#0000000000000000
(3.945000) can0 2E5#000021310000B200
(3.947000) can0 234#2EE00231C50420C5
(3.949000) can0 118#AA63950000C8D4FD
(3.951000) can0 126#1DE82F2C87
(3.953000) can0 268#74158E01FF
(3.955000) can0 397#D3FFFFD618060000
(3.958000) can0 43B#037F00FF00000000
(3.960000) can0 1D8#29EA3FFE0700C0F0
(3.962000) can0 288#0106184C006071C6
(3.964000) can0 207#000012000E000000
(3.966000) can0 3FD#01000A0000080280
(3.970000) can0 2F3#0D0D0B0400600002
(3.972000) can0 1E5#286C0400000060DE
(3.976000) can0 2E1#026D66021C510000
(3.980000) can0 359#080400008F74393F
(3.986000) can0 2F1#025AED8043000000
(3.992000) can0 27A#B0B7FC00B8056202
(3.994000) can0 3A2#02A6FFFF03000000
(3.996000) can0 2C1#1304900000000000
(3.998000) can0 20C#0098330AE800300C
(4.000000) can0 1D8#29EAFFFC0700402E
(4.002000) can0 266#F90714431500E400
(4.004000) can0 1D5#290000000000403F
(4.006000) can0 2E5#000021310000B200
(4.008000) can0 2E1#0400000000102007
(4.011000) can0 129#E923F25FFE1FFF3F
(4.013000) can0 343#009264DE97000000
(4.015000) can0 3FD#02009C0000000090
(4.021000) can0 7AA#0A3F063F06005800
(4.030000) can0 1D5#290000000000807F
(4.036000) can0 261#00100600FF4F60BA
(4.041000) can0 281#0000FF1F0000
(4.043000) can0 312#D1214817408DB800
(4.045000) can0 228#0106184C00607166
(4.047000) can0 234#31F00231C50440F8
(4.049000) can0 118#856D950000C8A4FE
(4.051000) can0 126#1B8830342E
(4.053000) can0 401#2000000000000000
(4.056000) can0 45A#FD07F8FF03000725
(4.058000) can0 379#050059B8800D0000
(4.060000) can0 243#00FCCFCC99260E29
(4.062000) can0 242#55558600
(4.064000) can0 315#5B2BD02640005004
(4.066000) can0 3B6#C5AFDB0C0000F004
(4.068000) can0 335#1F00000000000000
(4.070000) can0 118#066F950000C824FD
(4.072000) can0 241#3C3C160F8F5500
(4.074000) can0 3E5#0000000000000000
(4.076000) can0 36B#0000000000000000
(4.078000) can0 23E#00003AC002FF3F7A
(4.080000) can0 1D8#29E6FFFC0700402A
(4.082000) can0 266#F80714431500E500
(4.085000) can0 1D5#290000000000403F
(4.087000) can0 186#8908000200AC2725
(4.089000) can0 39B#0318FF80B08490FC
(4.091000) can0 1E5#286C0400000060DE
(4.092000) can0 393#0380610000000000
(4.094000) can0 1D5#290000000000605F
(4.096000) can0 261#B40E804C0040A468
(4.098000) can0 20C#0098330AE800300C
(4.104000) can0 243#02FCAB1004A80000
(4.106000) can0 420#2801404B00000002
(4.113000) can0 2D3#590053031B125775
(4.119000) can0 284#300000004008B0AE
(4.124000) can0 243#030000001B775700
(4.126000) can0 247#5B0EFF0000000000
(4.129000) can0 261#00100500FF4FC019
(4.131000) can0 2EC#57C005
(4.133000) can0 1D5#290000000000E0DF
(4.135000) can0 2E1#1021040010000004
(4.137000) can0 2E5#000021310000B300
(4.139000) can0 2C2#555BA90680C112AA
(4.141000) can0 229#F60A00
(4.143000) can0 2F2#1201
(4.145000) can0 228#0106184C00608176
(4.146000) can0 132#098F3400A040
(4.150000) can0 3AE#00400008000081CA
(4.152000) can0 128#0000EC0A02
(4.154000) can0 397#D3FFFFD618060000
(4.156000) can0 1FA#1AC001
(4.158000) can0 132#038F3E00BB40
(4.160000) can0 118#1168950000C834FF
(4.162000) can0 242#55558600
(4.168000) can0 1D5#290000000000403F
(4.170000) can0 129#CF23EF5F0020FF3F
(4.172000) can0 6A1#0000000000
(4.174000) can0 1D5#290000000000605F
(4.176000) can0 428#20001010000010
(4.177000) can0 359#0A00000000000000
(4.179000) can0 1E5#286C04000000007E
(4.181000) can0 2F1#04DAEA8043000000
(4.188000) can0 1D5#290000000000807F
(4.194000) can0 1D8#29E6FFFC0700A08A
(4.199000) can0 2C1#1304900000000000
(4.202000) can0 113#019701
(4.204000) can0 381#0D00000000000000
(4.210000) can0 2E5#000021310000B400
(4.212000) can0 224#0408004019011008
(4.214000) can0 3F9#0300000000000008
(4.216000) can0 3C3#0000000000A50000
(4.218000) can0 132#028F4A00BC40
(4.220000) can0 1E5#286C04000000007E
(4.221000) can0 553#00000000000060B8
(4.223000) can0 1D5#29000000000000FF
(4.225000) can0 6C8#0100000000000000
(4.228000) can0 132#078F4200AB40
(4.230000) can0 263#0300000000000000
(4.232000) can0 2E1#1021040010000004
(4.234000) can0 39D#065EE12700
(4.236000) can0 3C8#0400000000000000
(4.238000) can0 23E#00003AC002FF7FBA
(4.240000) can0 129#532AEE5FFF1FFF3F
(4.242000) can0 252#F5298F7700FC0F00
(4.244000) can0 1D5#290000000000403F
(4.246000) can0 2E5#000021310000B400
(4.248000) can0 372#0E00000C067B0000
(4.250000) can0 129#3C2BED5FFE1FFF3F
(4.256000) can0 414#1233585646544756
(4.258000) can0 379#07408A11DDC01406
(4.260000) can0 1E5#286C04000000007E
(4.262000) can0 283#000900004100
(4.265000) can0 2E1#026D66021C510000
(4.268000) can0 3C0#0A00000000000000
(4.274000) can0 266#F70714441400E600
(4.278000) can0 428#20001010000010
(4.284000) can0 1E5#286C0400000040BE
(4.288000) can0 3A3#16D00000280DFC01
(4.290000) can0 1D8#29E23FFC0700E006
(4.292000) can0 249#E20A0000
(4.294000) can0 393#0380610000000000
(4.295000) can0 7E8#1303000000000000
(4.297000) can0 132#0B8F39009B40
(4.299000) can0 1D8#29E07FFC07000064
(4.301000) can0 266#F80714431500E600
(4.304000) can0 1D5#29000000000000FF
(4.307000) can0 420#2801404B00000003
(4.309000) can0 118#BD67950000C8E4FC
(4.311000) can0 257#849C828102484101
(4.313000) can0 224#0408004019011008
(4.315000) can0 22A#0000F916
(4.317000) can0 201#0300000000000000
(4.319000) can0 1D8#29E07FFC070040A4
(4.321000) can0 261#00100500FF4F80D9
(4.323000) can0 1D5#290000000000403F
(4.324000) can0 552#0000000000001067
(4.326000) can0 132#088F4600C340
(4.328000) can0 383#9118340069502103
(4.330000) can0 257#7D9D828102404101
(4.333000) can0 1D5#290000000000605F
(4.336000) can0 261#31001200B0499ACC
(4.337000) can0 281#0000FF1F0000
(4.339000) can0 1E5#286C04000000007E
(4.341000) can0 252#F029907700FC0F00
(4.343000) can0 54F#0000000000000000
(4.345000) can0 228#0106184C0060A196
(4.347000) can0 132#058F4400B840
(4.349000) can0 381#1100000000000000
(4.351000) can0 108#9809FFA3FF992725
(4.353000) can0 268#74148E01FF
(4.355000) can0 395#091D1D501D120B7D
(4.356000) can0 225#5555FA00
(4.358000) can0 719#EEC55A0062620014
(4.361000) can0 1E5#286C0400000040BE
(4.364000) can0 2E1#026D66021C510000
(4.366000) can0 7D5#3200000000000000
(4.367000) can0 3C0#0000000000000000
(4.369000) can0 1D8#29E0BFFC0700E084
(4.371000) can0 37A#D00D000000000000
(4.373000) can0 1D5#290000000000E0DF
(4.375000) can0 428#20001010000010
(4.377000) can0 132#F88E3C00A440
(4.379000) can0 359#0D00000000000000
(4.381000) can0 266#F80714431400E600
(4.383000) can0 122#01000000003F0000
(4.389000) can0 287#4C4B4D4DDA020004
(4.391000) can0 201#0200000000000000
(4.399000) can0 41D#00
(4.405000) can0 243#02FCA31004A80000
(4.410000) can0 2F9#BCFB07100D1A8B84
(4.412000) can0 2C4#018000D200000000
(4.414000) can0 22A#0000F916
(4.416000) can0 3FD#0000003C20000180
(4.419000) can0 441#C800B6C358000D0F
(4.421000) can0 118#C962950000C8F4FD
(4.423000) can0 553#00000000000080D8
(4.424000) can0 552#0000000000002077
(4.426000) can0 132#0D8F32009040
(4.428000) can0 3AE#0640000800002170
(4.430000) can0 263#0300000000000000
(4.433000) can0 362#000000
(4.435000) can0 2C1#68347E00008A0200
(4.437000) can0 132#088F35008A40
(4.439000) can0 1E5#286C0400000040BE
(4.441000) can0 249#130D0000
(4.443000) can0 2F2#1201
(4.445000) can0 228#0106184C0060B1A6
(4.447000) can0 132#0A8F39009640
(4.449000) can0 3A8#0103000700020100
(4.451000) can0 108#7D2AFF93FF6D2725
(4.453000) can0 409#00
(4.455000) can0 1D5#290000000000E0DF
(4.457000) can0 225#5555FA00
(4.459000) can0 677#0000000000000000
(4.463000) can0 207#000012000A000000
(4.469000) can0 3FD#01000A0000080280
(4.475000) can0 441#4B85890032001004
(4.481000) can0 2E5#000020310000B200
(4.483000) can0 122#00001392D2000000
(4.485000) can0 287#4C4B4D4DDA020004
(4.487000) can0 186#4A0C000200692725
(4.488000) can0 401#042A219520951C95
(4.490000) can0 266#F90714431400E500
(4.492000) can0 272#0380610000000000
(4.494000) can0 3F5#0000C838830C0000
(4.496000) can0 2C1#1304900000000000
(4.498000) can0 20C#0078330AE800300C
(4.501000) can0 243#02FCA31004A80000
(4.503000) can0 52F#000654581006CBC0
(4.505000) can0 458#00002000000000
(4.507000) can0 2E5#000020310000B400
(4.509000) can0 118#B46B950000C8D4FF
(4.511000) can0 289#C80C850382003D8F
(4.513000) can0 545#01000000001080DB
(4.515000) can0 3FD#02009C0000000090
(4.528000) can0 421#F21A0000002000
(4.532000) can0 1D8#29E4FFFC0700E0C8
(4.540000) can0 1D5#290000000000E0DF
(4.546000) can0 2C2#555BA90680C112AA
(4.552000) can0 234#2EE00231C504E085
(4.558000) can0 45A#FD07F8FF03000725
(4.559000) can0 1E5#286C0400000040BE
(4.561000) can0 288#0106184C0060D126
(4.563000) can0 3AE#08400008000081D2
(4.565000) can0 7D7#3235000000000000
(4.568000) can0 401#082A279520951895
(4.570000) can0 1E5#286C0400000060DE
(4.572000) can0 6A1#0000000000
(4.574000) can0 302#20000000FFFFFFFF
(4.576000) can0 428#20001010000010
(4.578000) can0 359#0F0000007F000000
(4.580000) can0 123#00001392D2000000
(4.582000) can0 2F1#0802003004C80300
(4.584000) can0 1D5#290000000000807F
(4.588000) can0 3A3#14D00000280DFC01
(4.594000) can0 266#F80714431400E500
(4.600000) can0 2C1#1304900000000000
(4.604000) can0 381#1800000000000000
(4.606000) can0 420#2801404B00008004
(4.609000) can0 3AE#054000080000A1EF
(4.611000) can0 257#2A5B828002304101
(4.612000) can0 224#0408004019011008
(4.614000) can0 3F9#0700000000000000
(4.616000) can0 2C1#0400000000000000
(4.618000) can0 3A2#602573C11C00436C
(4.620000) can0 118#0F66950000C834FF
(4.622000) can0 1D5#29000000000000FF
(4.625000) can0 261#31000300B049BADD
(4.627000) can0 132#0A8F3D009840
(4.629000) can0 6A2#0000000000
(4.631000) can0 263#0300000000000000
(4.632000) can0 422#700010000000
(4.634000) can0 39D#0058E12700
(4.636000) can0 381#1900000000000000
(4.639000) can0 23E#00003AC002FF1F5A
(4.641000) can0 229#3B0F00
(4.643000) can0 252#E329927700FC0F00
(4.645000) can0 712#012A570B270BDF0A
(4.646000) can0 132#0E8F3C009840
(4.648000) can0 24A#03
(4.650000) can0 263#04000000A01C0000
(4.653000) can0 1D6#000800004A029808
(4.655000) can0 401#0C2A0B9503951095
(4.657000) can0 2E5#000021310000B600
(4.659000) can0 400#00E0FBBEEFFB00
(4.661000) can0 118#816A950000C8A4FD
(4.663000) can0 7D5#2B0C700000000000
(4.664000) can0 286#FFFFFFFF31
(4.667000) can0 2E5#000021310000B600
(4.669000) can0 360#0700000000000000
(4.671000) can0 241#3B3CD60E8F5500
(4.673000) can0 1D5#290000000000A09F
(4.675000) can0 428#20001010000010
(4.677000) can0 132#0B8F4500B040
(4.679000) can0 359#1000000000000000
(4.681000) can0 243#010070376E009292
(4.683000) can0 1D5#290000000000C0BF
(4.685000) can0 3A3#12D00000280DFC01
(4.687000) can0 132#148F4000A140
(4.689000) can0 118#C56D950000C8E4FE
(4.691000) can0 263#6136D29F976F9A00
(4.693000) can0 41D#00
(4.695000) can0 407#0E03000000000000
(4.698000) can0 282#74D0410700F40224
(4.704000) can0 1E5#286C04000000007E
(4.706000) can0 420#2801404B00000005
(4.708000) can0 381#A0A00690D500B210
(4.710000) can0 1D8#29E23FFC07002046
(4.712000) can0 1E5#286C04000000209E
(4.714000) can0 3FD#0000003C20000180
(4.717000) can0 1D5#290000000000201F
(4.719000) can0 4E2#025D040000002800
(4.721000) can0 266#F80714431400E600
(4.723000) can0 20A#F61509821801
(4.725000) can0 2E5#000021310000B300
(4.727000) can0 132#158F3B009A40
(4.729000) can0 118#0861950000C834FD
(4.732000) can0 257#3861828002384101
(4.733000) can0 423#00001000000000
(4.735000) can0 261#322A8C01805C22DD
(4.737000) can0 132#158F4600B140
(4.739000) can0 2D2#002FA44EE70AE822
(4.742000) can0 229#460000
(4.744000) can0 1D5#290000000000807F
(4.746000) can0 2E5#000021310000B300
(4.747000) can0 234#2DE00231C50420C4
(4.749000) can0 1D8#29E03FFC0700A0C4
(4.759000) can0 414#1133535459323530
(4.765000) can0 3FD#01000A0000080280
(4.773000) can0 266#F70714431400E600
(4.781000) can0 2E5#000020310000B300
(4.792000) can0 122#01000000003F0000
(4.794000) can0 39D#045CE12700
(4.796000) can0 2E5#000020310000B300
(4.798000) can0 23E#00003AC002FF5F9A
(4.806000) can0 243#02FCA31004A80000
(4.810000) can0 320#0200000000000000
(4.816000) can0 289#C80C864386003D8F
(4.822000) can0 3FD#02009C0000000090
(4.825000) can0 132#158F4C009E40
(4.827000) can0 372#0700000000000000
(4.829000) can0 118#926B950000C8B4FD
(4.831000) can0 2B3#05000000547F7000
(4.833000) can0 1D5#290000000000A09F
(4.835000) can0 2C1#68307E00008A0200
(4.842000) can0 132#138F36009E40
(4.846000) can0 39B#0318FF80B088B020
(4.851000) can0 234#2EE00231C50440E5
(4.856000) can0 2B6#000300
(4.858000) can0 379#01000A48333F2100
(4.860000) can0 243#00FCCFCC99260E29
(4.861000) can0 340#0000000000000000
(4.863000) can0 7D5#3200000000000000
(4.865000) can0 253#0164A6C66490B505
(4.867000) can0 401#172A409549954D95
(4.869000) can0 118#586F950000C874FF
(4.871000) can0 241#3B3CD60E8F5500
(4.873000) can0 1D5#290000000000201F
(4.875000) can0 428#20001010000010
(4.877000) can0 545#400458209BA73981
(4.879000) can0 23E#00003AC002FF7FBA
(4.882000) can0 3D3#000000
(4.886000) can0 211#B01C710F0001
(4.887000) can0 372#0800000000000000
(4.890000) can0 1D8#29CCBFFD070060F1
(4.892000) can0 20E#150500
(4.893000) can0 3F5#0000C838820C0000
(4.895000) can0 31E#0200000000000000
(4.897000) can0 132#128F3100B140
(4.899000) can0 376#0200FFFFFFFF0000
(4.901000) can0 318#1A062B05101135C1
(4.903000) can0 3D6#47474746472C0142
(4.905000) can0 1F8#1A000000
(4.907000) can0 35A#0000000000000000
(4.909000) can0 2F9#BCFB070800000000
(4.912000) can0 129#3F2DF35F0E20FF3F
(4.914000) can0 3FD#0000003C20000180
(4.917000) can0 333#0410890700
(4.919000) can0 4E2#04C8208C1DC00100
(4.921000) can0 2E1#398D2AFF0F000000
(4.923000) can0 1D5#290000000000C0BF
(4.925000) can0 552#00000000000070C7
(4.927000) can0 132#378F7D002941
(4.929000) can0 118#BE65950000C8E4FF
(4.930000) can0 263#0300000000000000
(4.932000) can0 422#700010000000
(4.934000) can0 119#00000000
(4.936000) can0 2C1#68347E00008A0200
(4.939000) can0 2C2#555BA90680C112AA
(4.942000) can0 201#003D3C000082FF00
(4.943000) can0 1D5#29000000000000FF
(4.945000) can0 228#0106184C006001F6
(4.947000) can0 132#348F6B00F840
(4.949000) can0 118#9F67950000C8C4FE
(4.956000) can0 126#1600307CE9
(4.962000) can0 719#0CAB0F005B0B6000
(4.964000) can0 3BB#230F14
(4.966000) can0 3FD#01000A0000080280
(4.969000) can0 441#4B8589003200382C
(4.971000) can0 1E5#286C0400000060DE
(4.973000) can0 1D5#290000000000605F
(4.977000) can0 261#052233CA9A421006
(4.983000) can0 359#14040000E59E5A19
(4.990000) can0 3A3#12D00000280DFC01
(4.994000) can0 25D#3741012A04F08803
(4.996000) can0 2E5#000021310000B500
(4.998000) can0 20C#0078330AE800300C
(5.000000) can0 129#3C26F65F0820FF3F
(5.002000) can0 55A#0400000000000000
(5.004000) can0 1F8#1A000000
(5.006000) can0 420#2801404B00008006
(5.008000) can0 261#3100EEFFAD493A44
(5.010000) can0 266#F20715441400E500
(5.011000) can0 289#C80C86C394003D8F
(5.013000) can0 1D5#290000000000E0DF
(5.016000) can0 3FD#02009C0000000090
(5.020000) can0 421#F21A0000002000
(5.026000) can0 1D5#29000000000000FF
(5.033000) can0 401#1F2A0495FA940695
(5.037000) can0 119#00000000
(5.041000) can0 2C2#2040C04B010080CB
(5.043000) can0 2D2#012FA54EE40AE822
(5.045000) can0 54F#0000000000000000
(5.046000) can0 3A2#0110200000000000
(5.048000) can0 3A1#844C0FCA001C0287
(5.051000) can0 257#B811828002084101
(5.052000) can0 2B6#000300
(5.055000) can0 2E8#010100000600C0B2
(5.057000) can0 2E5#000021320000B500
(5.059000) can0 1D8#29B4FFF807008034
(5.061000) can0 266#EE0715441400E600
(5.063000) can0 242#55558600
(5.066000) can0 61D#022168398D290908
(5.067000) can0 132#7D8FC700CA41
(5.069000) can0 3A7#0000000000000000
(5.071000) can0 1E5#286C04000000209E
(5.073000) can0 3C0#0700000000000000
(5.075000) can0 367#0000000000000000
(5.077000) can0 428#20001010000010
(5.079000) can0 7D5#3200000000000000
(5.081000) can0 1E5#286C0400000040BE
(5.084000) can0 287#4C4B4D4DDC020001
(5.086000) can0 3A3#14D00000280DFC01
(5.088000) can0 27A#C3C2FC00C0056202
(5.090000) can0 263#6136D29F976F9A00
(5.092000) can0 272#0380610000000000
(5.094000) can0 1D5#290000000000E0DF
(5.096000) can0 2C1#1304900000000000
(5.098000) can0 234#31E1038043009407
(5.100000) can0 129#1E20F45FFD1FFF3F
(5.102000) can0 3AE#0A4000080000E033
(5.104000) can0 261#31000200AB499AB7
(5.106000) can0 420#2801404B00000007
(5.108000) can0 118#AE67950000C8D4FD
(5.110000) can0 129#3621F35FFC1FFF3F
(5.114000) can0 22B#00000000E0FFFFFF
(5.118000) can0 441#CD00B6C35800050C
(5.124000) can0 1D8#29AEBFF6070040AC
(5.131000) can0 2E5#000021320000B500
(5.133000) can0 1D5#290000000000605F
(5.136000) can0 261#834D0A000040B5C5
(5.137000) can0 7A8#01000000FFA1E812
(5.139000) can0 1D8#29B0BFFB070080F3
(5.141000) can0 266#EE0715451400E600
(5.143000) can0 381#0C00000000000000
(5.145000) can0 228#0106184C00602116
(5.147000) can0 132#828FDA000A42
(5.149000) can0 1D8#29B07FFB0700A0D3
(5.151000) can0 257#BD16828002084101
(5.154000) can0 397#D3FFFFD418000000
(5.156000) can0 2C1#218B9C8502000000
(5.158000) can0 379#040054C5800D0001
(5.160000) can0 129#9226F35F0020FF3F
(5.162000) can0 22B#00000000E0FFFFFF
(5.165000) can0 285#61018E0308002E00
(5.167000) can0 201#0104980000000000
(5.169000) can0 360#0100000000000000
(5.171000) can0 263#700ED29FA7AF1A00
(5.173000) can0 545#40045DD09AA6C9C4
(5.175000) can0 428#20001010000010
(5.177000) can0 2E1#6580080077DC306A
(5.179000) can0 359#1600000000000000
(5.180000) can0 243#010070376E009292
(5.184000) can0 2F1#2E00C0210C013004
(5.190000) can0 3A3#14D00000280DFC01
(5.196000) can0 21D#0400B50000000000
(5.201000) can0 234#31E103804300B427
(5.203000) can0 45A#2438393860483770
(5.206000) can0 4E3#0600000000000000
(5.207000) can0 320#0400000000000000
(5.209000) can0 1D8#29B6FFFE0700601C
(5.211000) can0 264#3A000000A000
(5.213000) can0 381#0E00000000E0FF00
(5.219000) can0 441#CE00B6C358000D15
(5.221000) can0 3E8#0400000000000000
(5.223000) can0 1D5#290000000000807F
(5.225000) can0 552#000000000000A0F7
(5.228000) can0 132#6A8FBD00AA41
(5.229000) can0 227#0000000039000080
(5.231000) can0 261#834D0A0000401525
(5.233000) can0 1D5#290000000000A09F
(5.235000) can0 2C1#68347E00008A0200
(5.250000) can0 7A8#0240C007000F0000
(5.252000) can0 405#100000000035594A
(5.254000) can0 2B6#000300
(5.256000) can0 1FA#1AC001
(5.258000) can0 677#0000000000000000
(5.260000) can0 1E5#286C04000000007E
(5.262000) can0 448#20001010000010
(5.264000) can0 7D5#3200000000000000
(5.267000) can0 441#4B85890032001004
(5.278000) can0 360#0200000000000000
(5.284000) can0 123#01000000003F0000
(5.288000) can0 3A3#12D00000280DFC01
(5.294000) can0 266#F10715441400E700
(5.300000) can0 7E8#140500470DBD3B00
(5.303000) can0 318#1A062B0510113DC9
(5.304000) can0 2E1#398D2AFF0F000000
(5.306000) can0 2F9#BCFB072800000000
(5.308000) can0 118#726B950000C894FD
(5.310000) can0 204#010000FF00000010
(5.312000) can0 261#322A8C01805C621D
(5.314000) can0 1D5#290000000000A09F
(5.316000) can0 4F3#00000000
(5.319000) can0 2E5#000020320000B500
(5.321000) can0 2E1#026D66021C500000
(5.323000) can0 1D5#290000000000C0BF
(5.325000) can0 552#000000000000B007
(5.326000) can0 132#5F8F9F007B41
(5.328000) can0 383#9118340069602103
(5.331000) can0 263#0300000000000000
(5.333000) can0 1D5#290000000000E0DF
(5.335000) can0 2E1#FB1FB23999A50900
(5.337000) can0 677#0200000000000000
(5.339000) can0 2C2#555BA90680C112AA
(5.341000) can0 229#DD0600
(5.343000) can0 2D2#002FA74EE00AE822
(5.345000) can0 3A2#0110200000000000
(5.347000) can0 132#608F9F007A41
(5.349000) can0 1D8#29C03F0000002021
(5.351000) can0 126#14A0301C27
(5.353000) can0 2E1#0400000000102007
(5.355000) can0 682#00000040041180B5
(5.357000) can0 2E5#000020320000B500
(5.359000) can0 1D8#29C23F0000004043
(5.362000) can0 261#052233CA9A429086
(5.364000) can0 1D5#290000000000403F
(5.365000) can0 201#0104980000000000
(5.367000) can0 3C0#0A00000000000000
(5.369000) can0 263#700ED29FA7AF1A00
(5.371000) can0 2B3#CE2B5E0140141900
(5.373000) can0 1D5#290000000000605F
(5.377000) can0 261#00100500FF4FA0F9
(5.383000) can0 359#1900000000000000
(5.389000) can0 3A3#14D00000280DFC01
(5.394000) can0 249#9B000000
(5.396000) can0 2C1#1304900000000000
(5.398000) can0 234#31E103804300F467
(5.404000) can0 1E5#286C0400000040BE
(5.407000) can0 420#2801404B00008000
(5.409000) can0 118#9D65950000C8C4FE
(5.411000) can0 257#1FB3817F02D04001
(5.413000) can0 224#0408004019011008
(5.414000) can0 3FD#0000003C20000180
(5.418000) can0 04F#C8249883F823170C
(5.420000) can0 1D8#29C83F0000000009
(5.423000) can0 553#0000000000002078
(5.424000) can0 552#000000000000C017
(5.426000) can0 132#588F7E003741
(5.428000) can0 381#5410C00000002FFE
(5.430000) can0 247#650EFF0000000000
(5.432000) can0 2E1#FB1FB23999A70900
(5.434000) can0 39D#045CE12700
(5.437000) can0 2E5#000020320000B500
(5.439000) can0 2C2#2040C04B010080CB
(5.440000) can0 212#59440B0081FF7731
(5.442000) can0 266#F40714441400E600
(5.444000) can0 3B2#0DE91F85410BF87F
(5.446000) can0 2E5#000020320000B500
(5.450000) can0 2E1#0400000000102007
(5.456000) can0 128#0000EC0A02
(5.462000) can0 132#658F8C006541
(5.467000) can0 3FD#01000A0000080280
(5.470000) can0 2E1#6580080077DC306A
(5.472000) can0 545#90045DF09AA859C6
(5.474000) can0 103#22B38804A2EC2032
(5.476000) can0 428#20001010000010
(5.478000) can0 23E#00003AC002FF6FAA
(5.480000) can0 118#346C950000C854FE
(5.482000) can0 2F1#113E011201160600
(5.486000) can0 3A3#14D00000280DFC01
(5.487000) can0 27A#C4B60C01BC056202
(5.490000) can0 1D8#29CE3F000000E0EF
(5.492000) can0 21D#0400B50000000000
(5.494000) can0 41D#00
(5.496000) can0 2E1#398D2AFF0F000000
(5.498000) can0 234#30E1038043001486
(5.500000) can0 1E5#286C04000000007E
(5.502000) can0 113#019701
(5.508000) can0 719#0CAB0F005B0B6000
(5.510000) can0 129#1F2906600020FF3F
(5.512000) can0 3AE#1C4000080000D035
(5.514000) can0 3F9#0700000000000000
(5.516000) can0 3FD#02009C0000000090
(5.520000) can0 2BF#00000000000001
(5.523000) can0 553#0000000000003088
(5.529000) can0 132#4F8F86004941
(5.533000) can0 263#0300000000000000
(5.539000) can0 119#00000000
(5.543000) can0 243#04FC7303D280FFFF
(5.545000) can0 392#000B000000000000
(5.547000) can0 132#518F6E001141
(5.549000) can0 401#072A709586958195
(5.551000) can0 257#F69A817F02C04001
(5.553000) can0 279#34B5FC01BC056502
(5.555000) can0 397#D31F00D418020000
(5.558000) can0 2E5#000020320000B500
(5.559000) can0 129#D82E0460FB1FFF3F
(5.562000) can0 2E1#6580080078DC306A
(5.564000) can0 238#8839F63C3E0048B3
(5.566000) can0 2E5#000020320000B500
(5.568000) can0 261#00100500FF4F60B9
(5.570000) can0 263#700ED29FA7AF1A00
(5.572000) can0 37A#D00D000000000000
(5.573000) can0 103#22B38804A4EE2032
(5.575000) can0 428#20001010000010
(5.577000) can0 677#0300000000000000
(5.579000) can0 1D8#29D43F0000000015
(5.581000) can0 287#4C4B4D4DDB020001
(5.583000) can0 122#01000000003F0000
(5.590000) can0 3A3#14D00000280DFC01
(5.596000) can0 25D#3741012A04F08803
(5.602000) can0 234#31E10380430034A7
(5.606000) can0 420#2801404B00008001
(5.607000) can0 401#0A2A759572957895
(5.609000) can0 266#F60714431400E700
(5.611000) can0 264#3A000000A000
(5.613000) can0 1D5#290000000000605F
(5.619000) can0 3C3#0000000000A50000
(5.621000) can0 3E8#0100000000000000
(5.623000) can0 1D5#290000000000807F
(5.625000) can0 552#000000000000E037
(5.627000) can0 132#408F69000E41
(5.628000) can0 453#00000000
(5.631000) can0 227#0000000039000080
(5.633000) can0 3D8#44004000
(5.636000) can0 545#020003000000A0EF
(5.638000) can0 281#0000FF1F0000
(5.640000) can0 1E5#286C0400000040BE
(5.642000) can0 252#B1299C7700FC0F00
(5.644000) can0 1D5#290000000000C0BF
(5.646000) can0 2E5#000020320000B500
(5.647000) can0 234#2DE00231C50440E4
(5.650000) can0 118#E66D950000C804FF
(5.651000) can0 257#F38F817F0AC04001
(5.653000) can0 395#091D1D501D120B7D
(5.655000) can0 1FA#1AC001
(5.657000) can0 677#0000000000000000
(5.660000) can0 1D8#29D63F0000000017
(5.662000) can0 3AE#1A40000800002184
(5.665000) can0 261#00100500FF4FC019
(5.667000) can0 132#3E8F6100FA40
(5.669000) can0 360#0600000000000000
(5.670000) can0 257#E480817F0AC04001
(5.672000) can0 22B#00000000C0FFFFFF
(5.674000) can0 39D#FA52E12700
(5.676000) can0 2C1#0219060000D00A00
(5.678000) can0 23E#00003AC002FFBFFA
(5.680000) can0 129#AA2A04600120FF3F
(5.682000) can0 221#605555155451D1B8
(5.686000) can0 3A3#14D00000280DFC01
(5.687000) can0 27A#B5B8FC00BC056202
(5.689000) can0 1D8#29D63F0000006077
(5.692000) can0 201#0200000000000000
(5.695000) can0 31E#0000000000000000
(5.697000) can0 677#0100000000000000
(5.699000) can0 3C2#0055555500006A05
(5.701000) can0 113#019701
(5.702000) can0 458#00002000000000
(5.704000) can0 2D1#FF01
(5.706000) can0 2E5#000020320000B500
(5.708000) can0 118#3B63950000C864FE
(5.710000) can0 2D3#590052031B125775
(5.712000) can0 2B4#4905560E5F01
(5.714000) can0 3FD#0000003C20000180
(5.717000) can0 3F9#0000000000000000
(5.720000) can0 4E2#65018F13022F0000
(5.723000) can0 25B#D38000056A86F093
(5.725000) can0 552#000000000000F047
(5.727000) can0 22B#FF070000C0FFFFFF
(5.728000) can0 6A2#0000000000
(5.730000) can0 1E5#286C0400000060DE
(5.732000) can0 221#610555550105E019
(5.734000) can0 545#020002000000D01E
(5.736000) can0 2E1#0400000000102007
(5.738000) can0 281#0000FF1F0000
(5.740000) can0 129#35200260FD1FFF3F
(5.742000) can0 266#F50714441400E700
(5.744000) can0 439#0000000000185A04
(5.746000) can0 2E5#000020320000B500
(5.748000) can0 234#30E00231C5046007
(5.751000) can0 1E5#286C04000000209E
(5.753000) can0 268#76148E01FB
(5.755000) can0 1D5#290000000000201F
(5.761000) can0 225#5555FA00
(5.765000) can0 3FD#01000A0000080280
(5.772000) can0 7D5#2C3E3E0000000000
(5.780000) can0 428#20001010000010
(5.789000) can0 2F1#015AEC8043801200
(5.795000) can0 249#3F080000
(5.800000) can0 757#3200000000000000
(5.802000) can0 45A#2438393860483770
(5.804000) can0 1F8#1A000000
(5.808000) can0 3A2#602573C01C00436C
(5.814000) can0 266#F20715441400E800
(5.818000) can0 3FD#02009C0000000090
(5.826000) can0 285#2445605872000000
(5.828000) can0 401#152A7B9577958895
(5.830000) can0 266#F20715441400E800
(5.831000) can0 2EC#57D015
(5.833000) can0 1D5#290000000000201F
(5.835000) can0 2C1#68347E00008A0200
(5.837000) can0 7A8#0240C007000F0000
(5.839000) can0 1D8#29B83F0000004039
(5.841000) can0 201#003E3E000082FF00
(5.843000) can0 292#670AE9E69A013C00
(5.847000) can0 54F#0000000000000000
(5.851000) can0 3C2#2955000000000000
(5.855000) can0 279#37B8FC01BC056502
(5.859000) can0 2C1#218B9C8502000000
(5.864000) can0 288#0106184C0060A1F6
(5.867000) can0 7AA#0800000018011B0E
(5.869000) can0 1D8#29AC7FFD0700A0D1
(5.871000) can0 241#3D3C560F8F5500
(5.873000) can0 1D5#290000000000A09F
(5.875000) can0 2C1#0219060000D00A00
(5.877000) can0 132#928FF2005442
(5.879000) can0 359#1F00000000000000
(5.881000) can0 243#010070376E009292
(5.883000) can0 122#00001392D2000000
(5.885000) can0 211#AA16710F0001
(5.887000) can0 132#908FF5001E42
(5.889000) can0 419#00
(5.891000) can0 263#6136D29F976F9A00
(5.893000) can0 41D#00
(5.895000) can0 3F5#0000C838830C0000
(5.897000) can0 132#768FC400D441
(5.899000) can0 1D8#299E3FF9070000DF
(5.901000) can0 118#6D66950000C894FD
(5.903000) can0 45A#2438393860483770
(5.905000) can0 1F8#1A000000
(5.907000) can0 3A2#6025F3BF1C00436C
(5.909000) can0 2F9#BCFB072800000000
(5.911000) can0 129#662100600620FF3F
(5.914000) can0 257#D87C817F0AB84001
(5.916000) can0 3FD#0000003C20000180
(5.923000) can0 1D5#290000000000201F
(5.925000) can0 552#0000000000001067
(5.927000) can0 22B#FF07380080FFFFFF
(5.930000) can0 118#5169950000C874FE
(5.931000) can0 545#020003000000307F
(5.933000) can0 1D5#290000000000605F
(5.935000) can0 261#052233CA9A42D0C6
(5.937000) can0 677#0200000000000000
(5.939000) can0 1D8#29903FF60700804E
(5.941000) can0 201#003D3E000082FF00
(5.944000) can0 439#0000000000185A04
(5.946000) can0 2E5#000020320000B500
(5.947000) can0 234#2DE00231C504A044
(5.949000) can0 1D8#298C7FF50700A0A9
(5.951000) can0 3CC#0321C31B000E0900
(5.953000) can0 2B6#000300
(5.955000) can0 401#1B2A75957A957495
(5.962000) can0 682#000000400411E015
(5.964000) can0 309#0000000000000000
(5.966000) can0 3FD#01000A0000080280
(5.969000) can0 139#00
(5.971000) can0 241#3C3C160F8F5500
(5.973000) can0 1D5#290000000000E0DF
(5.977000) can0 2E1#398D2AFF0F000000
(5.983000) can0 359#20040000854580C4
(5.989000) can0 3A3#12D00000280DFC01
(5.994000) can0 249#3A0C0000
(5.995000) can0 2C1#1304900000000000
(6.002000) can0 234#31E103804300B427
(6.004000) can0 4E3#00AC010000002800
(6.006000) can0 2E5#000020320000B500
(6.008000) can0 2E1#FB1FB02999A00900
(6.010000) can0 129#132B05600C20FF3F
(6.012000) can0 224#0408004019011008
(6.014000) can0 7AA#0A3D063D06005A00
(6.017000) can0 3FD#02009C0000000090
(6.020000) can0 2C1#0400000000000000
(6.022000) can0 1D5#290000000000807F
(6.025000) can0 552#0000000000002077
(6.033000) can0 132#BE8F2401C542
(6.037000) can0 119#00000000
(6.043000) can0 212#5944150081FF7731
(6.045000) can0 54F#0000000000000000
(6.047000) can0 234#30E00231C504C067
(6.049000) can0 118#6D65950000C894FE
(6.051000) can0 257#7F43817F0A984001
(6.054000) can0 2B6#000300
(6.055000) can0 788#0240C40700030000
(6.057000) can0 132#E78F7C016B43
(6.059000) can0 1E5#286C04000000007E
(6.062000) can0 315#185145675045C086
(6.064000) can0 261#3100FBFFB1495A75
(6.066000) can0 3FE#1D71C30D36D800CD
(6.068000) can0 232#8A009C0ECA040000
(6.070000) can0 5F3#B8EA20
(6.072000) can0 1E5#286C04000000209E
(6.078000) can0 401#2100000000000000
(6.080000) can0 1D8#29747FF00700402C
(6.082000) can0 266#E90715451500E600
(6.084000) can0 122#00001392D2000000
(6.086000) can0 211#AC18710F0001
(6.093000) can0 22B#FFFF3F0000FFFFFF
(6.095000) can0 3F5#0000C838830C0000
(6.097000) can0 677#0100000000000000
(6.100000) can0 3C2#0055555500006A05
(6.102000) can0 7F4#01
(6.103000) can0 1D5#290000000000807F
(6.105000) can0 2E5#000020320000B600
(6.107000) can0 401#2300000000000000
(6.109000) can0 266#E10716461500E600
(6.111000) can0 263#020020C810404221
(6.113000) can0 343#009264BE97000000
(6.115000) can0 441#CC00B6C35800151B
(6.117000) can0 2E5#000020320000B600
(6.119000) can0 554#D08403051ED000
(6.124000) can0 118#746C950000C894FE
(6.130000) can0 2E5#000020320000B600
(6.136000) can0 748#2A1F0A0000
(6.140000) can0 677#0200000000000000
(6.142000) can0 262#0B00A8B200B09010
(6.144000) can0 1D5#29000000000000FF
(6.146000) can0 2E5#000020320000B600
(6.147000) can0 132#EF8F77014243
(6.149000) can0 1D8#29707FEF07002007
(6.151000) can0 128#0000EC0A02
(6.153000) can0 2B6#000300
(6.155000) can0 45A#FD07F8FF03000724
(6.157000) can0 788#C8D4C18300009A00
(6.159000) can0 1D8#29703FEF070040E7
(6.162000) can0 266#E00716461600E700
(6.164000) can0 1D5#290000000000403F
(6.166000) can0 7AA#0C00000000000039
(6.168000) can0 2E1#398D2AFF0F000000
(6.170000) can0 129#312B06600020FF3F
(6.172000) can0 3AE#1A400008000060C3
(6.174000) can0 103#22B38804A4EC2032
(6.176000) can0 261#322A8C01805CC27D
(6.177000) can0 287#4C4B4D4DDF020001
(6.179000) can0 123#00001392D2000000
(6.181000) can0 2F1#05DAEB8043000100
(6.183000) can0 1D5#290000000000807F
(6.185000) can0 3A3#14D00000280DFC01
(6.187000) can0 195#000800000A002706
(6.194000) can0 419#00
(6.198000) can0 2C1#1304900000000000
(6.205000) can0 1E5#286C0400000040BE
(6.208000) can0 2F9#BCFB07100D1A8B84
(6.210000) can0 204#010000FF00000010
(6.212000) can0 2C4#D783001004002000
(6.214000) can0 22A#00001917
(6.216000) can0 3C3#0000000000A50000
(6.218000) can0 3E3#04000000
(6.219000) can0 129#BB2005600020FF3F
(6.221000) can0 3E8#0000000000000000
(6.223000) can0 1D5#29000000000000FF
(6.225000) can0 6C8#0100000000000000
(6.227000) can0 1F9#0000000000000000
(6.229000) can0 1D8#29703FEE070020C6
(6.232000) can0 227#0000000039000080
(6.234000) can0 423#00001000000000
(6.236000) can0 2E5#000020320000B700
(6.238000) can0 212#59441F0081FF7731
(6.240000) can0 129#21220560FE1FFF3F
(6.242000) can0 2C3#0000C04B010040CB
(6.244000) can0 7AA#C0E38E3C00088C29
(6.246000) can0 2E5#000020320000B700
(6.248000) can0 2E1#1021040010000004
(6.254000) can0 1E5#286C0400000060DE
(6.256000) can0 719#140000000000BE00
(6.258000) can0 400#00E0FBBEEFFB00
(6.260000) can0 1E5#286C04000000007E
(6.262000) can0 7D5#2B8B000100000000
(6.264000) can0 7D7#3236000000000000
(6.267000) can0 2E5#000020320000B700
(6.269000) can0 118#526B950000C874FD
(6.271000) can0 241#3D3C560F8F5500
(6.273000) can0 1D5#290000000000A09F
(6.276000) can0 2C1#0219060000D00A00
(6.284000) can0 1D8#296E7FEE0700C0A4
(6.290000) can0 211#AE1A710F0001
(6.296000) can0 21D#0400B50000000000
(6.302000) can0 757#3200000000000000
(6.306000) can0 4E3#03FD000500002800
(6.312000) can0 118#966F950000C8B4FD
(6.314000) can0 253#0064A6C66490B505
(6.316000) can0 2BF#00000000000001
(6.319000) can0 4E2#04BC800B1B980100
(6.322000) can0 266#E20716451500E800
(6.324000) can0 7AA#016C0E6A0E02002E
(6.325000) can0 2E5#000020320000B600
(6.327000) can0 1F9#0000000000000000
(6.329000) can0 118#9761950000C8C4FC
(6.331000) can0 227#0000000039000080
(6.333000) can0 1D5#290000000000605F
(6.335000) can0 261#00100400FF4F60B8
(6.337000) can0 3C8#0400000000000000
(6.339000) can0 292#670AE9E69A019000
(6.341000) can0 243#04FC7303D280FFFF
(6.343000) can0 3B2#107D1F7CA0FD5300
(6.345000) can0 228#0106184C0060E1D6
(6.347000) can0 234#2BE0022FBD0420B8
(6.350000) can0 1D8#296C3FEE0700A042
(6.352000) can0 261#31002600B1497AC1
(6.354000) can0 1D5#290000000000A09F
(6.356000) can0 719#1619002775010000
(6.358000) can0 379#0400892E800D0001
(6.360000) can0 118#3B64950000C864FD
(6.362000) can0 242#55558600
(6.364000) can0 1D5#290000000000C0BF
(6.366000) can0 201#0104980000000000
(6.367000) can0 3C0#0900000000000000
(6.369000) can0 1D8#296CFFED0700E041
(6.371000) can0 37A#C00D000000000000
(6.373000) can0 1D5#290000000000E0DF
(6.381000) can0 2E1#026D66021C500000
(6.385000) can0 122#01000000003F0000
(6.389000) can0 195#000800000A002706
(6.394000) can0 249#D3040000
(6.396000) can0 757#2C3F3E0000000000
(6.402000) can0 20C#0078330AE800300C
(6.404000) can0 1D5#290000000000403F
(6.406000) can0 72A#0054473131393133
(6.408000) can0 2E1#0400000000102007
(6.410000) can0 266#E00716461600E900
(6.412000) can0 2B4#48056E0E5F01
(6.414000) can0 3F9#0700000000000000
(6.416000) can0 3FD#0000003C20000180
(6.420000) can0 421#F21A0000002000
(6.422000) can0 3E8#0200000000000000
(6.424000) can0 552#00000000000060B7
(6.426000) can0 2E5#000020320000B600
(6.428000) can0 383#9118340073602103
(6.430000) can0 129#3525FF5FFC1FFF3F
(6.432000) can0 221#610555550105C0F9
(6.434000) can0 423#00001000000000
(6.436000) can0 2C1#68347E00008A0200
(6.438000) can0 281#0000FF1F0000
(6.439000) can0 1E5#286C0400000040BE
(6.441000) can0 201#003D3E000082FF00
(6.443000) can0 1D5#290000000000C0BF
(6.445000) can0 228#0106184C0060F1E6
(6.449000) can0 234#2DE00231C50440E4
(6.454000) can0 1E5#286C0400000060DE
(6.458000) can0 719#0003140F14070E00
(6.464000) can0 3FD#01000A0000080280
(6.469000) can0 243#00FCCFCC99260E29
(6.471000) can0 37A#C10D000000000000
(6.473000) can0 1D5#290000000000201F
(6.475000) can0 2C1#0219060000D00A00
(6.477000) can0 132#3090B801B843
(6.479000) can0 1D8#29543FED070040C9
(6.481000) can0 261#834D0A000040F505
(6.483000) can0 122#00001392D2000000
(6.485000) can0 211#B01C710F0001
(6.487000) can0 186#CD00000200F92625
(6.489000) can0 419#00
(6.491000) can0 263#6136D29F976F9A00
(6.493000) can0 3F5#0000C838820C0000
(6.495000) can0 261#B40E904C004004D8
(6.497000) can0 22B#FFFF3F0000FEFFFF
(6.499000) can0 1D8#294E3FED07008003
(6.501000) can0 3A2#604573C21C00436C
(6.503000) can0 113#019701
(6.505000) can0 1D5#290000000000807F
(6.507000) can0 2F9#BCFB072800000000
(6.509000) can0 1D8#294E7FED0700A063
(6.511000) can0 264#3B000000A000
(6.513000) can0 343#009264DE97000000
(6.516000) can0 3FD#02009C0000000090
(6.519000) can0 294#14C1400040000000
(6.521000) can0 266#DB0716451600E900
(6.523000) can0 1D5#290000000000C0BF
(6.526000) can0 345#0A01010000008300
(6.534000) can0 266#DA0716461600E900
(6.538000) can0 2E1#1021040010000004
(6.544000) can0 292#670AE9E69A01B200
(6.546000) can0 2E5#00001F320000B600
(6.548000) can0 2E2#F713504001000000
(6.550000) can0 129#52210A601320FF3F
(6.552000) can0 257#EEEC807E0A604001
(6.554000) can0 395#091D1D501C110B7D
(6.557000) can0 719#EEC55F0062610014
(6.559000) can0 545#900462309BAC6920
(6.561000) can0 261#322A8C01805C42FD
(6.564000) can0 7D5#2B8C000100000000
(6.566000) can0 2E5#00001F320000B600
(6.568000) can0 3C0#0000000000000000
(6.570000) can0 129#D4230A601020FF3F
(6.572000) can0 37A#D20D000000000000
(6.573000) can0 103#22B38804A2EC2032
(6.575000) can0 287#4C4B4D4DE0020002
(6.577000) can0 132#3F90CA01EE43
(6.579000) can0 1D8#294ABFEB0700807D
(6.581000) can0 381#1900000000000000
(6.585000) can0 122#01000000003F0000
(6.589000) can0 195#000800000A002706
(6.595000) can0 257#C8CE807E0A584001
(6.601000) can0 757#3200000000000000
(6.604000) can0 1D5#290000000000C0BF
(6.606000) can0 420#2801404B00008006
(6.608000) can0 401#0A2A1C961C962496
(6.610000) can0 129#97270B600720FF3F
(6.612000) can0 2C4#028000D200000000
(6.614000) can0 3F9#0000000000000000
(6.616000) can0 201#0300000000000000
(6.618000) can0 3E3#04000000
(6.620000) can0 1E5#286C04000000007E
(6.622000) can0 553#000000000000E038
(6.624000) can0 261#00100500FF4F80D9
(6.626000) can0 132#3090D301D543
(6.628000) can0 383#9118340073702103
(6.630000) can0 129#CD290B600420FF3F
(6.632000) can0 227#0000000039000080
(6.634000) can0 363#0B01010401000000
(6.637000) can0 3C8#0000000000000000
(6.639000) can0 1D8#294E3FEB070040C1
(6.641000) can0 229#6D0300
(6.642000) can0 2C2#2040C04B010080CB
(6.644000) can0 439#0000000000185A04
(6.646000) can0 22B#FFFF3F0000FEFFFF
(6.648000) can0 2E1#398D2AFF0F000000
(6.650000) can0 129#DC2B0C600520FF3F
(6.653000) can0 207#00000A0004000000
(6.655000) can0 3C2#2955000000000000
(6.656000) can0 2C1#218B9C8502000000
(6.658000) can0 545#E00467609BAF99D8
(6.660000) can0 3AE#244000080000B11E
(6.663000) can0 242#55558600
(6.665000) can0 709#0C00000000000000
(6.667000) can0 132#3E90DA01CD43
(6.669000) can0 118#5A63950000C884FD
(6.671000) can0 263#700ED29FA7AF1A00
(6.672000) can0 1D5#290000000000A09F
(6.674000) can0 39D#035BE12700
(6.676000) can0 2E5#00001F320000B700
(6.678000) can0 23E#00003AC002FF4F8A
(6.681000) can0 118#1B64950000C844FD
(6.683000) can0 122#00001392D2000000
(6.685000) can0 3A3#16D00000280DFC01
(6.686000) can0 186#BD02000200E72625
(6.688000) can0 381#E10300E072727200
(6.691000) can0 263#6136D29F976F9A00
(6.693000) can0 2B3#C249008C50A00000
(6.695000) can0 407#1207000000000000
(6.697000) can0 677#0100000000000000
(6.699000) can0 3C2#0055555500006A05
(6.701000) can0 118#CC66950000C8F4FC
(6.703000) can0 45A#2438393860483770
(6.705000) can0 2D1#FF01
(6.707000) can0 2F9#BCFB070800000000
(6.709000) can0 118#BE67950000C8E4FD
(6.711000) can0 289#C60C0783A1003D8F
(6.713000) can0 1D5#290000000000201F
(6.715000) can0 3FD#0000003C20000180
(6.722000) can0 39D#045CE12700
(6.725000) can0 545#020003000000B0FF
(6.726000) can0 132#3E90C501A543
(6.728000) can0 2E1#1021040010000004
(6.730000) can0 257#6785807E0A404001
(6.732000) can0 227#0000000039000080
(6.734000) can0 119#00000000
(6.736000) can0 261#3100EEFFB049FA07
(6.738000) can0 7A8#0240C007000F0000
(6.740000) can0 1E5#286C04000000007E
(6.742000) can0 2C3#555BA90680C112AA
(6.744000) can0 2E1#398D2AFF0F000000
(6.746000) can0 2E5#000020320000B700
(6.748000) can0 2E2#100000A5010B0000
(6.750000) can0 129#56250F600620FF3F
(6.752000) can0 405#100000000035594A
(6.754000) can0 1D6#000800004A029808
(6.765000) can0 682#0000004004116095
(6.769000) can0 3FD#01000A0000080280
(6.774000) can0 132#3590BC019D43
(6.777000) can0 2C1#0219060000D00A00
(6.783000) can0 1D8#295AFFEB0700004D
(6.790000) can0 211#B31F710F0001
(6.794000) can0 21D#0400B50000000000
(6.798000) can0 2C1#1304900000000000
(6.804000) can0 1D8#295A3FEC070040CE
(6.806000) can0 2E5#00001F320000B700
(6.808000) can0 2E1#6580080079DC306A
(6.810000) can0 129#2A2B0C60FC1FFF3F
(6.812000) can0 2B3#A4A0C18103050700
(6.818000) can0 3FD#02009C0000000090
(6.824000) can0 1D5#290000000000605F
(6.831000) can0 2E5#00001F320000B700
(6.833000) can0 247#7B0EFF0000000000
(6.837000) can0 2C1#68347E00008A0200
(6.841000) can0 1D8#295E7FEC0700C092
(6.845000) can0 2D2#FF2EAD4EC90AE822
(6.851000) can0 234#2FE00230C104C061
(6.855000) can0 279#3DB2FC01C8056502
(6.857000) can0 132#2A90AE016D43
(6.859000) can0 1E5#286C04000000007E
(6.861000) can0 7D5#2B94100100000000
(6.863000) can0 7D5#3200000000000000
(6.865000) can0 253#0164A6C66490B505
(6.868000) can0 132#2590A7016C43
(6.870000) can0 129#2A210960F41FFF3F
(6.872000) can0 37A#D10D000000000000
(6.874000) can0 103#22B38804A2EC2032
(6.876000) can0 2C1#0219060000D00A00
(6.878000) can0 23E#00003AC002FF9FDA
(6.880000) can0 129#63220960F41FFF3F
(6.882000) can0 2F1#0C3D019020000000
(6.886000) can0 211#A410710F0001
(6.887000) can0 132#3890AE017943
(6.889000) can0 118#C069950000C8E4FD
(6.891000) can0 1E5#286C0400000060DE
(6.893000) can0 41D#00
(6.895000) can0 31E#0200000000000000
(6.897000) can0 2E5#00001F320000B700
(6.899000) can0 1D8#2960BFEC07008094
(6.901000) can0 266#DE0716461600E900
(6.903000) can0 557#5A6E190002
(6.906000) can0 357#0000000000000000
(6.908000) can0 757#3200000000000000
(6.909000) can0 118#126B950000C834FD
(6.911000) can0 289#C60C870288003D8F
(6.913000) can0 224#0408004019011008
(6.915000) can0 3FD#0000003C20000180
(6.918000) can0 22A#00001917
(6.920000) can0 118#926C950000C8B4FC
(6.922000) can0 545#020003000000105F
(6.924000) can0 552#000000000000B007
(6.927000) can0 2E5#00001F320000B700
(6.929000) can0 3A2#0110200000000000
(6.930000) can0 257#315F807E12284001
(6.933000) can0 227#0000000039000080
