(0.000000) can0 2B4#4905E20D5C01
(0.003000) can0 243#030000801D745400
(0.007000) can0 23E#00003AC002FF3F7A
(0.009000) can0 129#8E2A0960FC1FFF3F
(0.011000) can0 266#100016451500DC00
(0.013000) can0 1D5#29000000000000FF
(0.015000) can0 3F5#0000C838830C0000
(0.017000) can0 102#22B3880494FAA009
(0.020000) can0 129#4D2B0960FB1FFF3F
(0.020000) can0 2D2#F72EA74ECC10E822
(0.021000) can0 35F#00
(0.022000) can0 3A2#72A6FFFF03000000
(0.022000) can0 42F#9F44FE02FA00FF
(0.023000) can0 2D1#FF01
(0.024000) can0 39A#0427E38AFFF2BE7E
(0.026000) can0 428#20001010000010
(0.026000) can0 132#CD8AB4FEAF3D
(0.029000) can0 129#1F2C0960FC1FFF3F
(0.029000) can0 266#100016451500DC00
(0.030000) can0 4E3#03FD000000002800
(0.033000) can0 1D5#290000000000403F
(0.033000) can0 441#D100B6C358001D28
(0.034000) can0 2E5#0000243100009F00
(0.035000) can0 420#2801404B00000004
(0.036000) can0 509#E0FFFFFF07
(0.036000) can0 263#02004010217E7E21
(0.037000) can0 2E1#1021040010000004
(0.038000) can0 129#662D0860FA1FFF3F
(0.038000) can0 22B#FFFF3F80FF00F8FF
(0.040000) can0 266#100016451500DC00
(0.041000) can0 6A2#0000000000
(0.041000) can0 1D5#290000000000605F
(0.042000) can0 3E3#04000000
(0.045000) can0 1F8#3A000000
(0.045000) can0 3F9#0100000000000000
(0.046000) can0 2B4#4D05E20D6201
(0.047000) can0 372#015A540340002801
(0.047000) can0 318#1A062F05102B2FD9
(0.048000) can0 229#3B0F00
(0.049000) can0 1E5#286C0400000040BE
(0.050000) can0 118#C860950000C8F4FE
(0.050000) can0 54F#0000000000000000
(0.051000) can0 553#000000000000A0F8
(0.052000) can0 221#61055555010580B9
(0.053000) can0 339#02F1FE008007800F
(0.054000) can0 383#931836002BA0A003
(0.055000) can0 186#9401000200BC2925
(0.056000) can0 27A#93B10C0190056202
(0.056000) can0 263#0300000000000000
(0.057000) can0 4E2#04D2A00C1BA00100
(0.058000) can0 281#3E00FF1F0001
(0.059000) can0 1D8#294E4009000060F9
(0.059000) can0 1E5#286C0400000060DE
(0.060000) can0 126#16802F04F0
(0.061000) can0 261#322A9901805C420A
(0.061000) can0 279#FFB0FC018C056502
(0.062000) can0 395#011C1C5211020A7D
(0.063000) can0 545#02000600000060B2
(0.064000) can0 2E5#0000243100009E00
(0.065000) can0 3E8#0000000000000000
(0.066000) can0 2C3#0000C04B010040CB
(0.067000) can0 401#042AA890A890A290
(0.067000) can0 129#52200760FA1FFF3F
(0.068000) can0 1D8#294E400900008019
(0.069000) can0 118#5A62950000C884FE
(0.070000) can0 207#003E361D1D000000
(0.070000) can0 7D5#3200000000000000
(0.071000) can0 1D5#290000000000C0BF
(0.074000) can0 439#0000000000185A04
(0.076000) can0 261#7B4D0A000040555D
(0.076000) can0 263#04000000B0200000
(0.077000) can0 677#0000000000000000
(0.079000) can0 118#7C63950000C8A4FF
(0.079000) can0 340#0700000000000000
(0.082000) can0 22A#00004916
(0.082000) can0 3DB#0800000000000000
(0.085000) can0 2E1#FB1FAF19999B0900
(0.085000) can0 39D#FC54E12700
(0.086000) can0 3C8#0400000000000000
(0.087000) can0 401#052A9D909690A390
(0.087000) can0 3A8#0102000700020100
(0.088000) can0 1D8#294E80090000C099
(0.089000) can0 22B#FFFF3F80FF00F8FF
(0.090000) can0 266#110016451500DC00
(0.090000) can0 241#6F6ED49B1B4500
(0.091000) can0 1D5#29000000000000FF
(0.093000) can0 545#E0045DE09AA77925
(0.093000) can0 287#524C5553C4020C0C
(0.094000) can0 2E5#0000243100009E00
(0.097000) can0 2C1#0219060000D09201
(0.097000) can0 2E8#01010000060000F2
(0.098000) can0 3AE#25400008000080EE
(0.099000) can0 266#110016451500DC00
(0.099000) can0 2E1#0400000000202607
(0.102000) can0 1D5#290000000000201F
(0.102000) can0 788#C4D4C18300009E00
(0.105000) can0 3FD#0000003C20000180
(0.107000) can0 381#1700000000000000
(0.107000) can0 401#062A9C90A6909890
(0.108000) can0 31A#200100000000508E
(0.111000) can0 360#0900000000000000
(0.113000) can0 1D5#290000000000403F
(0.115000) can0 3F5#0000C838830C0000
(0.117000) can0 102#22B3880494FAA009
(0.119000) can0 2D2#F72EA74ECC10E822
(0.121000) can0 1E5#286C04000000209E
(0.123000) can0 3A1#C1FFFF353D009081
(0.126000) can0 3E9#00882200000050E6
(0.128000) can0 401#072A7690A0909390
(0.130000) can0 118#1268950000C83400
(0.132000) can0 1D5#290000000000807F
(0.134000) can0 441#D200B6C358002531
(0.136000) can0 421#F21A0000002000
(0.137000) can0 263#02004010217E7E21
(0.140000) can0 2F9#BCFB072800000000
(0.142000) can0 381#1800000000000000
(0.144000) can0 22B#FFFF3F803F00F8FF
(0.146000) can0 2C4#49D9052FA694A589
(0.147000) can0 243#030000801D745400
(0.154000) can0 3ED#00
(0.158000) can0 3FD#01000A0000080280
(0.168000) can0 221#610555550105A0D9
(0.173000) can0 3E8#0100000000000000
(0.174000) can0 35B#0000000000000000
(0.176000) can0 757#3200000000000000
(0.178000) can0 381#1900000000000000
(0.180000) can0 7D7#323A000000000000
(0.182000) can0 340#0800000000000000
(0.185000) can0 3A2#0110200000000000
(0.187000) can0 201#0168980000000000
(0.189000) can0 2E2#E211194949490900
(0.191000) can0 379#00000948333F2100
(0.192000) can0 1D5#290000000000403F
(0.195000) can0 22B#FFFF3F803F00F8FF
(0.197000) can0 2C1#0219060000D09201
(0.199000) can0 118#396F950000C85400
(0.201000) can0 103#22B38804A2EC2032
(0.203000) can0 221#605555155451B198
(0.205000) can0 261#05223BCA9A42D0CE
(0.206000) can0 3FD#0200740000000090
(0.210000) can0 448#20001010000010
(0.212000) can0 201#0200000000000000
(0.214000) can0 3F5#0000C838820C0000
(0.216000) can0 102#22B3880494FAA009
(0.223000) can0 2D2#F72EA74ECC10E822
(0.229000) can0 545#010000000010B00B
(0.232000) can0 4E3#D5028201001C0000
(0.234000) can0 441#D300B6C358002D3A
(0.235000) can0 421#F21A0000002000
(0.237000) can0 261#31001400AC49FA2A
(0.239000) can0 118#8C63950000C8B4FF
(0.241000) can0 677#0400000000000000
(0.243000) can0 3C3#0000000000A50000
(0.249000) can0 2E1#398D2AFF0F000000
(0.251000) can0 249#5E070000
(0.254000) can0 3A4#0100000000000000
(0.263000) can0 61D#032868388D360908
(0.269000) can0 423#00001000000000
(0.277000) can0 7D5#2BBCFFFF00000000
(0.283000) can0 3C5#0000000000000000
(0.291000) can0 261#140F884C00402451
(0.293000) can0 2E1#0400000000202607
(0.295000) can0 2AA#571013
(0.297000) can0 2C1#0219060000D09201
(0.298000) can0 2E8#0101000006002012
(0.300000) can0 257#3AAD878712D04301
(0.302000) can0 1D5#290000000000A09F
(0.304000) can0 284#300000004008807E
(0.306000) can0 448#20001010000010
(0.308000) can0 401#102ABD90AC90B290
(0.310000) can0 1E5#286C04000000007E
(0.312000) can0 201#0200000000000000
(0.315000) can0 2E5#000024310000A000
(0.316000) can0 78A#01000100E85CD85D
(0.319000) can0 3AE#2640000800000170
(0.321000) can0 1D8#2954000A0000A000
(0.323000) can0 393#0380610000000000
(0.331000) can0 23E#00003AC002FFBFFA
(0.335000) can0 1D5#29000000000000FF
(0.339000) can0 2C1#0400000000000000
(0.341000) can0 2E1#398D2AFF0F000000
(0.343000) can0 3C3#5555550100000000
(0.345000) can0 2E5#000024310000A000
(0.347000) can0 2B4#4A05E10D6C01
(0.349000) can0 129#5A2C08600020FF3F
(0.356000) can0 249#5E090000
(0.367000) can0 2E1#026D66021A620000
(0.369000) can0 3A1#844C0FCA001CE267
(0.372000) can0 266#120016451500DC00
(0.374000) can0 439#0000000000185A04
(0.375000) can0 2E5#0000243100009E00
(0.377000) can0 263#04000000B0200000
(0.379000) can0 118#2B61950000C85400
(0.381000) can0 340#0A00002000000000
(0.383000) can0 3A2#0110200000000000
(0.385000) can0 441#4C8589003200382D
(0.387000) can0 201#0168980000000000
(0.389000) can0 2E2#F713503F01000000
(0.391000) can0 228#0106184C00605146
(0.393000) can0 381#0400000000000000
(0.395000) can0 3C0#0800000000000000
(0.398000) can0 132#C78AA8FE813D
(0.400000) can0 666#0000C800
(0.402000) can0 1D5#290000000000E0DF
(0.404000) can0 788#C4D4C18300009E00
(0.406000) can0 709#0D00000000000000
(0.408000) can0 243#010060375E009393
(0.410000) can0 1D8#2954000A0000C020
(0.412000) can0 201#0200000000000000
(0.414000) can0 3F5#0000C838820C0000
(0.415000) can0 3A2#72A6FF7F03000000
(0.418000) can0 2C1#431A900000000000
(0.419000) can0 118#7E65950000C8A4FF
(0.422000) can0 257#30A3878712D04301
(0.424000) can0 712#0300000000000000
(0.427000) can0 428#20001010000010
(0.429000) can0 129#CC240A600520FF3F
(0.431000) can0 272#080005E907B00304
(0.433000) can0 719#3302600000000000
(0.435000) can0 441#D400B6C358003D4B
(0.436000) can0 301#125C0AD0266F00AE
(0.438000) can0 2C1#0400000000000000
(0.440000) can0 3C2#0055555500006A05
(0.442000) can0 6A2#0000000000
(0.444000) can0 1F8#3A000000
(0.446000) can0 204#010000FF00000010
(0.452000) can0 2B4#4F05DE0D7201
(0.459000) can0 3FD#0000003C20000180
(0.470000) can0 333#0410590700
(0.472000) can0 1D5#290000000000C0BF
(0.474000) can0 439#0000000000185A04
(0.476000) can0 261#140F884C0040E411
(0.477000) can0 263#04000000B0200000
(0.480000) can0 266#120016451500DB00
(0.481000) can0 3A2#0110200000000000
(0.483000) can0 719#0300000000000000
(0.485000) can0 441#4C858900320000F5
(0.487000) can0 132#B38AA8FE813D
(0.489000) can0 1D8#2954000A0000C020
(0.491000) can0 3C2#2955000000000000
(0.493000) can0 287#524C5553C4020C0C
(0.496000) can0 3C0#0900000000000000
(0.499000) can0 2B3#0B43FEFEFF018010
(0.501000) can0 1E5#286C0400000060DE
(0.509000) can0 3FD#01000A0000080280
(0.520000) can0 242#55558600
(0.526000) can0 2D2#F72EA74ECB10E822
(0.530000) can0 45A#A4B8383A604A3760
(0.532000) can0 1D5#290000000000807F
(0.534000) can0 441#D500B6C358000514
(0.535000) can0 421#F21A0000002000
(0.537000) can0 263#02004010217E7E21
(0.539000) can0 118#9B61950000C8C400
(0.541000) can0 257#36A9878712D04301
(0.543000) can0 6A1#0000000000
(0.551000) can0 2E5#0000243100009E00
(0.557000) can0 3FD#0200740000000090
(0.563000) can0 289#CA120A85A1003D8F
(0.565000) can0 2E1#FB1FB11999AB0900
(0.567000) can0 39D#F850E12700
(0.569000) can0 129#43220B600120FF3F
(0.571000) can0 266#120016451500DC00
(0.573000) can0 261#140F884C00404471
(0.575000) can0 2E3#03000049010B00
(0.577000) can0 319#1100000000000000
(0.579000) can0 118#1E65950000C844FF
(0.581000) can0 3A2#0110200000000000
(0.583000) can0 7A8#01000000FFA1F812
(0.585000) can0 441#4C858900320008FD
(0.587000) can0 132#B88AAAFE833D
(0.590000) can0 129#7F240B600020FF3F
(0.596000) can0 3C2#2955000000000000
(0.598000) can0 677#0300000000000000
(0.600000) can0 249#AF0E0000
(0.602000) can0 1D5#290000000000605F
(0.604000) can0 3FD#0000003C20000180
(0.607000) can0 234#30100331C50400D8
(0.609000) can0 129#B2260B600020FF3F
(0.611000) can0 266#120016451500DC00
(0.612000) can0 1D5#290000000000807F
(0.615000) can0 3E9#F0882221000050F7
(0.617000) can0 2C1#431A900000000000
(0.619000) can0 212#5904000081FF7731
(0.621000) can0 257#52BD878712D84301
(0.624000) can0 393#080005D107B00304
(0.626000) can0 2E5#0000243100009F00
(0.628000) can0 401#2000000000000000
(0.630000) can0 1E5#286C04000000007E
(0.632000) can0 1D5#290000000000C0BF
(0.634000) can0 441#D600B6C358000D1D
(0.635000) can0 421#F21A0000002000
(0.637000) can0 261#322A9901805C824A
(0.639000) can0 118#646B950000C884FF
(0.641000) can0 1E5#286C04000000209E
(0.644000) can0 6A2#0000000000
(0.646000) can0 2E5#0000243100009F00
(0.652000) can0 224#0408004019011008
(0.654000) can0 3FD#01000A0000080280
(0.658000) can0 401#2100000000000000
(0.660000) can0 387#454F393D443F0040
(0.662000) can0 1D8#2950C0090000E0FB
(0.664000) can0 257#54BF878712D84301
(0.666000) can0 1D5#290000000000201F
(0.668000) can0 2E5#000024310000A000
(0.670000) can0 243#04FCE3031281FFFF
(0.672000) can0 1E5#286C04000000007E
(0.674000) can0 1D5#290000000000403F
(0.676000) can0 303#125C0AD0266F00AE
(0.678000) can0 45A#FD07F8FF03000038
(0.680000) can0 1E5#286C04000000209E
(0.682000) can0 1D5#290000000000605F
(0.684000) can0 3AE#2A4000080000C033
(0.687000) can0 23E#00003AC002FF4F8A
(0.689000) can0 129#502E0A600020FF3F
(0.691000) can0 118#5960950000C884FF
(0.693000) can0 2E1#6580080094E2306A
(0.694000) can0 2AA#575053
(0.696000) can0 2C1#0219060000D09201
(0.698000) can0 2E8#0101000006006052
(0.700000) can0 257#46B1878712D84301
(0.702000) can0 1D5#290000000000A09F
(0.705000) can0 3FD#0200740000000090
(0.708000) can0 37A#D108000000000000
(0.710000) can0 118#3C62950000C86400
(0.712000) can0 1D5#290000000000C0BF
(0.714000) can0 3F5#0000C838830C0000
(0.717000) can0 247#ED0DFF0D00AC0100
(0.719000) can0 212#5904000081FF7731
(0.721000) can0 1E5#286C04000000209E
(0.723000) can0 393#0380610000000000
(0.725000) can0 709#0E00000000000000
(0.727000) can0 39A#55FFFDFDFD01000A
(0.729000) can0 129#1A220A600020FF3F
(0.731000) can0 266#110016451500DC00
(0.733000) can0 1D5#29000000000000FF
(0.735000) can0 2E5#000024310000A000
(0.737000) can0 201#0300000000000000
(0.739000) can0 40A#0910000000005077
(0.741000) can0 1E5#286C0400000060DE
(0.743000) can0 3C3#5555550100000000
(0.750000) can0 2E5#000024310000A000
(0.756000) can0 33D#1A290ABE874AFA98
(0.762000) can0 132#BC8AC0FEB83D
(0.768000) can0 261#140F984C00400441
(0.772000) can0 1D8#294A4009000040D5
(0.776000) can0 439#0000000000185A04
(0.782000) can0 263#04000000B0200000
(0.783000) can0 719#0100040000000000
(0.787000) can0 2E5#0000243100009E00
(0.791000) can0 70A#C0DB013120
(0.795000) can0 381#EFFFFFCD0300A609
(0.801000) can0 261#00100400FF4F2078
(0.805000) can0 1D5#290000000000E0DF
(0.807000) can0 123#01000000003F0000
(0.810000) can0 1D8#294A00090000C015
(0.812000) can0 3A2#72A6FFFF03000000
(0.814000) can0 3F5#0000C838820C0000
(0.815000) can0 2E5#0000243100009E00
(0.817000) can0 212#5904000081FF7731
(0.819000) can0 118#F76D950000C81400
(0.821000) can0 1E5#286C0400000060DE
(0.824000) can0 2E1#398D2AFF0F000000
(0.825000) can0 20C#BDF8340AE800300C
(0.827000) can0 243#02FC6B1004B50000
(0.830000) can0 1D8#2948C00800000012
(0.831000) can0 1D5#290000000000403F
(0.833000) can0 43B#007F00FF00000000
(0.836000) can0 2E5#0000243100009E00
(0.838000) can0 282#7CD0410728F40224
(0.840000) can0 2F9#BCFB07030D1A8B84
(0.842000) can0 6A1#0000000000
(0.844000) can0 1F8#3A000000
(0.845000) can0 2E5#0000243100009E00
(0.847000) can0 224#0408004019011008
(0.849000) can0 458#00002000000000
(0.856000) can0 249#D3030000
(0.857000) can0 2B3#008C74618F6D5B6E
(0.859000) can0 266#0F0016451500DC00
(0.861000) can0 126#16302F44E0
(0.863000) can0 281#3E00FF1F0001
(0.865000) can0 295#5000BFFF00000002
(0.871000) can0 3E8#0100000000000000
(0.878000) can0 439#0000000000185A04
(0.880000) can0 257#4FBA878712D84301
(0.882000) can0 1D5#290000000000E0DF
(0.883000) can0 2E1#6580080094E2306A
(0.885000) can0 2E5#0000243100009F00
(0.887000) can0 243#00FCCFCC99260E29
(0.889000) can0 1D8#2946C0080000C0D0
(0.892000) can0 266#0F0016451500DC00
(0.894000) can0 2AA#577073
(0.896000) can0 2E5#0000243100009F00
(0.897000) can0 381#5200000000002102
(0.899000) can0 414#1233585646544756
(0.901000) can0 257#50BB878712D84301
(0.903000) can0 234#31100331C5046039
(0.906000) can0 2E5#0000243100009F00
(0.908000) can0 129#40240C600120FF3F
(0.910000) can0 1E5#286C04000000007E
(0.912000) can0 201#0200000000000000
(0.914000) can0 3F5#0000C838820C0000
(0.916000) can0 102#22B3880494FAA009
(0.918000) can0 132#CA8ACEFEDA3D
(0.920000) can0 1D8#2946C00800002030
(0.922000) can0 2D2#F82EA74ECA10E822
(0.924000) can0 3AE#2B400008000041B5
(0.926000) can0 2E5#0000243100009F00
(0.928000) can0 428#20001010000010
(0.930000) can0 266#0E0016451500DC00
(0.932000) can0 1D5#290000000000807F
(0.935000) can0 441#D500B6C358002534
(0.937000) can0 2C1#0400000000000000
(0.939000) can0 118#1369950000C83400
(0.941000) can0 1E5#286C0400000060DE
(0.943000) can0 3C3#5555550100000000
(0.945000) can0 2E5#0000243100009F00
(0.947000) can0 264#3A000000A000
(0.950000) can0 113#019701
(0.956000) can0 25D#3741012A04F08803
(0.960000) can0 263#0300000000000000
(0.964000) can0 257#53BE878712D84301
(0.968000) can0 757#2C3F3E0000000000
(0.970000) can0 3A1#844C0FCA001CA227
(0.972000) can0 1D5#29000000000000FF
(0.974000) can0 439#0000000000185A04
(0.977000) can0 3A2#0110200000000000
(0.979000) can0 129#F22B0C60FF1FFF3F
(0.980000) can0 2C2#5563A80680C11AAA
(0.982000) can0 3D2#484F07039CCB2903
(0.984000) can0 719#3302600000000000
(0.986000) can0 201#0168980000000000
(0.989000) can0 372#001FC030D211C024
(0.991000) can0 228#0106184C0060B1A6
(0.995000) can0 2AA#578083
(0.996000) can0 2E1#1021040010000004
(0.998000) can0 2E8#0101000006009082
(1.000000) can0 1E5#286C04000000209E
(1.002000) can0 1D5#290000000000605F
(1.004000) can0 37A#C009000000000000
(1.007000) can0 23E#00003AC002FFCF0A
(1.012000) can0 70B#F0C7403020FFB17D
(1.021000) can0 3F5#0000C838820C0000
(1.027000) can0 393#080004E107B00304
(1.032000) can0 129#22200C600020FF3F
(1.035000) can0 441#D300B6C358002D3A
(1.037000) can0 261#7B4D0A000040151D
(1.039000) can0 129#35210C600020FF3F
(1.041000) can0 1E5#286C04000000209E
(1.043000) can0 1D5#290000000000E0DF
(1.044000) can0 1F8#3A000000
(1.046000) can0 23E#00003AC002FFDF1A
(1.052000) can0 372#01AF540340002C01
(1.054000) can0 261#140F984C00402461
(1.057000) can0 195#000800000A002706
(1.059000) can0 4E2#00D1000000002800
(1.061000) can0 108#4A1A022201B42925
(1.063000) can0 268#3A167B01FF
(1.065000) can0 400#00E0FBBEEFFB00
(1.067000) can0 3E8#0300000000000000
(1.074000) can0 3A1#844C0FCA001CC247
(1.076000) can0 2E1#6580080094E2306A
(1.078000) can0 381#1700000000000000
(1.080000) can0 257#49B4878712D84301
(1.082000) can0 1D5#290000000000605F
(1.084000) can0 43B#017F00FF00000000
(1.086000) can0 23E#00003AC002FFEF2A
(1.088000) can0 243#00FCCFCC99260E29
(1.091000) can0 1D8#29424008000040CC
(1.093000) can0 2E1#1021040010000004
(1.095000) can0 2AA#579093
(1.097000) can0 2C1#0219060000D09201
(1.099000) can0 2E8#010100000600A092
(1.101000) can0 257#4AB5878712D84301
(1.103000) can0 221#605555155451D1B8
(1.105000) can0 3FD#0000003C20000180
(1.112000) can0 333#0410590700
(1.114000) can0 3F5#0000C838820C0000
(1.115000) can0 545#01000000001060BB
(1.118000) can0 227#5F053E0040000081
(1.119000) can0 118#056B950000C82400
(1.121000) can0 1E5#286C04000000209E
(1.128000) can0 392#000B000000000000
(1.132000) can0 1E5#286C0400000040BE
(1.136000) can0 441#D200B6C358003541
(1.140000) can0 263#02004010217E7E21
(1.145000) can0 2E1#FB1FB03999A50900
(1.149000) can0 224#0408004019011008
(1.153000) can0 1E5#286C04000000007E
(1.157000) can0 3FD#01000A0000080280
(1.169000) can0 458#00002000000000
(1.171000) can0 129#362E0C600020FF3F
(1.173000) can0 401#092A9890A490A590
(1.175000) can0 356#0000000000000000
(1.177000) can0 3A2#0110200000000000
(1.179000) can0 757#2C3F3E0000000000
(1.181000) can0 2C2#5563A80680C11AAA
(1.183000) can0 7D5#3200000000000000
(1.185000) can0 2E5#0000243100009F00
(1.188000) can0 132#D78ADCFEFA3D
(1.190000) can0 283#1D1D00004100
(1.192000) can0 241#706E149C1B4500
(1.194000) can0 2AA#57A0A3
(1.195000) can0 2E5#0000243100009F00
(1.197000) can0 132#DE8ADEFEFD3D
(1.199000) can0 118#EC63950000C814FF
(1.201000) can0 103#22B38804A4EE2032
(1.203000) can0 221#605555155451F1D8
(1.205000) can0 2E5#0000243100009F00
(1.207000) can0 39D#F850E12700
(1.209000) can0 129#7C220C600020FF3F
(1.211000) can0 266#0D0016451500DC00
(1.213000) can0 3FD#0200740000000090
(1.217000) can0 3A3#12D00000280DFC01
(1.219000) can0 129#6B230C600020FF3F
(1.221000) can0 1E5#286C0400000060DE
(1.223000) can0 381#A0C00690D900B210
(1.225000) can0 78A#01000300AE048902
(1.227000) can0 428#20001010000010
(1.229000) can0 129#ED240C600020FF3F
(1.231000) can0 272#080004E907B00304
(1.232000) can0 309#0000000000000000
(1.234000) can0 441#D200B6C358003D49
(1.236000) can0 420#2801404B00000002
(1.239000) can0 2E1#FB1FAF3999A30900
(1.242000) can0 257#51BC878712D84301
(1.244000) can0 1F8#3A000000
(1.246000) can0 2C4#19C27C030D1C2003
(1.252000) can0 2B4#4F05E40D7B01
(1.254000) can0 221#6105555501050039
(1.256000) can0 553#00000000000060B8
(1.258000) can0 396#010F11470E02117D
(1.266000) can0 1D8#2940C00700006069
(1.272000) can0 243#04FCE3031281FFFF
(1.278000) can0 315#04673D7202484759
(1.284000) can0 118#256B950000C84400
(1.288000) can0 5F3#27EC20
(1.289000) can0 1D8#293EC0070000C0C7
(1.291000) can0 20A#F61509821801
(1.295000) can0 381#22A2F027F1200000
(1.297000) can0 2C1#0219060000D09201
(1.299000) can0 2E8#010100000600C0B2
(1.300000) can0 257#54BF878712D84301
(1.302000) can0 1D5#290000000000201F
(1.304000) can0 3AE#2B4000080000F064
(1.306000) can0 3A2#52A6FFFF03000000
(1.308000) can0 401#102AC690B490BB90
(1.310000) can0 118#376E950000C854FF
(1.312000) can0 1D5#290000000000403F
(1.314000) can0 3F5#0000C838820C0000
(1.316000) can0 102#22B3880494FAA009
(1.318000) can0 227#61053E0040000081
(1.320000) can0 118#686F950000C884FF
(1.323000) can0 20E#160600
(1.331000) can0 39A#55FFFDFDFD01000A
(1.335000) can0 380#0000000000000000
(1.340000) can0 2C1#0400000000000000
(1.342000) can0 709#1000000000000000
(1.344000) can0 1F8#3A000000
(1.346000) can0 204#010000FF00000010
(1.352000) can0 243#030000801D745400
(1.358000) can0 221#6105555501052059
(1.360000) can0 1D8#293E80070000A067
(1.362000) can0 1D6#400800004A049808
(1.364000) can0 397#E31F80E31C0A0000
(1.366000) can0 2E5#0000243100009F00
(1.368000) can0 132#E48AE5FEF33D
(1.376000) can0 3AE#2B40000800001185
(1.380000) can0 263#04000000B0200000
(1.384000) can0 22A#00004916
(1.388000) can0 201#0168980000000000
(1.390000) can0 283#1D1D00004100
(1.392000) can0 241#6F6ED49B1B4500
(1.394000) can0 2AA#57C0C3
(1.396000) can0 2E1#398D2AFF0F000000
(1.398000) can0 263#700ED29FA7AF1A00
(1.400000) can0 666#0000C800
(1.401000) can0 257#49B4878712D84301
(1.403000) can0 221#6055551554513118
(1.409000) can0 2E5#0000243100009F00
(1.411000) can0 288#0106184C00600156
(1.414000) can0 2E1#026D66021A620000
(1.416000) can0 102#22B3880494FAA009
(1.418000) can0 227#62053E0040000081
(1.420000) can0 419#00
(1.422000) can0 261#7B4D0A000040959D
(1.424000) can0 3A1#C1FFFF833D00306F
(1.426000) can0 20C#BEF8340AE800300C
(1.428000) can0 401#162AC590CF90CB90
(1.430000) can0 1D8#293E800700008047
(1.432000) can0 7AA#0800000018011B0E
(1.433000) can0 441#D400B6C358000D1B
(1.435000) can0 399#000000
(1.438000) can0 132#ED8AECFE153E
(1.440000) can0 118#A56B950000C8C400
(1.444000) can0 3E2#04000031FFCE00
(1.450000) can0 2C4#018000D200000000
(1.455000) can0 31E#0100000000000000
(1.460000) can0 27A#A1BF0C0190056202
(1.462000) can0 268#3A167B01FF
(1.464000) can0 397#E31F80E31C0A0000
(1.466000) can0 757#2C3F3E0000000000
(1.468000) can0 243#04FCE3031281FFFF
(1.470000) can0 1D8#293E8007000000C7
(1.472000) can0 3A2#0110200000000000
(1.473000) can0 439#0000000000185A04
(1.475000) can0 2E1#1021040010000004
(1.477000) can0 132#DF8AEAFE043E
(1.479000) can0 118#E86F950000C804FF
(1.482000) can0 340#0900000000000000
(1.484000) can0 261#3100B6FFAF49DAAE
(1.486000) can0 2E5#0000243100009F00
(1.488000) can0 3A8#0300000000000000
(1.490000) can0 283#1D1D00004100
(1.492000) can0 1D5#290000000000807F
(1.494000) can0 2AA#57D0D3
(1.496000) can0 2C1#0219060000D09201
(1.497000) can0 263#700ED29FA7AF1A00
(1.499000) can0 249#9B000000
(1.501000) can0 103#22B38804A2EC2032
(1.503000) can0 234#31100332C90420FE
(1.505000) can0 3AE#2B400008000050C4
(1.508000) can0 448#20001010000010
(1.521000) can0 31A#200100000000C0FE
(1.527000) can0 1D5#290000000000E0DF
(1.532000) can0 45A#A4B8383A604A3760
(1.536000) can0 441#D600B6C358001525
(1.542000) can0 263#02004010217E7E21
(1.544000) can0 1F8#3A000000
(1.546000) can0 204#010000FF00000010
(1.548000) can0 401#1C2A9C90A4909890
(1.550000) can0 318#1A063105102B2DD9
(1.552000) can0 21D#0400B50000000000
(1.554000) can0 473#0000030000000000
(1.556000) can0 3B3#8C8004300100A800
(1.558000) can0 383#931836002BA0A003
(1.562000) can0 409#00
(1.568000) can0 279#12BFFC0190056502
(1.574000) can0 3A1#844C0FCA001C62E7
(1.578000) can0 2E3#02000067010B00
(1.581000) can0 1E5#286C0400000060DE
(1.583000) can0 3DB#0400001705000000
(1.585000) can0 2E5#0000243100009F00
(1.587000) can0 201#0168980000000000
(1.593000) can0 129#27280E600020FF3F
(1.595000) can0 2E5#0000243100009F00
(1.597000) can0 261#322A9901805C420A
(1.599000) can0 2E8#010100000600F0E2
(1.601000) can0 103#22B38804A2EC2032
(1.603000) can0 1D5#290000000000E0DF
(1.605000) can0 3FD#0000003C20000180
(1.608000) can0 333#0410590700
(1.610000) can0 118#766C950000C89400
(1.612000) can0 1D5#29000000000000FF
(1.615000) can0 3F5#0000C838820C0000
(1.617000) can0 102#22B3880494FAA009
(1.623000) can0 2D2#F82EA84EC710E822
(1.625000) can0 39A#0427DF8EFFF2BA7E
(1.627000) can0 428#20001010000010
(1.628000) can0 129#3C2C0E600020FF3F
(1.630000) can0 118#576E950000C874FF
(1.632000) can0 1D5#290000000000403F
(1.634000) can0 441#D700B6C358001D2E
(1.637000) can0 420#2801404B00000004
(1.639000) can0 343#0092603E97000000
(1.641000) can0 3C2#0055555500006A05
(1.642000) can0 1D5#290000000000605F
(1.644000) can0 1F8#3A000000
(1.647000) can0 23E#00003AC002FFCF0A
(1.649000) can0 401#2100000000000000
(1.651000) can0 666#0000C800
(1.653000) can0 249#D3030000
(1.654000) can0 1D5#290000000000807F
(1.656000) can0 3FD#0000003C20000180
(1.660000) can0 553#000000000000A0F8
(1.662000) can0 281#3F00FF1F0001
(1.664000) can0 257#46B1878712D84301
(1.666000) can0 207#003C381D1C000000
(1.668000) can0 4E2#0600000000000000
(1.670000) can0 401#2200000000000000
(1.672000) can0 3A2#0110200000000000
(1.674000) can0 422#700010000000
(1.677000) can0 2E5#0000243100009F00
(1.679000) can0 129#F2210E600020FF3F
(1.681000) can0 340#0B40000000000000
(1.682000) can0 7A8#C4CCC18300008200
(1.685000) can0 2E1#398D2AFF0F000000
(1.686000) can0 39D#045CE12700
(1.688000) can0 287#524C5553C5020C0C
(1.690000) can0 283#1D1D00004100
(1.693000) can0 241#6E6E949B1B4500
(1.695000) can0 2AA#57F0F3
(1.696000) can0 2C1#0219060000D09201
(1.698000) can0 2E8#01010000060000F2
(1.700000) can0 1E5#286C0400000060DE
(1.702000) can0 1D5#290000000000201F
(1.704000) can0 37A#CBE0010000000000
(1.707000) can0 3FD#01000A0000080280
(1.714000) can0 448#20001010000010
(1.716000) can0 102#22B3880494FAA009
(1.718000) can0 263#690ED297C78F7A00
(1.720000) can0 1D8#293C4007000020A5
(1.722000) can0 2A8#010100000600F0A2
(1.724000) can0 78A#01000100F45CCC5D
(1.731000) can0 39A#55FFFDFDFD01000A
(1.733000) can0 2E1#0400000000202607
(1.735000) can0 441#D700B6C358002536
(1.737000) can0 2C1#0400000000000000
(1.739000) can0 129#99270E60FF1FFF3F
(1.741000) can0 1E5#286C0400000060DE
(1.742000) can0 545#02000500000090E1
(1.749000) can0 1F8#3A000000
(1.755000) can0 229#460000
(1.761000) can0 3FD#0200740000000090
(1.765000) can0 1A5#00101F10E5
(1.774000) can0 243#04FCE3031281FFFF
(1.780000) can0 2E5#0000243100009F00
(1.783000) can0 22A#00004916
(1.785000) can0 2E5#0000243100009F00
(1.787000) can0 132#E88AEFFE0C3E
(1.789000) can0 25B#D38000056A8630D3
(1.791000) can0 266#0C0016451500DC00
(1.795000) can0 2AA#570003
(1.801000) can0 2E1#026D66021A620000
(1.805000) can0 1D5#290000000000605F
(1.811000) can0 39D#075FE12700
(1.813000) can0 1D5#290000000000807F
(1.815000) can0 102#22B3880494FAA009
(1.817000) can0 2C1#431A900000000000
(1.820000) can0 118#4A61950000C874FF
(1.822000) can0 261#140F904C00402459
(1.824000) can0 122#01000000003F0000
(1.826000) can0 39A#0423E38AFFF2BA7E
(1.828000) can0 372#0E00000C067D0000
(1.830000) can0 118#EC62950000C81400
(1.832000) can0 1D5#290000000000C0BF
(1.834000) can0 3A2#60E572BF1C00436E
(1.836000) can0 420#2801404B00000005
(1.838000) can0 263#02004010217E7E21
(1.840000) can0 118#7C63950000C8A4FF
(1.843000) can0 677#0400000000000000
(1.845000) can0 1F8#3A000000
(1.846000) can0 264#3B000000A000
(1.849000) can0 113#019701
(1.855000) can0 118#CD64950000C8F4FF
(1.857000) can0 2C1#D86C7E00008A0200
(1.859000) can0 4E2#01400E0000002800
(1.861000) can0 108#D8D201EA00C42925
(1.862000) can0 268#3A167B01FF
(1.864000) can0 397#E31F80E31C0A0000
(1.866000) can0 552#00000000000060B7
(1.868000) can0 2C3#0000C04B010040CB
(1.870000) can0 381#5200000000002102
(1.872000) can0 7D7#323A000000000000
(1.874000) can0 439#0000000000185A04
(1.876000) can0 2E1#398D2AFF0F000000
(1.878000) can0 677#0000000000000000
(1.881000) can0 257#59BC878712E04301
(1.883000) can0 719#0100040000000000
(1.885000) can0 261#322A9901805C622A
(1.891000) can0 39D#F951E12700
(1.893000) can0 2E1#026D66021A610000
(1.895000) can0 2AA#571013
(1.897000) can0 2C1#0219060000D09201
(1.898000) can0 414#1000000000434956
(1.901000) can0 1D8#293A0007000060A3
(1.902000) can0 1D5#290000000000A09F
(1.904000) can0 355#800C00FF940000
(1.906000) can0 448#20001010000010
(1.909000) can0 129#27280960F71FFF3F
(1.911000) can0 288#0106184C006051A6
(1.913000) can0 3A3#0ED00000280DFC01
(1.915000) can0 102#22B3880492FAA009
(1.917000) can0 261#140F904C004084B9
(1.919000) can0 129#72290960F71FFF3F
(1.921000) can0 419#00
(1.923000) can0 2D2#F82EA84EC610E822
(1.925000) can0 78A#01000300AE048902
(1.926000) can0 39D#FA52E12700
(1.928000) can0 129#AD2A0960F71FFF3F
(1.930000) can0 3AE#24400008000071DE
(1.932000) can0 1D5#29000000000000FF
(1.934000) can0 441#D600B6C358003545
(1.937000) can0 420#2801404B00008005
(1.939000) can0 343#009268BE97000000
(1.941000) can0 2E1#6580080095E2306A
(1.943000) can0 3AE#23400008000081ED
(1.945000) can0 2E5#0000243100009F00
(1.947000) can0 132#F48AFAFE253E
(1.953000) can0 129#012C0860F81FFF3F
(1.955000) can0 2D3#5F0057031E095573
(1.957000) can0 285#034A7D5277000000
(1.959000) can0 677#0200000000000000
(1.961000) can0 257#45B0878712D84301
(1.963000) can0 281#3F00FF1F0001
(1.965000) can0 423#00001000000000
(1.971000) can0 552#00000000000070C7
(1.976000) can0 2E1#398D2AFF0F000000
(1.981000) can0 263#04000000B0200000
(1.987000) can0 1D5#290000000000A09F
(1.992000) can0 401#002AD790CE90C890
(1.993000) can0 2AA#572023
(1.995000) can0 2E5#0000243100009F00
(1.997000) can0 132#EB8AF3FE243E
(1.999000) can0 118#3C63950000C864FF
(2.001000) can0 3A2#52A6FF7F04000000
(2.003000) can0 242#55558600
(2.009000) can0 2E1#FB1FAC0999A50900
(2.011000) can0 288#0106184C006061B6
(2.018000) can0 381#1600040000640000
(2.026000) can0 1D8#293A40070000E063
(2.030000) can0 132#F28AF2FE1B3E
(2.037000) can0 1D5#290000000000403F
(2.041000) can0 2E1#6580080095E2306A
(2.043000) can0 7AA#235DF847060E001C
(2.045000) can0 261#00100500FF4F0059
(2.047000) can0 39D#FD55E12700
(2.048000) can0 113#019701
(2.050000) can0 7FF#04857EDD5C010100
(2.052000) can0 211#A713710F0001
(2.054000) can0 234#31E103804300D447
(2.056000) can0 253#0164A6C66490B505
(2.058000) can0 132#DF8AEFFE173E
(2.064000) can0 266#0C0016451500DC00
(2.066000) can0 3A2#0110200000000000
(2.068000) can0 2C3#0000C04B010040CB
(2.071000) can0 3A1#844C0FCA001C0287
(2.078000) can0 439#0000000000185A04
(2.080000) can0 1E5#286C04000000209E
(2.082000) can0 1D5#290000000000E0DF
(2.083000) can0 3DB#0300000000800000
(2.085000) can0 2E5#0000243100009F00
(2.087000) can0 132#EE8AEEFE233E
(2.089000) can0 1D8#293C40070000C045
(2.091000) can0 228#0106184C00606156
(2.093000) can0 261#7B4D0A000040353D
(2.095000) can0 2AA#573033
(2.097000) can0 2C1#0219060000D09201
(2.099000) can0 3A2#52A6FFFF03000000
(2.100000) can0 257#34A7878712D04301
(2.105000) can0 3FD#0000003C20000180
(2.113000) can0 1D5#290000000000201F
(2.119000) can0 3F5#0000C838830C0000
(2.123000) can0 1E5#286C04000000209E
(2.125000) can0 22B#FFFF1F80FF000000
(2.127000) can0 39A#55FFFDFDFD01000A
(2.129000) can0 45A#A4B8383A604A3760
(2.131000) can0 266#0C0016451500DC00
(2.132000) can0 2E1#6580080095E2306A
(2.134000) can0 441#D800B6C358000517
(2.136000) can0 420#2801404B00008006
(2.138000) can0 2BF#00000000000001
(2.140000) can0 266#0C0016451500DC00
(2.144000) can0 545#020003000000509F
(2.151000) can0 2C4#C835803281E462AA
(2.157000) can0 3FD#01000A0000080280
(2.162000) can0 266#0C0016451500DC00
(2.164000) can0 279#08B5FC0190056502
(2.166000) can0 4E2#04CEA00C1AA00100
(2.168000) can0 376#0148480052000000
(2.170000) can0 243#04FCE3031281FFFF
(2.172000) can0 1D8#293C80070000C085
(2.174000) can0 356#0000000000000000
(2.176000) can0 35B#0000000000000000
(2.178000) can0 22B#FFFF1F80FF000000
(2.181000) can0 2C1#2163186402000000
(2.182000) can0 257#38AB878712D04301
(2.184000) can0 225#5555FA00
(2.187000) can0 201#0168980000000000
(2.189000) can0 261#7B4D0A000040959D
(2.191000) can0 228#0106184C00607166
(2.193000) can0 381#A0C00690D900B210
(2.195000) can0 2AA#574043
(2.197000) can0 2E1#FB1FAD0999A00900
(2.198000) can0 129#C6250960FF1FFF3F
(2.200000) can0 1E5#286C04000000209E
(2.202000) can0 1D5#290000000000605F
(2.204000) can0 37A#C009000000000000
(2.206000) can0 39B#0318FF80B08850C0
(2.213000) can0 3FD#0200740000000090
(2.216000) can0 401#0B2AB990C790BD90
(2.218000) can0 263#690ED297C78F7A00
(2.221000) can0 212#5904000081FF7731
(2.223000) can0 2A8#01010000060040F2
(2.224000) can0 22B#FFFF1F80FF000000
(2.226000) can0 428#20001010000010
(2.228000) can0 45A#A4B8383A604A3760
(2.230000) can0 118#746A950000C89400
(2.232000) can0 304#0000000000000000
(2.234000) can0 3AE#244000080000107D
(2.236000) can0 420#2801404B00000007
(2.238000) can0 282#7CD0210724F40224
(2.241000) can0 343#00925C6E97000000
(2.243000) can0 6A2#0000000000
(2.245000) can0 2E1#1021040010000004
(2.247000) can0 3F9#0500000000000000
(2.253000) can0 113#019701
(2.256000) can0 261#31000D00B049DA07
(2.258000) can0 132#FB8AF5FE203E
(2.264000) can0 1D8#293C40070000E065
(2.269000) can0 552#000000000000A0F7
(2.278000) can0 7D5#2C3F3F0000000000
(2.282000) can0 118#296F950000C84400
(2.289000) can0 7A8#C4CCC18300008200
(2.291000) can0 228#0106184C00608176
(2.293000) can0 2E1#FB1FADE998A00900
(2.295000) can0 2AA#575053
(2.297000) can0 132#F28AECFE1E3E
(2.299000) can0 118#5A61950000C884FF
(2.301000) can0 261#140F704C00400419
(2.303000) can0 221#6055551554515138
(2.305000) can0 1BB#02
(2.307000) can0 132#018BF4FE323E
(2.309000) can0 1D8#293C400700008005
(2.311000) can0 288#0106184C006091E6
(2.313000) can0 3A3#1ED00000280DFC01
(2.315000) can0 2E5#000024310000A000
(2.317000) can0 261#05223BCA9A42100E
(2.319000) can0 129#152109600220FF3F
(2.321000) can0 252#F13F4F7400FC0F00
(2.326000) can0 1D5#290000000000E0DF
(2.330000) can0 132#F98AECFE173E
(2.334000) can0 266#0C0016451500DC00
(2.340000) can0 3AE#24400008000041AE
(2.342000) can0 2E1#1021040010000004
(2.344000) can0 1F8#3A000000
(2.355000) can0 204#010000FF00000010
(2.361000) can0 3D8#50004A00
(2.364000) can0 1D5#290000000000605F
(2.366000) can0 23E#00003AC002FFEF2A
(2.368000) can0 3AE#26400008000061D0
(2.370000) can0 545#300566009BA9C9F2
(2.372000) can0 1D5#290000000000807F
(2.374000) can0 439#0000000000185A04
(2.377000) can0 2C1#2163186402000000
(2.379000) can0 129#4F270B600420FF3F
(2.381000) can0 2C2#5563A80680C11AAA
(2.382000) can0 7A8#01000000FFA1E812
(2.384000) can0 441#4B8589003200180C
(2.386000) can0 201#0168980000000000
(2.389000) can0 401#142ADE90DD90E490
(2.391000) can0 228#0106184C00609186
(2.395000) can0 2AA#576063
(2.396000) can0 261#140F704C00406479
(2.403000) can0 414#1233585646544756
(2.405000) can0 313#0264640500009075
(2.407000) can0 123#01000000003F0000
(2.410000) can0 129#F82A0B600020FF3F
(2.412000) can0 201#0200000000000000
(2.413000) can0 3F5#0000C838820C0000
(2.415000) can0 102#22B3880494FAA009
(2.417000) can0 2C1#431A900000000000
(2.419000) can0 118#C66D950000C8E4FF
(2.421000) can0 266#0C0016451500DC00
(2.424000) can0 2E1#6580080096E2306A
(2.426000) can0 39A#0423E38A03F7BA7E
(2.428000) can0 401#162AE490EC90E990
(2.430000) can0 22B#FFFF1F80FF0F0000
(2.432000) can0 7AA#0800000018011B0E
(2.433000) can0 441#D600B6C358001D2D
(2.436000) can0 399#000000
(2.439000) can0 132#048BF3FE073E
(2.445000) can0 266#0C0016451500DC00
(2.456000) can0 3F9#0700000000000000
(2.458000) can0 4E2#00D1000200002800
(2.460000) can0 1D8#293C800700006025
(2.462000) can0 207#003A361C1B000000
(2.464000) can0 281#3F00FF1F0001
(2.467000) can0 757#2C003E0000000000
(2.469000) can0 129#1D200B600120FF3F
(2.471000) can0 266#0C0016451500DC00
(2.472000) can0 422#700010000000
(2.474000) can0 2EC#5790D5
(2.476000) can0 261#7B4D0A000040B5BD
(2.478000) can0 2B3#0A2E2C0005000002
(2.481000) can0 266#0C0016451500DC00
(2.482000) can0 7A8#0240BE07000F0000
(2.484000) can0 287#524C5553C5020C0B
(2.486000) can0 39D#F850E12700
(2.488000) can0 129#43220B600120FF3F
(2.490000) can0 1E5#286C0400000040BE
(2.492000) can0 1D5#29000000000000FF
(2.494000) can0 3A2#72A6FFFF03000000
(2.497000) can0 3C0#0700000000000000
(2.498000) can0 2D7#6CA98106
(2.500000) can0 257#50BB878712D84301
(2.502000) can0 1D5#290000000000201F
(2.504000) can0 253#0064A6C66490B505
(2.506000) can0 448#20001010000010
(2.509000) can0 401#1A2ABB90C790C190
(2.511000) can0 3D3#000000
(2.513000) can0 3A3#1AD00000280DFC01
(2.514000) can0 3F5#0000C838830C0000
(2.517000) can0 102#22B3880494FAA009
(2.523000) can0 1E5#286C04000000209E
(2.529000) can0 2D1#FF01
(2.533000) can0 272#0380610000000000
(2.537000) can0 441#D500B6C358002534
(2.539000) can0 1D8#293C4007000060E5
(2.541000) can0 261#3100AAFFAF49FAC2
(2.543000) can0 6A2#0000000000
(2.545000) can0 2E5#0000243100009F00
(2.547000) can0 2B4#4905E50D6701
(2.551000) can0 129#1B280B60FF1FFF3F
(2.557000) can0 3FD#0000003C20000180
(2.563000) can0 553#0000000000003088
(2.568000) can0 2B6#000300
(2.570000) can0 545#E0045DD09AA629C4
(2.572000) can0 7D5#3200000000000000
(2.574000) can0 439#0000000000185A04
(2.576000) can0 2C1#2163186402000000
(2.578000) can0 263#04000000B0200000
(2.580000) can0 22B#FFFF1F80FF7F0000
(2.582000) can0 1D5#290000000000201F
(2.584000) can0 287#524C5553C5020C0B
(2.586000) can0 201#0168980000000000
(2.589000) can0 372#0A384206010000AA
(2.591000) can0 228#0106184C0060B1A6
(2.593000) can0 3A2#72A6FF7F04000000
(2.595000) can0 2E5#000024310000A000
(2.597000) can0 2E1#0400000000202607
(2.599000) can0 129#7B2D0B600020FF3F
(2.601000) can0 545#010000000010308B
(2.603000) can0 242#55558600
(2.604000) can0 3FD#0000003C20000180
(2.607000) can0 37A#C009000000000000
(2.610000) can0 1E5#286C0400000040BE
(2.612000) can0 1D5#290000000000807F
(2.615000) can0 3F5#0000C838830C0000
(2.617000) can0 102#22B3880494FAA009
(2.619000) can0 2D2#F82EA84EC410E822
(2.621000) can0 266#0C0016451500DC00
(2.623000) can0 2A8#0101000006008032
(2.625000) can0 3B2#2300001800E79000
(2.626000) can0 39A#0423E38EFFF6BE7E
(2.628000) can0 129#B0200B600020FF3F
(2.630000) can0 266#0C0016451500DC00
(2.632000) can0 719#3302600000000000
(2.634000) can0 3AE#274000080000E050
(2.636000) can0 420#2801404B00000001
(2.639000) can0 282#7CD0510728F40224
(2.641000) can0 257#3FB2878712D04301
(2.644000) can0 1D5#290000000000E0DF
(2.645000) can0 2C4#4D80000200000000
(2.647000) can0 224#0408004019011008
(2.650000) can0 129#43220B600120FF3F
(2.652000) can0 118#7D64950000C8A4FF
(2.658000) can0 3FD#01000A0000080280
(2.661000) can0 266#0C0016451500DC00
(2.663000) can0 126#17982F5459
(2.665000) can0 279#0DBAFC0190056502
(2.667000) can0 423#00001000000000
(2.669000) can0 2C3#0000C04B010040CB
(2.671000) can0 3A1#844C0FCA0018C243
(2.674000) can0 7D5#2C3F3F0000000000
(2.676000) can0 303#1405007E34ACBF00
(2.678000) can0 677#0000000000000000
(2.680000) can0 1E5#286C04000000209E
(2.682000) can0 1D5#290000000000605F
(2.684000) can0 287#524C5553C5020C0C
(2.686000) can0 23E#00003AC002FF6FAA
(2.688000) can0 243#00FCCFCC99260E29
(2.690000) can0 1E5#286C0400000040BE
(2.692000) can0 3C2#2955000000000000
(2.693000) can0 2AA#579093
(2.695000) can0 2E5#0000243100009F00
(2.697000) can0 139#00
(2.699000) can0 118#7269950000C894FF
(2.702000) can0 545#01000000001060BB
(2.704000) can0 3FD#0200740000000090
(2.707000) can0 2F1#0802003004B00300
(2.709000) can0 1E5#286C04000000007E
(2.711000) can0 359#5C0400000D1A8B84
(2.713000) can0 3F5#0000C838820C0000
(2.715000) can0 102#22B3880492FAA009
(2.717000) can0 261#00100300FF4FA0F7
(2.719000) can0 118#646B950000C884FF
(2.721000) can0 227#68053E0040000081
(2.723000) can0 2F2#1201
(2.729000) can0 2E1#1021040010000004
(2.731000) can0 272#0380610000000000
(2.733000) can0 261#3100DBFFAF49BAB3
(2.736000) can0 22B#FFFF0F80FFFF0300
(2.738000) can0 282#7CD0510728F40224
(2.740000) can0 266#0C0016451500DC00
(2.742000) can0 6A2#0000000000
(2.744000) can0 1F8#3A000000
(2.745000) can0 2C4#12B900DB0D558502
(2.747000) can0 243#030000801D745400
(2.749000) can0 1D8#293E8007000000C7
(2.751000) can0 266#0C0016451500DC00
(2.758000) can0 1D5#290000000000403F
(2.760000) can0 266#0C0016451500DC00
(2.762000) can0 1D6#400800004A049808
(2.764000) can0 397#E31F80E31C0A0000
(2.767000) can0 545#900453D09AA689CA
(2.776000) can0 381#300000C000000000
(2.781000) can0 263#04000000B0200000
(2.786000) can0 262#0B00A8B200B09010
(2.788000) can0 129#D9200B60FF1FFF3F
(2.790000) can0 1E5#286C04000000007E
(2.792000) can0 241#6E6E949B1B4500
(2.794000) can0 2AA#57A0A3
(2.796000) can0 261#05223BCA9A42F0EE
(2.798000) can0 263#700ED29FA7AF1A00
(2.799000) can0 266#0D0016451500DC00
(2.801000) can0 1D5#290000000000E0DF
(2.803000) can0 234#32100331C504C09A
(2.805000) can0 2E5#0000243100009F00
(2.807000) can0 123#01000000003F0000
(2.811000) can0 1D8#293E80070000C087
(2.816000) can0 1D5#29000000000000FF
(2.822000) can0 132#FE8AF0FE043E
(2.826000) can0 682#000000400411D005
(2.830000) can0 132#008BE9FEFE3D
(2.832000) can0 1D5#290000000000403F
(2.834000) can0 719#163C005A79010000
(2.836000) can0 421#F21A0000002000
(2.838000) can0 263#02004010217E7E21
(2.839000) can0 118#F167950000C81400
(2.841000) can0 3E2#040000310FCF00
(2.843000) can0 3C3#0000000000A50000
(2.845000) can0 2C4#13A300C50D411502
(2.849000) can0 224#0408004019011008
(2.853000) can0 229#8C0B00
(2.858000) can0 339#02F1FE008007800F
(2.864000) can0 3AE#26400008000050BF
(2.868000) can0 757#2C003E0000000000
(2.870000) can0 118#E46A950000C80400
(2.872000) can0 1D5#290000000000C0BF
(2.874000) can0 439#0000000000185A04
(2.876000) can0 261#140F704C00404459
(2.877000) can0 263#04000000B0200000
(2.879000) can0 1D8#2940C0070000A0A9
(2.881000) can0 340#0B40000000000000
(2.883000) can0 719#1700000000000000
(2.885000) can0 2E1#0400000000202607
(2.887000) can0 201#0168980000000000
(2.889000) can0 283#1C1C00004100
(2.892000) can0 379#03C00E4833B82200
(2.894000) can0 2AA#57B0B3
(2.896000) can0 2C1#0219060000D09201
(2.898000) can0 263#700ED29FA7AF1A00
(2.904000) can0 3AE#26400008000060CF
(2.906000) can0 448#20001010000010
(2.908000) can0 129#6A2C0960FE1FFF3F
(2.910000) can0 1E5#286C04000000007E
(2.912000) can0 201#0200000000000000
(2.914000) can0 3F5#0000C838820C0000
(2.915000) can0 102#22B3880494FAA009
(2.917000) can0 132#FD8AE4FEEC3D
(2.920000) can0 118#B86F950000C8D4FF
(2.922000) can0 292#F205975F7D010000
(2.925000) can0 3B2#240000000000007D
(2.927000) can0 39D#035BE12700
(2.929000) can0 129#7F2E0960FD1FFF3F
(2.931000) can0 272#0380610000000000
(2.932000) can0 2E1#398D2AFF0F000000
(2.934000) can0 22B#FFFF0F80FFFFFF1F
(2.936000) can0 420#2801404B00008002
(2.938000) can0 2BF#00000000000001
(2.940000) can0 266#0D0016451500DC00
(2.942000) can0 6A2#0000000000
(2.944000) can0 1F8#3A000000
(2.945000) can0 2C4#1400000000000000
(2.949000) can0 243#030000801D745400
(2.955000) can0 118#1C62950000C84400
(2.961000) can0 27A#A0BE0C0190056202
(2.966000) can0 201#006F700000E4FF00
(2.968000) can0 129#6C220860FC1FFF3F
(2.970000) can0 7D5#2BADCFFF00000000
(2.972000) can0 1D5#29000000000000FF
(2.974000) can0 439#0000000000185A04
(2.976000) can0 2C1#2163186402000000
(2.978000) can0 129#B6230760FB1FFF3F
(2.980000) can0 1E5#286C0400000060DE
(2.982000) can0 300#1278CEA87F02F3C3
(2.984000) can0 452#2EA404
(2.986000) can0 7A8#01000000FFA1E812
(2.989000) can0 320#0000000000000000
(2.991000) can0 118#0066950000C82400
(2.993000) can0 1D5#290000000000403F
(2.995000) can0 2AA#57C0C3
(2.997000) can0 132#F08AE9FEFA3D
(2.999000) can0 129#8A250760FA1FFF3F
(3.001000) can0 103#22B38804A4EC2032
(3.003000) can0 221#6055551554513118
(3.005000) can0 213#283D
(3.007000) can0 39D#055DE12700
(3.009000) can0 70B#0200C80064DA4000
(3.010000) can0 266#0D0016451500DC00
(3.012000) can0 1D5#290000000000807F
(3.014000) can0 3F5#0000C838830C0000
(3.019000) can0 102#22B3880494FAA009
(3.027000) can0 212#5904000081FF7731
(3.033000) can0 129#64280660FA1FFF3F
(3.037000) can0 441#D300B6C358000D1A
(3.042000) can0 129#9C290660FB1FFF3F
(3.043000) can0 3E3#04000000
(3.045000) can0 2C4#550001081000FF00
(3.047000) can0 224#0408004019011008
(3.054000) can0 318#1A063205102B2BD8
(3.056000) can0 1A5#00101F784D
(3.058000) can0 381#1800000000000000
(3.060000) can0 266#0D0016451500DC00
(3.062000) can0 128#0000EC0A02
(3.064000) can0 2E1#FB1FACE998A00900
(3.066000) can0 757#3200000000000000
(3.068000) can0 401#042ACC90CC90C690
(3.070000) can0 118#186E950000C83400
(3.072000) can0 1D5#290000000000403F
(3.075000) can0 439#0000000000185A04
(3.077000) can0 2E1#0400000000202607
(3.078000) can0 45A#FD07F8FF03000132
(3.080000) can0 257#4DB8878712D84301
(3.082000) can0 1D5#290000000000605F
(3.084000) can0 22B#FFFF0F80FFFFFF1F
(3.086000) can0 39D#075FE12700
(3.088000) can0 401#052AC190BB90C790
(3.090000) can0 22B#FFFF0F80FFFFFFFF
(3.093000) can0 241#6F6ED49B1B4500
(3.095000) can0 2AA#57D0D3
(3.097000) can0 2C1#0219060000D09201
(3.099000) can0 129#992F07600020FF3F
(3.100000) can0 257#4EB9878712D84301
(3.103000) can0 242#55558600
(3.105000) can0 3FD#0000003C20000180
(3.108000) can0 2E5#0000243100009F00
(3.110000) can0 118#AB62950000C8D4FF
(3.112000) can0 1D5#290000000000C0BF
(3.114000) can0 3F5#0000C838830C0000
(3.116000) can0 78A#01000100F45CB45D
(3.118000) can0 263#690ED297C78F7A00
(3.122000) can0 212#5904000081FF7731
(3.132000) can0 392#000B000000000000
(3.136000) can0 441#D200B6C358001521
(3.140000) can0 263#02004010217E7E21
(3.142000) can0 6A2#0000000000
(3.144000) can0 1F8#3A000000
(3.146000) can0 3F9#0500000000000000
(3.157000) can0 3FD#01000A0000080280
(3.166000) can0 401#082AC490BA90B690
(3.168000) can0 132#098BE6FE003E
(3.170000) can0 1D8#293E800700004007
(3.172000) can0 401#092AB490C090C290
(3.174000) can0 422#700010000000
(3.176000) can0 2EC#570045
(3.178000) can0 263#04000000B0200000
(3.180000) can0 1D8#293E800700006027
(3.182000) can0 22A#00004916
(3.184000) can0 441#4B8589003200180C
(3.186000) can0 201#0168980000000000
(3.188000) can0 320#0100000800000000
(3.190000) can0 1E5#286C04000000007E
(3.193000) can0 379#0600CFB1800D0200
(3.194000) can0 545#01000000001050AB
(3.196000) can0 261#00100200FF4F80D6
(3.198000) can0 677#0300000000000000
(3.200000) can0 257#53BE878712D84301
(3.202000) can0 1D5#290000000000E0DF
(3.205000) can0 788#01000000FFA1F812
(3.207000) can0 3FD#0200740000000090
(3.210000) can0 448#20001010000010
(3.212000) can0 201#0200000000000000
(3.213000) can0 3A3#14D00000280DFC01
(3.215000) can0 24A#03
(3.217000) can0 2C1#431A900000000000
(3.219000) can0 118#266D950000C844FF
(3.221000) can0 292#F205975F7D010000
(3.224000) can0 2E1#398D2AFF0F000000
(3.226000) can0 20C#C0F8340AE800300C
(3.228000) can0 372#0400000000009011
(3.230000) can0 1E5#286C04000000007E
(3.232000) can0 524#86730302201001
(3.234000) can0 441#D200B6C358001D29
(3.236000) can0 420#2801404B00000004
(3.238000) can0 2C1#0400000000000000
(3.240000) can0 1D8#293E8007000020E7
(3.242000) can0 257#45B0878712D84301
(3.244000) can0 3C3#0000000000A50000
(3.250000) can0 204#010000FF00000010
(3.256000) can0 3FD#0000003C20000180
(3.260000) can0 25D#3741012A04F08803
(3.262000) can0 128#0000EC0A02
(3.264000) can0 2B6#000300
(3.276000) can0 545#E00453E09AA47918
(3.284000) can0 2C1#2163186402000000
(3.290000) can0 441#4B85890032002014
(3.294000) can0 3A8#2A80E9F51F00FFBF
(3.297000) can0 3C0#0400000000000000
(3.299000) can0 249#D3040000
(3.301000) can0 2E1#1021040010000004
(3.303000) can0 221#6055551554519178
(3.305000) can0 3FD#01000A0000080280
(3.308000) can0 453#00000000
(3.310000) can0 31A#200100000000508E
(3.312000) can0 201#0200000000000000
(3.314000) can0 3F5#0000C838820C0000
(3.317000) can0 102#22B3880494FAA009
(3.319000) can0 129#E9250A600220FF3F
(3.321000) can0 2A8#010100000600F0A2
(3.323000) can0 227#68053E0040000081
(3.327000) can0 122#00001392D2000000
(3.333000) can0 7B5#030000
(3.337000) can0 441#D200B6C358002531
(3.340000) can0 129#89270A600320FF3F
(3.342000) can0 6A1#0000000000
(3.344000) can0 1F8#3A000000
(3.346000) can0 204#010000FF00000010
(3.348000) can0 372#0600031A27431902
(3.350000) can0 7FF#0800000100000000
(3.352000) can0 249#83050000
(3.359000) can0 3FD#0200740000000090
(3.367000) can0 41D#00
(3.372000) can0 2C3#555BA90680C112AA
(3.374000) can0 439#0000000000185A04
(3.376000) can0 2C1#2163186402000000
(3.377000) can0 263#04000000B0200000
(3.379000) can0 266#0D0016451500DC00
(3.381000) can0 287#524C5553C5020C0C
(3.383000) can0 719#163C005A79010000
(3.385000) can0 2E5#000024310000A000
(3.387000) can0 201#0168980000000000
(3.389000) can0 129#E82C0A600220FF3F
(3.391000) can0 266#0D0016451500DC00
(3.393000) can0 545#010000000010B00B
(3.396000) can0 3C0#0500010000000000
(3.398000) can0 2C1#0219060000D09201
(3.400000) can0 55A#0200000000000000
(3.402000) can0 1D5#290000000000605F
(3.404000) can0 313#026464050000B095
(3.406000) can0 23E#00003AC002FF8FCA
(3.408000) can0 372#0700000000000000
(3.410000) can0 118#C960950000C8F4FF
(3.412000) can0 201#0200000000000000
(3.414000) can0 3F5#0000C838820C0000
(3.415000) can0 3AA#0100000000000000
(3.417000) can0 132#FA8ADEFEFA3D
(3.419000) can0 1D8#29420008000060AC
(3.422000) can0 257#36A9878712D04301
(3.425000) can0 3A2#602573C20400436E
(3.427000) can0 428#20001010000010
(3.429000) can0 129#2D200A60FF1FFF3F
(3.431000) can0 272#080005E907B00304
(3.432000) can0 719#1700000000000000
(3.434000) can0 441#D200B6C358002D39
(3.436000) can0 420#2801404B00000005
(3.438000) can0 282#7CD0410720F40224
(3.440000) can0 1D8#294200080000A0EC
(3.442000) can0 3E2#04000031FFCE00
(3.444000) can0 3E3#04000000
(3.450000) can0 204#010000FF00000010
(3.452000) can0 25D#3741012A04F08803
(3.456000) can0 3DF#0000C00002D0001B
(3.463000) can0 383#931836002BA0A003
(3.467000) can0 400#00E0FBBEEFFB00
(3.473000) can0 401#182AED90AB90B290
(3.477000) can0 2E1#6580080097E2306A
(3.478000) can0 129#6B250960FE1FFF3F
(3.480000) can0 257#51BC878712D84301
(3.482000) can0 1D5#290000000000605F
(3.484000) can0 3A2#72A6FFFF03000000
(3.486000) can0 23E#00003AC002FFAFEA
(3.488000) can0 3C8#0300000000000000
(3.490000) can0 1E5#286C0400000040BE
(3.492000) can0 3A8#0300000000000000
(3.494000) can0 2AA#571013
(3.496000) can0 2C1#0219060000D09201
(3.499000) can0 129#622709600020FF3F
(3.501000) can0 2E8#0101000006002012
(3.503000) can0 242#55558600
(3.504000) can0 253#0064A6C66490B505
(3.506000) can0 448#20001010000010
(3.508000) can0 129#B52809600020FF3F
(3.510000) can0 266#0E0016451500DC00
(3.512000) can0 1D5#290000000000C0BF
(3.514000) can0 3F5#0000C838830C0000
(3.517000) can0 78A#010005009D0D0A00
(3.525000) can0 1E5#286C04000000209E
(3.529000) can0 545#020003000000F03F
(3.534000) can0 272#0380610000000000
(3.538000) can0 421#F21A0000002000
(3.540000) can0 1D8#294440080000E06E
(3.542000) can0 443#6D02FF030000
(3.544000) can0 3AE#264000080000C02F
(3.546000) can0 264#38000000A000
(3.548000) can0 243#030000801D745400
(3.550000) can0 261#140F804C0040E409
(3.551000) can0 211#A612710F0001
(3.553000) can0 41D#00
(3.555000) can0 221#610555550105E019
(3.557000) can0 186#9004000200B52925
(3.559000) can0 2C1#D86C7E00008A0200
(3.561000) can0 129#112D09600120FF3F
(3.565000) can0 126#16802F1C08
(3.569000) can0 4E2#04CCA00C19A00100
(3.575000) can0 3CC#0321C31A000E0900
(3.582000) can0 2C1#2163186402000000
(3.584000) can0 3AE#264000080000D03F
(3.586000) can0 201#0168980000000000
(3.588000) can0 320#0300000000000000
(3.590000) can0 1E5#286C04000000007E
(3.592000) can0 379#0A0000000A000C03
(3.594000) can0 2AA#572023
(3.595000) can0 3C0#0700000000000000
(3.597000) can0 263#700ED29FA7AF1A00
(3.599000) can0 1D8#294440080000A02E
(3.601000) can0 103#22B38804A2EC2032
(3.604000) can0 3FD#0000003C20000180
(3.607000) can0 221#605555155451F1D8
(3.609000) can0 129#6F220A600220FF3F
(3.611000) can0 266#0E0016451500DC00
(3.613000) can0 3A3#1AD00000280DFC01
(3.617000) can0 102#22B3880492FAA009
(3.618000) can0 129#78230A600220FF3F
(3.620000) can0 419#00
(3.622000) can0 2F2#1201
(3.624000) can0 3A1#C1FFFFFB3C00F0A6
(3.626000) can0 39A#001FDF86FBF2BA7E
(3.628000) can0 45A#A4B8383A604A3760
(3.630000) can0 266#0E0016451500DC00
(3.633000) can0 1D5#290000000000403F
(3.635000) can0 441#D200B6C358003D49
(3.637000) can0 724#030064
(3.639000) can0 343#0092683E97000000
(3.641000) can0 1E5#286C04000000209E
(3.643000) can0 1D5#290000000000605F
(3.645000) can0 261#140F804C00404469
(3.647000) can0 224#0408004019011008
(3.649000) can0 129#EB260A600120FF3F
(3.655000) can0 3FD#01000A0000080280
(3.658000) can0 118#2268950000C84400
(3.660000) can0 132#F48AD4FEDA3D
(3.662000) can0 1E5#286C0400000060DE
(3.665000) can0 261#05223BCA9A42504E
(3.667000) can0 400#00E0FBBEEFFB00
(3.669000) can0 132#F78AD1FEE33D
(3.671000) can0 118#236A950000C844FF
(3.673000) can0 1D5#290000000000C0BF
(3.674000) can0 2EC#575095
(3.677000) can0 261#00100200FF4F60B6
(3.679000) can0 129#D3290A600020FF3F
(3.681000) can0 340#0700000000000000
(3.683000) can0 7A8#0240BE07000F0000
(3.685000) can0 2E1#1021040010000004
(3.687000) can0 39D#065EE12700
(3.688000) can0 129#0C2A0A600020FF3F
(3.691000) can0 3AE#2840000800001182
(3.693000) can0 22B#FFFF07C0FFFFFFFF
(3.695000) can0 2E5#0000243100009F00
(3.697000) can0 2C1#0219060000D09201
(3.699000) can0 129#FD2B0A600020FF3F
(3.700000) can0 257#4CB7878712D84301
(3.702000) can0 1D5#290000000000201F
(3.705000) can0 3FD#0200740000000090
(3.708000) can0 381#EFFFFFCD0300A609
(3.710000) can0 360#0100000000000000
(3.712000) can0 201#0200000000000000
(3.714000) can0 3F5#0000C838820C0000
(3.715000) can0 3A2#602573C21C00436E
(3.718000) can0 132#FE8AD3FEE33D
(3.720000) can0 252#E13F537400FC0F00
(3.722000) can0 20E#160600
(3.724000) can0 682#0000004004116095
(3.726000) can0 2E5#0000243100009F00
(3.728000) can0 243#02FC6B1004B50000
(3.729000) can0 118#7960950000C8A4FF
(3.731000) can0 4E3#D5028201001C0000
(3.733000) can0 719#3302600000000000
(3.736000) can0 441#D000B6C35800050F
(3.738000) can0 263#02004010217D7E21
(3.740000) can0 118#3B61950000C86400
(3.742000) can0 257#4EB9878712D84301
(3.744000) can0 3C3#5555550100000000
(3.748000) can0 204#010000FF00000010
(3.754000) can0 1D8#2946800800008050
(3.760000) can0 3DD#0400A00E00000000
(3.764000) can0 1F9#0000000000000000
(3.777000) can0 552#00000000000090E7
(3.784000) can0 129#F4230C600620FF3F
(3.790000) can0 201#0168980000000000
(3.794000) can0 3C2#2955000000000000
(3.799000) can0 1FA#3AC001
(3.805000) can0 103#22B38804A4EC2032
(3.811000) can0 39D#F951E12700
(3.817000) can0 2E1#026D66021A620000
(3.819000) can0 212#5904000081FF7731
(3.821000) can0 2A8#01010000060040F2
(3.824000) can0 227#69053F0040000081
(3.826000) can0 39A#001FDB86FFF6BA7E
(3.828000) can0 243#02FC6B1004B50000
(3.830000) can0 1E5#286C04000000007E
(3.831000) can0 4E3#0600000000000000
(3.833000) can0 34A#0207000000000090
(3.835000) can0 441#CF00B6C358000D16
(3.837000) can0 201#0300000000000000
(3.839000) can0 129#AB290D600420FF3F
(3.842000) can0 257#53BE878712D84301
(3.844000) can0 3E3#04000000
(3.850000) can0 2C4#0400000000C0D84B
(3.852000) can0 266#0F0016451500DC00
(3.854000) can0 234#32E1038043001488
(3.856000) can0 186#9407000200B62925
(3.858000) can0 545#800567F09AA599FE
(3.860000) can0 1E5#286C0400000060DE
(3.862000) can0 268#3A167B01FF
(3.864000) can0 4E2#00D1000000002800
(3.866000) can0 3E8#0300000000000000
(3.868000) can0 739#2E07250100
(3.870000) can0 118#286E950000C84400
(3.872000) can0 1D5#290000000000403F
(3.875000) can0 439#0000000000185A04
(3.877000) can0 2E1#1021040010000004
(3.879000) can0 6C8#107C00F412200C00
(3.880000) can0 287#524C5553C5020C0C
(3.882000) can0 7A8#01000000FFA1F812
(3.885000) can0 261#31006D00B2493AC9
(3.887000) can0 3C8#0000000000000000
(3.893000) can0 3A8#00FF000000000000
(3.895000) can0 2E5#0000243100009F00
(3.897000) can0 2C1#0219060000D09201
(3.899000) can0 414#1233585646544756
(3.901000) can0 666#0000C800
(3.902000) can0 1D5#290000000000A09F
(3.904000) can0 355#800C00FF940000
(3.907000) can0 448#20001010000010
(3.909000) can0 1D8#294AC00800008094
(3.911000) can0 288#0106184C006091E6
(3.913000) can0 3A3#1CC00000280DFC01
(3.916000) can0 2E5#0000243100009F00
(3.918000) can0 2B3#008C74618F6D5B6E
(3.920000) can0 1D8#294AC0080000A0B4
(3.922000) can0 2A8#0101000006005002
(3.924000) can0 247#F00DFF0C00AB0100
(3.926000) can0 20C#C0F8340AE800300C
(3.927000) can0 132#E78ABFFEAB3D
(3.929000) can0 1E5#286C0400000040BE
(3.931000) can0 4E3#00AC01FE0F002800
(3.933000) can0 719#163C005A79010000
(3.936000) can0 441#CF00B6C35800151E
(3.938000) can0 263#02004010217D7E21
(3.940000) can0 266#100016451500DC00
(3.942000) can0 40A#0910000000005077
(3.950000) can0 3AE#2A4000080000B023
(3.956000) can0 266#100016451500DC00
(3.962000) can0 132#EE8AB8FE9C3D
(3.966000) can0 4E2#01400E0000002800
(3.968000) can0 2C3#555BA90680C112AA
(3.970000) can0 266#100016451500DC00
(3.972000) can0 1D5#290000000000807F
(3.974000) can0 439#0000000000185A04
(3.976000) can0 2C1#2163186402000000
(3.978000) can0 45A#FD07F8FF0300052F
(3.981000) can0 1E5#286C0400000060DE
(3.983000) can0 3D2#504F07039CCB2903
(3.985000) can0 7A8#0240C007000F0000
(3.987000) can0 201#0168980000000000
(3.989000) can0 545#010000000010D02B
(3.991000) can0 2E2#01000052010B0000
(3.993000) can0 22B#FFFF03C0FFFFFFFF
(3.995000) can0 2AA#576063
(3.997000) can0 261#322A9901805CA26A
(3.999000) can0 118#A46B950000C8C4FF
(4.001000) can0 103#22B38804A4EC2032
(4.003000) can0 242#55558600
(4.004000) can0 4F3#00000000
(4.006000) can0 23E#00003AC002FF7FBA
(4.008000) can0 401#012ABF90BC90C090
(4.011000) can0 360#0400000000000000
(4.012000) can0 3A2#602573C40480426E
(4.014000) can0 3F5#0000C838830C0000
(4.018000) can0 102#22B3880494FAA009
(4.026000) can0 393#080004D907B00304
(4.030000) can0 132#DB8AB7FEA43D
(4.034000) can0 1D5#290000000000403F
(4.038000) can0 421#F21A0000002000
(4.040000) can0 1D8#29508009000020FB
(4.042000) can0 677#0400000000000000
(4.044000) can0 3E3#04000000
(4.046000) can0 2C4#06D6A28CCAE81600
(4.047000) can0 2B4#4B05E10D7301
(4.049000) can0 318#1A063305102B3FED
(4.052000) can0 21D#0400B50000000000
(4.054000) can0 221#61055555010580B9
(4.056000) can0 3B3#8C8004300100A800
(4.058000) can0 383#931836002BA0A003
(4.060000) can0 2D3#5F0054031E095573
(4.062000) can0 261#00100500FF4FE039
(4.064000) can0 397#E31F80E31C0C0000
(4.066000) can0 552#000000000000C017
(4.068000) can0 401#042ABC90BC90B790
(4.070000) can0 118#5B62950000C884FF
(4.072000) can0 1D5#290000000000C0BF
(4.074000) can0 439#0000000000185A04
(4.076000) can0 261#3100F9FFB349FA15
(4.078000) can0 45A#FD07F8FF0300052F
(4.081000) can0 266#110016451500DC00
(4.083000) can0 7A8#C4CCC18300008200
(4.085000) can0 2E1#398D2AFF0F000000
(4.088000) can0 39D#0058E12700
(4.089000) can0 1E5#286C0400000040BE
(4.091000) can0 228#0106184C0060A196
(4.093000) can0 22B#FFFF03C0FFFFFFFF
(4.095000) can0 2AA#577073
(4.097000) can0 2C1#0219060000D09201
(4.099000) can0 118#5E65950000C884FF
(4.101000) can0 2E1#026D66021A620000
(4.103000) can0 242#55558600
(4.104000) can0 2E5#0000243100009F00
(4.106000) can0 3FD#0000003C20000180
(4.117000) can0 448#20001010000010
(4.124000) can0 2D2#F72EA74EBF10E822
(4.127000) can0 23E#00003AC002FFAFEA
(4.129000) can0 1D8#2952000A0000409E
(4.131000) can0 4E3#0200000000002800
(4.133000) can0 2E1#0400000000202607
(4.135000) can0 441#CE00B6C35800252D
(4.137000) can0 420#2801404B00008000
(4.139000) can0 2C1#0400000000000000
(4.140000) can0 1E5#286C0400000060DE
(4.142000) can0 1D5#290000000000A09F
(4.144000) can0 3AE#2A40000800001083
(4.146000) can0 264#3B000000A000
(4.148000) can0 129#24280C60FE1FFF3F
(4.155000) can0 1D8#2954000A000080E0
(4.162000) can0 3FD#01000A0000080280
(4.169000) can0 339#02F1FE008007800F
(4.171000) can0 376#04FFFFFFFF484749
(4.173000) can0 118#B56C950000C8D4FF
(4.175000) can0 356#0000000000000000
(4.176000) can0 381#E10300E876767600
(4.178000) can0 2EC#57A0E5
(4.180000) can0 3A2#52A6FFFF03000000
(4.182000) can0 257#3CAF878712D04301
(4.184000) can0 7A8#01000000FFA1F812
(4.186000) can0 545#010000000010308B
(4.188000) can0 243#00FCCFCC99260E29
(4.190000) can0 1D8#2956400A000000A2
(4.192000) can0 379#0400F602800D0200
(4.195000) can0 22B#FFFF03C0FFFFFFFF
(4.197000) can0 2E1#026D66021A620000
(4.199000) can0 118#686F950000C884FF
(4.201000) can0 103#22B38804A4EC2032
(4.203000) can0 242#55558600
(4.205000) can0 2E5#0000243100009F00
(4.206000) can0 448#20001010000010
(4.208000) can0 3FD#0200740000000090
(4.212000) can0 129#5F2E0C60FF1FFF3F
(4.214000) can0 3A3#1AD00000280DFC01
(4.215000) can0 78A#010005009D0D0A00
(4.217000) can0 263#690ED297C78F7A00
(4.220000) can0 1D8#2958800A00006044
(4.222000) can0 2A8#0101000006008032
(4.229000) can0 122#01000000003F0000
(4.231000) can0 272#080005E907B00304
(4.233000) can0 719#0D00000000000000
(4.235000) can0 2E5#0000243100009F00
(4.237000) can0 420#2801404B00000001
(4.238000) can0 2C1#0400000000000000
(4.240000) can0 1E5#286C04000000209E
(4.243000) can0 718#00000000000000
(4.244000) can0 22B#FFFF03C0FFFFFFFF
(4.246000) can0 264#3C000000A000
(4.248000) can0 243#030000801D745400
(4.250000) can0 7F4#01
(4.253000) can0 21D#0400B50000000000
(4.255000) can0 234#31E1038043009407
(4.258000) can0 553#0000000000004098
(4.260000) can0 129#C6230C600120FF3F
(4.262000) can0 409#00
(4.263000) can0 1D5#290000000000201F
(4.265000) can0 4E2#04CCA08C19A00100
(4.268000) can0 119#00000000
(4.274000) can0 7D5#2C3F3F0000000000
(4.278000) can0 439#0000000000185A04
(4.284000) can0 3B5#0000000000000000
(4.288000) can0 261#322A9901805CC28A
(4.290000) can0 1E5#286C0400000040BE
(4.292000) can0 20A#F61509821801
(4.295000) can0 2E5#0000243100009F00
(4.297000) can0 2C1#0219060000D09201
(4.299000) can0 129#9A270C600120FF3F
(4.301000) can0 261#7B4D0A000040D5DD
(4.303000) can0 2F1#055AF38043000000
(4.305000) can0 2E5#0000243100009F00
(4.307000) can0 448#20001010000010
(4.309000) can0 1D8#295C000B000080E9
(4.311000) can0 3A2#6025F3C11C00436E
(4.313000) can0 3A3#16D00000280DFC01
(4.317000) can0 102#22B3880494FAA009
(4.318000) can0 677#0100000000000000
(4.320000) can0 419#00
(4.322000) can0 2D2#F72EA74EBF10E822
(4.328000) can0 227#66053E0040000081
(4.334000) can0 1D8#295E400B0000C06B
(4.339000) can0 421#F21A0000002000
(4.346000) can0 2E1#6580080098E2306A
(4.356000) can0 243#030000801D745400
(4.360000) can0 186#830C000200A02925
(4.362000) can0 108#A20B037201CA2925
(4.364000) can0 201#006F700000E4FF00
(4.366000) can0 23E#00003AC002FF0F4A
(4.368000) can0 3E8#0100000000000000
(4.370000) can0 3A1#844C0FCA001CE267
(4.372000) can0 7D5#3200000000000000
(4.374000) can0 439#0000000000185A04
(4.377000) can0 3A2#52A6FF7F03000000
(4.378000) can0 129#AE2F0C60FF1FFF3F
(4.380000) can0 257#2699878712D04301
(4.382000) can0 7A8#C8CCC18300008200
(4.385000) can0 2E5#0000243100009F00
(4.387000) can0 201#0168980000000000
(4.389000) can0 2E1#026D66021A620000
(4.391000) can0 266#160016451600DC00
(4.393000) can0 3C2#2955000000000000
(4.395000) can0 2E5#0000243100009F00
(4.396000) can0 261#7B4D0A000040353D
(4.398000) can0 677#0300000000000000
(4.400000) can0 55A#0200000000000000
(4.402000) can0 1D5#290000000000E0DF
(4.405000) can0 37A#D20A000000000000
(4.407000) can0 448#20001010000010
(4.409000) can0 1D8#2962C00B0000C0EF
(4.411000) can0 288#0106184C0060E136
(4.414000) can0 261#140F904C00404479
(4.416000) can0 3AA#0100000000000000
(4.418000) can0 129#02230C60FF1FFF3F
(4.420000) can0 419#00
(4.422000) can0 2E1#0400000000202607
(4.424000) can0 712#0300000000000000
(4.426000) can0 20C#C118350AE800300C
(4.428000) can0 401#162AD090DB90D690
(4.430000) can0 1E5#286C04000000007E
(4.431000) can0 7AA#0800000018011B0E
(4.434000) can0 2E5#0000243100009F00
(4.436000) can0 421#F21A0000002000
(4.438000) can0 263#02004010217D7E21
(4.440000) can0 1D8#2964C00B00002051
(4.445000) can0 3E2#04000011FFCE00
(4.455000) can0 3FD#0000003C20000180
(4.461000) can0 224#0408004019011008
(4.463000) can0 279#0BBCFC018C056502
(4.465000) can0 2E5#0000243100009F00
(4.467000) can0 3E8#0200000000000000
(4.469000) can0 1D8#2964000C000080F2
(4.471000) can0 7D5#2C3F3F0000000000
(4.473000) can0 3D8#4E004A00
(4.476000) can0 3A2#52A6FF7F03000000
(4.477000) can0 263#04000000B0200000
(4.479000) can0 266#160016451600DC00
(4.481000) can0 22A#00003916
(4.483000) can0 719#163C005A79010000
(4.490000) can0 2E5#0000243100009F00
(4.492000) can0 241#6E6E949B1B4500
(4.494000) can0 2E5#0000243100009F00
(4.495000) can0 3C0#0500010000000000
(4.497000) can0 263#700ED29FA7AF1A00
(4.499000) can0 249#3A0C0000
(4.501000) can0 2E1#FB1FB02999A70900
(4.503000) can0 221#60555515545111F8
(4.505000) can0 3FD#01000A0000080280
(4.509000) can0 4F3#00000000
(4.511000) can0 360#0900000000000000
(4.513000) can0 3A3#22D00000280DFC01
(4.514000) can0 2E5#0000243100009F00
(4.516000) can0 102#22B3880494FAA009
(4.519000) can0 252#DA3F547400FC0F00
(4.528000) can0 677#0100000000000000
(4.532000) can0 118#FA60950000C82400
(4.536000) can0 719#1700000000000000
(4.540000) can0 132#B18A64FE113D
(4.542000) can0 3F6#00050000B6340001
(4.544000) can0 1F8#3A000000
(4.546000) can0 2C4#2B8000A2220B0C00
(4.550000) can0 243#030000801D745400
(4.554000) can0 266#170016461600DC00
(4.558000) can0 3FD#0000003C20000180
(4.567000) can0 186#B20E000200CD2925
(4.569000) can0 381#0C00000000000000
(4.571000) can0 7D5#3200000000000000
(4.573000) can0 261#322A9901805CE2AA
(4.576000) can0 2E5#0000243100009F00
(4.578000) can0 263#04000000B0200000
(4.579000) can0 1D8#2968800C0000E0D6
(4.581000) can0 2E1#026D66021A630000
(4.583000) can0 3DB#0700000010000000
(4.586000) can0 441#4C858900320008FD
(4.588000) can0 320#0300000000000000
(4.590000) can0 3AE#2C4000080000F065
(4.592000) can0 379#080000000B000C03
(4.594000) can0 2E5#0000243100009F00
(4.595000) can0 3C0#0600000000000000
(4.597000) can0 263#700ED29FA7AF1A00
(4.599000) can0 249#AF0E0000
(4.601000) can0 103#22B38804A4EC2032
(4.604000) can0 221#6055551554513118
(4.606000) can0 381#0D00000000000000
(4.608000) can0 3FD#0000003C20000180
(4.611000) can0 123#01000000003F0000
(4.613000) can0 2E1#0400000000202607
(4.615000) can0 78A#010002005F066106
(4.617000) can0 263#690ED297C78F7A00
(4.619000) can0 129#A5270B600020FF3F
(4.621000) can0 257#32A5878712D04301
(4.623000) can0 392#0111A467000A0300
(4.625000) can0 2D1#FF01
(4.627000) can0 243#02FC731004B50000
(4.629000) can0 1D8#2968C00C000080B6
(4.631000) can0 4E3#00AC010000002800
(4.634000) can0 719#0100040000000000
(4.636000) can0 421#F21A0000002000
(4.638000) can0 263#02004010217D7E21
(4.640000) can0 2F9#BCFB07100D1A8B84
(4.643000) can0 381#0E00000000E0FF00
(4.644000) can0 1F8#3A000000
(4.646000) can0 23E#00003AC002FF7FBA
(4.648000) can0 243#030000801D745400
(4.654000) can0 55A#0400000000000000
(4.656000) can0 3FD#01000A0000080280
(4.659000) can0 221#6105555501054079
(4.661000) can0 118#176D950000C83400
(4.663000) can0 1F9#0000000000000000
(4.665000) can0 1D5#290000000000201F
(4.668000) can0 2E5#0000243100009E00
(4.670000) can0 401#2200000000000000
(4.672000) can0 3A1#844C0FCA001C42C7
(4.674000) can0 3A2#72A6FF7F03000000
(4.676000) can0 2E1#026D66021A620000
(4.678000) can0 45A#FD07F8FF0300072D
(4.680000) can0 257#35A8878712D04301
(4.682000) can0 1D5#290000000000605F
(4.684000) can0 2E5#0000243100009E00
(4.686000) can0 23E#00003AC002FF8FCA
(4.688000) can0 401#2300000000000000
(4.690000) can0 1E5#286C0400000040BE
(4.692000) can0 241#6E6E949B1B4500
(4.694000) can0 2E5#0000243100009E00
(4.697000) can0 2C1#0219060000D09201
(4.699000) can0 118#DB61950000C80400
(4.701000) can0 1E5#286C0400000060DE
(4.703000) can0 242#55558600
(4.705000) can0 3A2#602573BE1C00C36D
(4.707000) can0 3FD#0200740000000090
(4.710000) can0 132#AE8A59FEF13C
(4.712000) can0 7C8#0A01080007001F00
(4.714000) can0 3A3#1AD00000280DFC01
(4.716000) can0 78A#01000300AE048902
(4.717000) can0 263#690ED297C78F7A00
(4.719000) can0 1D8#296C000D0000A01B
(4.721000) can0 257#37AA878712D04301
(4.723000) can0 3A1#C1FFFF0D3D005019
(4.726000) can0 2D1#FF01
(4.728000) can0 243#02FC731004B50000
(4.730000) can0 118#9D64950000C8C4FF
(4.732000) can0 261#00100300FF4F80D7
(4.734000) can0 2E5#0000243100009E00
(4.736000) can0 420#2801404B00008003
(4.738000) can0 2BF#00000000000001
(4.740000) can0 1E5#286C0400000060DE
(4.742000) can0 1D5#290000000000201F
(4.744000) can0 1F8#3A000000
(4.746000) can0 204#010000FF00000010
(4.752000) can0 243#030000801D745400
(4.754000) can0 33D#1A290ABE874AFA98
(4.756000) can0 3AE#2E400008000050C7
(4.758000) can0 234#31E10380430034A7
(4.764000) can0 409#00
(4.774000) can0 4E2#025D040000002800
(4.780000) can0 2C1#2163186402000000
(4.786000) can0 1D5#290000000000A09F
(4.792000) can0 132#A18A4FFEE83C
(4.796000) can0 2E5#0000243100009E00
(4.800000) can0 263#700ED29FA7AF1A00
(4.801000) can0 1D5#290000000000E0DF
(4.803000) can0 234#30200331C5044028
(4.805000) can0 2E5#0000243100009E00
(4.807000) can0 123#01000000003F0000
(4.809000) can0 1D8#2970800D0000C0BF
(4.811000) can0 288#0106184C00602176
(4.813000) can0 261#05223BCA9A42D0CE
(4.819000) can0 2E5#0000243100009E00
(4.825000) can0 266#190016461600DC00
(4.834000) can0 428#20001010000010
(4.836000) can0 420#2801404B00000004
(4.838000) can0 2C1#0400000000000000
(4.840000) can0 266#190017461600DC00
(4.842000) can0 6A1#0000000000
(4.844000) can0 1F8#3A000000
(4.846000) can0 23E#00003AC002FFCF0A
(4.852000) can0 243#030000801D745400
(4.854000) can0 234#32E10380430054C8
(4.856000) can0 186#7101000200992925
(4.858000) can0 132#A08A43FEAC3C
(4.859000) can0 1D8#2972C00D000060A1
(4.863000) can0 1D6#000800004A049808
(4.865000) can0 2E5#0000243100009F00
(4.867000) can0 3E8#0600000000000000
(4.869000) can0 129#E5200E600020FF3F
(4.871000) can0 3A2#52A6FF7F03000000
(4.873000) can0 439#0000000000185A04
(4.875000) can0 2EC#571055
(4.877000) can0 261#7B4D0A000040151D
(4.878000) can0 545#01000000001080DB
(4.881000) can0 2C2#20408065010080CB
(4.882000) can0 7A8#0240BF07000F0000
(4.884000) can0 2E5#0000243100009F00
(4.886000) can0 39D#045CE12700
(4.888000) can0 3C8#0300000000000000
(4.892000) can0 31F#7445794379457944
(4.894000) can0 2E5#0000243100009F00
(4.895000) can0 3C0#0900000000000000
(4.897000) can0 263#700ED29FA7AF1A00
(4.899000) can0 129#58230F600020FF3F
(4.901000) can0 257#1893878712C84301
(4.903000) can0 221#6055551554519178
(4.905000) can0 285#02A800000000B200
(4.907000) can0 448#20001010000010
(4.909000) can0 129#DE240F600020FF3F
(4.911000) can0 545#02000300000090DF
(4.913000) can0 3A3#20D00000280DFC01
(4.914000) can0 3F5#0000C838830C0000
(4.916000) can0 3AA#0000000000000000
(4.920000) can0 677#0100000000000000
(4.922000) can0 2D2#F62EA64EBE10E822
(4.924000) can0 122#00001392D2000000
(4.926000) can0 20C#C1F8340AE800300C
(4.927000) can0 132#948A37FEA93C
(4.929000) can0 381#1600040000640000
(4.931000) can0 382#3917210000
(4.933000) can0 719#140000000000CA00
(4.935000) can0 441#D000B6C35800252F
(4.937000) can0 201#0300000000000000
(4.939000) can0 118#F369950000C81400
(4.941000) can0 3C2#0055555500006A05
(4.943000) can0 7E8#0A01080007001F00
(4.945000) can0 1F8#3A000000
(4.949000) can0 2B4#4805D90D7801
(4.956000) can0 118#E46A950000C80400
(4.962000) can0 261#322A9901805C622A
(4.966000) can0 423#00001000000000
(4.968000) can0 2C3#555BA90680C112AA
(4.970000) can0 118#956C950000C8B4FF
(4.972000) can0 7D7#323B000000000000
(4.974000) can0 439#0000000000185A04
(4.975000) can0 2E3#01000055010B00
(4.977000) can0 132#918A2CFE873C
(4.979000) can0 266#1B0017461600DB00
(4.981000) can0 340#0800000000000000
(4.983000) can0 3F2#001C2B7E02000000
(4.986000) can0 441#4C8589003200281D
(4.988000) can0 243#00FCCFCC99260E29
(4.990000) can0 25B#D38000056A8630D3
(4.992000) can0 1D5#290000000000403F
(4.994000) can0 2E5#0000243100009E00
(4.996000) can0 3AE#2E4000080000C037
(4.998000) can0 2C1#0219060000D09201
(5.000000) can0 257#1D98878712C84301
(5.002000) can0 1D5#290000000000605F
(5.004000) can0 253#0064A6C66490B505
(5.006000) can0 23E#00003AC002FF0F4A
(5.008000) can0 401#012A6E906A906F90
(5.010000) can0 266#1C0017461600DB00
(5.012000) can0 201#0200000000000000
(5.014000) can0 3F5#0000C838820C0000
(5.016000) can0 102#22B3880494FAA009
(5.019000) can0 118#5A61950000C884FF
(5.021000) can0 3A1#C1FFFF2D3D00B099
(5.023000) can0 2F2#1201
(5.025000) can0 227#69053F0040000081
(5.029000) can0 428#20001010000010
(5.035000) can0 4E3#0452000505580000
(5.039000) can0 420#2801404B00000005
(5.045000) can0 381#1900000000000000
(5.049000) can0 23E#00003AC002FF1F5A
(5.052000) can0 207#003E3A1D1C000000
(5.054000) can0 3AE#2E4000080000E158
(5.056000) can0 27A#91B30C018C056202
(5.059000) can0 132#818A0DFE3E3C
(5.061000) can0 1E5#286C0400000060DE
(5.064000) can0 201#006F700000E4FF00
(5.065000) can0 757#3200000000000000
(5.067000) can0 132#858A0EFE553C
(5.069000) can0 1E5#286C04000000007E
(5.071000) can0 7D5#2BA8CFFF00000000
(5.073000) can0 362#000000
(5.075000) can0 545#010000000010E03B
(5.077000) can0 2C1#2163186402000000
(5.079000) can0 266#1C0017461600DB00
(5.081000) can0 340#0900000000000000
(5.083000) can0 7A8#01000000FFA1E812
(5.085000) can0 2E5#0000243100009F00
(5.087000) can0 39D#F951E12700
(5.089000) can0 283#1D1D00004100
(5.091000) can0 228#0106184C00604136
(5.094000) can0 2E5#0000243100009F00
(5.096000) can0 1FA#3AC001
(5.098000) can0 263#700ED29FA7AF1A00
(5.100000) can0 249#3F080000
(5.101000) can0 3A2#604573BF0400436E
(5.103000) can0 2F1#0D00000000000000
(5.105000) can0 3FD#0000003C20000180
(5.109000) can0 04F#2A2599C3CA97160C
(5.110000) can0 2E1#6580080098E2306A
(5.112000) can0 1D5#290000000000C0BF
(5.116000) can0 3F5#0000C838830C0000
(5.122000) can0 263#690ED297C78F7A00
(5.126000) can0 712#002A6C0C2E0C6E0C
(5.130000) can0 132#7B8A05FE423C
(5.135000) can0 1D5#29000000000000FF
(5.137000) can0 201#0300000000000000
(5.139000) can0 118#F76D950000C81400
(5.141000) can0 257#249F878712C84301
(5.143000) can0 6A2#0000000000
(5.145000) can0 1F8#3A000000
(5.147000) can0 2B4#4D05D80D6701
(5.153000) can0 129#A12C0F60FF1FFF3F
(5.159000) can0 3FD#01000A0000080280
(5.164000) can0 273#81E13000C8021011
(5.170000) can0 4E2#0600000000000000
(5.174000) can0 266#1E0017461600DB00
(5.181000) can0 2E5#0000243100009E00
(5.182000) can0 1D5#290000000000A09F
(5.185000) can0 2E5#0000243100009E00
(5.187000) can0 201#0168980000000000
(5.189000) can0 129#78200F60FF1FFF3F
(5.191000) can0 2E1#0400000000202607
(5.195000) can0 2E5#0000243100009E00
(5.196000) can0 261#05223BCA9A42504E
(5.198000) can0 677#0300000000000000
(5.200000) can0 1E5#286C04000000209E
(5.203000) can0 1D5#290000000000E0DF
(5.205000) can0 2E5#0000243100009E00
(5.207000) can0 448#20001010000010
(5.209000) can0 3FD#0200740000000090
(5.212000) can0 545#020002000000206E
(5.214000) can0 3A3#1ED00000280DFC01
(5.216000) can0 78A#01000100E85CD85D
(5.218000) can0 2D2#F52EA54EBE10E822
(5.220000) can0 266#1F0017461600DB00
(5.222000) can0 20E#150500
(5.224000) can0 2E5#0000243100009E00
(5.226000) can0 39A#F422DB860703AF7E
(5.228000) can0 363#1405010400000000
(5.231000) can0 118#E066950000C80400
(5.233000) can0 4E3#0600000000000000
(5.235000) can0 441#D000B6C358003D47
(5.237000) can0 201#0300000000000000
(5.239000) can0 118#9067950000C8B4FF
(5.241000) can0 257#31A4878712D04301
(5.243000) can0 6A1#0000000000
(5.250000) can0 2E5#0000243100009E00
(5.252000) can0 249#280B0000
(5.258000) can0 221#6105555501050039
(5.260000) can0 108#9954043202B62925
(5.262000) can0 268#3B177901FF
(5.264000) can0 423#00001000000000
(5.266000) can0 552#00000000000080D7
(5.268000) can0 3AE#2C400008000041B6
(5.270000) can0 266#1F0017461600DB00
(5.272000) can0 1D5#290000000000C0BF
(5.274000) can0 287#524C5553C2020C0C
(5.276000) can0 5D7#506E0E0002
(5.281000) can0 263#04000000B0200000
(5.290000) can0 368#0000000000000000
(5.294000) can0 20A#F61509821801
(5.302000) can0 1FA#3AC001
(5.304000) can0 37A#CBE0010000000000
(5.306000) can0 448#20001010000010
(5.308000) can0 132#718AF4FD1D3C
(5.310000) can0 1E5#286C04000000007E
(5.311000) can0 359#1B00000000000000
(5.314000) can0 3A3#18D00000280DFC01
(5.316000) can0 78A#010002005F066106
(5.318000) can0 2E1#1021040010000004
(5.320000) can0 419#00
(5.322000) can0 2D2#F52EA54EBE10E822
(5.327000) can0 682#0000004004116095
(5.331000) can0 7B5#030000
(5.337000) can0 380#0000000000000000
(5.340000) can0 343#009264FE97000000
(5.345000) can0 3C3#5555550100000000
(5.349000) can0 3F9#0000000000000000
(5.355000) can0 458#00002000000000
(5.361000) can0 285#61018E0308002E00
(5.363000) can0 268#3B177901FF
(5.365000) can0 423#00001000000000
(5.367000) can0 3E8#0400000000000000
(5.369000) can0 129#C0220B60FA1FFF3F
(5.371000) can0 7D5#2C3F3F0000000000
(5.373000) can0 261#140F884C00400431
(5.375000) can0 3FD#0000003C20000180
(5.378000) can0 2E3#03000047010B00
(5.380000) can0 1E5#286C0400000060DE
(5.382000) can0 1D5#290000000000201F
(5.385000) can0 2E5#0000243100009E00
(5.387000) can0 201#0168980000000000
(5.393000) can0 129#7D240A60F91FFF3F
(5.395000) can0 2E5#0000243100009E00
(5.397000) can0 2E1#6580080099E2306A
(5.399000) can0 129#6A250A60F91FFF3F
(5.401000) can0 2E8#0101000006005042
(5.403000) can0 234#34200332C90400F1
(5.405000) can0 545#02000300000080CF
(5.407000) can0 123#01000000003F0000
(5.409000) can0 1D8#298AC0100000409C
(5.411000) can0 288#0106184C006081D6
(5.413000) can0 3A3#18C00000280DFC01
(5.415000) can0 3AA#0100000000000000
(5.418000) can0 102#22B3880494FAA009
(5.420000) can0 266#1F0017461600DB00
(5.422000) can0 20E#170700
(5.424000) can0 122#01000000003F0000
(5.426000) can0 3FD#01000A0000080280
(5.429000) can0 227#6E053F0040000081
(5.431000) can0 4E3#01D8050000002800
(5.433000) can0 719#0300000000000000
(5.435000) can0 399#000000
(5.437000) can0 201#0300000000000000
(5.439000) can0 118#B46B950000C8D4FF
(5.441000) can0 257#53BE878712D84301
(5.443000) can0 6A1#0000000000
(5.445000) can0 2E5#0000243100009E00
(5.456000) can0 2E1#026D66021A630000
(5.462000) can0 263#0300000000000000
(5.466000) can0 2E1#FB1FB01999A60900
(5.468000) can0 372#0800000000000000
(5.470000) can0 266#1F0017461600DB00
(5.472000) can0 1D5#290000000000403F
(5.474000) can0 439#0000000000185A04
(5.476000) can0 2E1#0400000000202607
(5.478000) can0 3FD#0200740000000090
(5.481000) can0 263#04000000B0200000
(5.483000) can0 7A8#0240BF07000F0000
(5.485000) can0 2E5#0000243100009E00
(5.487000) can0 201#0168980000000000
(5.489000) can0 129#392E0A60FF1FFF3F
(5.491000) can0 266#1F0017461700DB00
(5.494000) can0 2E5#0000243100009E00
(5.496000) can0 2C1#0219060000D09201
(5.498000) can0 263#700ED29FA7AF1A00
(5.500000) can0 1D8#298CC010000060BE
(5.502000) can0 7AA#09FD06FD06010000
(5.504000) can0 2F1#113E011201980600
(5.506000) can0 545#020003000000B0FF
(5.507000) can0 132#708AEEFD0C3C
(5.509000) can0 1E5#286C04000000007E
(5.511000) can0 3D3#000000
(5.513000) can0 3A3#2CD00000280DFC01
(5.515000) can0 78A#01000400E3069700
(5.517000) can0 102#22B3880494FAA009
(5.520000) can0 129#3A210A60FF1FFF3F
(5.523000) can0 2F2#1201
(5.524000) can0 2E5#0000243100009E00
(5.526000) can0 227#6D053F0040000081
(5.529000) can0 45A#A4B8383A604A3760
(5.535000) can0 261#322A9901805CA26A
(5.541000) can0 420#2801404B00008007
(5.545000) can0 3F6#00050000B6340001
(5.552000) can0 3F9#0200000000000000
(5.554000) can0 75D#8000000000000000
(5.556000) can0 253#0164A6C66490B505
(5.558000) can0 5F3#29EC20
(5.559000) can0 3AE#294000080000E052
(5.561000) can0 1E5#286C04000000209E
(5.563000) can0 2B6#000300
(5.571000) can0 3A2#72A6FF7F03000000
(5.575000) can0 082#017FFF1FFF03F303
(5.581000) can0 2C1#2163186402000000
(5.584000) can0 7A8#C8CCC18300008200
(5.586000) can0 201#0168980000000000
(5.588000) can0 320#0300000000000000
(5.590000) can0 22B#FF3F00E0FFFFFFFF
(5.592000) can0 379#06002D6B800D0200
(5.594000) can0 2E5#0000243100009E00
(5.596000) can0 3A2#6045F3C11C00436E
(5.602000) can0 139#00
(5.604000) can0 788#01000000FFA1F812
(5.605000) can0 23E#00003AC002FFFF3A
(5.607000) can0 123#01000000003F0000
(5.611000) can0 3FD#0000003C20000180
(5.614000) can0 1D8#298E00110000C061
(5.616000) can0 78A#010005009D0D0A00
(5.618000) can0 2D2#F52EA54EBE10E822
(5.620000) can0 419#00
(5.622000) can0 2F2#1201
(5.624000) can0 3B2#2D00000000000100
(5.626000) can0 20C#C1F8340AE800300C
(5.628000) can0 401#2000000000000000
(5.630000) can0 118#F86E950000C81400
(5.632000) can0 1D5#290000000000403F
(5.634000) can0 387#454F393D443F0040
(5.636000) can0 421#F21A0000002000
(5.638000) can0 263#02004010217D7E21
(5.640000) can0 2F9#BCFB07030D1A8B84
(5.643000) can0 1D5#290000000000605F
(5.645000) can0 1F8#3A000000
(5.647000) can0 39D#075FE12700
(5.653000) can0 372#0B39FC0000481500
(5.655000) can0 221#61055555010580B9
(5.657000) can0 195#000800000A002706
(5.659000) can0 3FD#01000A0000080280
(5.662000) can0 27A#82B9FC0088056202
(5.664000) can0 1D6#000800004A049808
(5.666000) can0 395#011C1C5211020A7D
(5.669000) can0 552#000000000000C017
(5.671000) can0 266#200017461700DB00
(5.673000) can0 1D5#290000000000C0BF
(5.675000) can0 7D7#323B000000000000
(5.677000) can0 261#05223CCA9A42302F
(5.679000) can0 266#210017461700DB00
(5.681000) can0 340#0300000000000000
(5.683000) can0 719#0003140F14060E00
(5.685000) can0 2E1#6580080099E2306A
(5.687000) can0 201#0168980000000000
(5.689000) can0 129#B7220A600120FF3F
(5.691000) can0 283#1D1D00004100
(5.692000) can0 261#00100200FF4F4096
(5.694000) can0 2E5#0000243100009E00
(5.697000) can0 3A2#6065F3BF1C00C36D
(5.699000) can0 129#A0230A600120FF3F
(5.701000) can0 2E1#1021040010000004
(5.703000) can0 242#55558600
(5.705000) can0 37A#CBE0010000000000
(5.707000) can0 132#618AD5FDDC3B
(5.709000) can0 3FD#0200740000000090
(5.712000) can0 1E5#286C04000000007E
(5.714000) can0 3F5#0000C838820C0000
(5.716000) can0 102#22B3880494FAA009
(5.718000) can0 263#690ED297C78F7A00
(5.720000) can0 419#00
(5.722000) can0 2F2#1201
(5.725000) can0 78A#0100060003000000
(5.726000) can0 227#6D053F0040000081
(5.728000) can0 129#46260A600020FF3F
(5.730000) can0 272#0380610000000000
(5.732000) can0 1D5#290000000000807F
(5.734000) can0 2E5#0000243100009E00
(5.737000) can0 545#90045D209BAB29CA
(5.739000) can0 118#B269950000C8D4FF
(5.741000) can0 257#229D878712C84301
(5.743000) can0 3C3#5555550100000000
(5.744000) can0 2E5#0000243100009E00
(5.746000) can0 3F9#0400000000000000
(5.748000) can0 129#72280B600020FF3F
(5.750000) can0 458#00002000000000
(5.754000) can0 2E1#FB1FB01999A60900
(5.760000) can0 37D#B4FEB3FE03F82F00
(5.766000) can0 126#24E02E4CA5
(5.771000) can0 3E8#0100000000000000
(5.773000) can0 422#700010000000
(5.775000) can0 2E5#0000243100009E00
(5.782000) can0 2C1#2163186402000000
(5.790000) can0 2E5#0000243100009E00
(5.797000) can0 2E5#0000243100009E00
(5.803000) can0 118#096F950000C82400
(5.807000) can0 284#300000004008302E
(5.812000) can0 129#852E0D600520FF3F
(5.814000) can0 3F5#0000C838820C0000
(5.815000) can0 3AE#2A400008000060D3
(5.818000) can0 132#488ABEFDA53B
(5.820000) can0 419#00
(5.822000) can0 2D2#F52EA44EBE10E822
(5.823000) can0 122#01000000003F0000
(5.825000) can0 20C#C1F8340AE800300C
(5.827000) can0 132#448AAFFD873B
(5.829000) can0 1E5#286C04000000007E
(5.832000) can0 4E3#D5028201001C0000
(5.834000) can0 719#0C5B0F005D0D6000
(5.836000) can0 421#F21A0000002000
(5.838000) can0 261#7B4D0A000040D5DD
(5.840000) can0 1D8#29A000130000A055
(5.842000) can0 3E2#04000011EFCE00
(5.843000) can0 3C3#0000000000A50000
(5.846000) can0 204#010000FF00000010
(5.852000) can0 3F9#0500000000000000
(5.854000) can0 261#140F904C0040E419
(5.856000) can0 286#FFFFFFFF31
(5.858000) can0 263#0300000000000000
(5.860000) can0 257#0083878712C04301
(5.862000) can0 268#3B177901FF
(5.864000) can0 397#F35F80E31C120000
(5.871000) can0 3E8#0200000000000000
(5.873000) can0 422#700010000000
(5.875000) can0 2E5#0000243100009E00
(5.876000) can0 2E1#6580080099E2306A
(5.878000) can0 677#0000000000000000
(5.881000) can0 257#0184878712C04301
(5.883000) can0 7A8#C8CCC18300008200
(5.885000) can0 2E5#0000243100009E00
(5.887000) can0 39D#FD55E12700
(5.893000) can0 129#0D260E600420FF3F
(5.899000) can0 2E5#0000243100009E00
(5.901000) can0 2E8#010100000600A092
(5.903000) can0 242#55558600
(5.905000) can0 355#800C00FF940000
(5.907000) can0 123#00001392D2000000
(5.909000) can0 1E5#286C04000000007E
(5.911000) can0 288#0106184C0060D126
(5.913000) can0 3A3#18D00000280DFC01
(5.915000) can0 2E5#0000243100009E00
(5.917000) can0 102#22B3880494FAA009
(5.919000) can0 212#5904000081FF7731
(5.921000) can0 1E5#286C04000000209E
(5.923000) can0 3B2#2E7C9E2C90104C41
(5.925000) can0 2D1#FF01
(5.927000) can0 227#68053E0040000081
(5.929000) can0 129#AD2A0E600020FF3F
(5.931000) can0 272#0380610000000000
(5.933000) can0 261#7B4D0A000040353D
(5.935000) can0 421#F21A0000002000
(5.937000) can0 132#2D8A9EFD643B
(5.939000) can0 129#6F2B0D600020FF3F
(5.941000) can0 1E5#286C0400000060DE
(5.943000) can0 3C3#5555550100000000
(5.947000) can0 2E5#0000243100009E00
(5.957000) can0 129#662C0D60FF1FFF3F
(5.964000) can0 285#034A7D5277000000
(5.965000) can0 757#3200000000000000
(5.967000) can0 119#00000000
(5.969000) can0 1E5#286C0400000040BE
(5.971000) can0 7D5#3200000000000000
(5.973000) can0 381#1800000000000000
(5.975000) can0 2EC#57C005
(5.977000) can0 2C1#2163186402000000
(5.979000) can0 266#250017471700DB00
(5.981000) can0 261#00100100FF4F60B5
(5.983000) can0 3F2#0129F26900000000
(5.985000) can0 3AE#2B4000080000B125
(5.988000) can0 201#0168980000000000
(5.990000) can0 118#4C62950000C87400
(5.992000) can0 1D5#290000000000C0BF
(5.994000) can0 2E5#0000243100009E00
(5.996000) can0 261#3100F1FFAA497A84
(5.998000) can0 263#700ED29FA7AF1A00
(6.000000) can0 249#E20A0000
(6.002000) can0 1D5#290000000000E0DF
(6.004000) can0 2F1#035AF58043000100
(6.011000) can0 23E#00003AC002FF9FDA
(6.013000) can0 261#322A9901805C824A
(6.015000) can0 2E5#0000243100009E00
(6.017000) can0 102#22B3880494FAA009
(6.019000) can0 118#DF65950000C80400
(6.021000) can0 1E5#286C0400000060DE
(6.023000) can0 42E#00E0BFFFFEEFBFFF
(6.025000) can0 39A#F822DB860707AF7E
(6.027000) can0 428#20001010000010
(6.029000) can0 1E5#286C04000000007E
(6.031000) can0 272#080006E907B00304
(6.033000) can0 545#E00458009BA6B980
(6.043000) can0 441#D300B6C358003D4A
(6.049000) can0 2E5#0000243100009E00
(6.056000) can0 458#00002000000000
(6.063000) can0 263#0300000000000000
(6.065000) can0 423#00001000000000
(6.067000) can0 552#0000000000000057
(6.069000) can0 401#042A08900B900790
(6.071000) can0 3A1#844C0FCA001C0287
(6.073000) can0 362#000000
(6.077000) can0 261#00100100FF4FC015
(6.078000) can0 677#0000000000000000
(6.080000) can0 2C2#20408065010080CB
(6.082000) can0 7A8#0240BE07000F0000
(6.084000) can0 3DB#0300000000800000
(6.086000) can0 23E#00003AC002FFBFFA
(6.088000) can0 3C8#0100000000000000
(6.090000) can0 118#856C950000C8A4FF
(6.092000) can0 241#6E6E949B1B4500
(6.094000) can0 2E5#0000243100009D00
(6.096000) can0 2C1#0219060000D09201
(6.099000) can0 263#700ED29FA7AF1A00
(6.101000) can0 2E8#010100000600C0B2
(6.102000) can0 234#31200331C504E0C9
(6.109000) can0 3FD#0000003C20000180
(6.112000) can0 22B#FF0F0000F0FFFFFF
(6.114000) can0 3F5#0000C838820C0000
(6.116000) can0 3AE#294000080000F062
(6.118000) can0 263#690ED297C78F7A00
(6.120000) can0 212#5904000081FF7731
(6.122000) can0 2A8#010100000600B062
(6.126000) can0 393#0380610000000000
(6.132000) can0 243#02FC6B1004B50000
(6.136000) can0 2E5#0000243100009D00
(6.144000) can0 132#1F8A76FD1A3B
(6.150000) can0 204#010000FF00000010
(6.156000) can0 3FD#01000A0000080280
(6.166000) can0 21D#0400B50000000000
(6.168000) can0 2E1#658008009AE2306A
(6.170000) can0 376#FBFFFBFFFB0F8004
(6.172000) can0 376#04FFFFFFFF484749
(6.174000) can0 118#2E64950000C85400
(6.176000) can0 757#484C4B0000005359
(6.178000) can0 743#22
(6.179000) can0 2EC#57E025
(6.181000) can0 129#3E2309600020FF3F
(6.184000) can0 2E1#1021040010000004
(6.187000) can0 201#0168980000000000
(6.189000) can0 1D8#29B0401500000007
(6.191000) can0 2E2#100000B9010B0000
(6.193000) can0 3C2#2955000000000000
(6.195000) can0 2E5#0000243100009D00
(6.196000) can0 2E1#398D2AFF0F000000
(6.198000) can0 545#020003000000004F
(6.200000) can0 1E5#286C04000000209E
(6.202000) can0 234#34200332C90400F1
(6.204000) can0 37A#C00A000000000000
(6.206000) can0 3FD#0200740000000090
(6.209000) can0 23E#00003AC002FFEF2A
(6.212000) can0 359#260800000B5B54A0
(6.215000) can0 3F5#0000C838820C0000
(6.217000) can0 2C1#431A900000000000
(6.219000) can0 212#5904000081FF7731
(6.221000) can0 1E5#286C0400000060DE
(6.223000) can0 393#080004D107B00304
(6.225000) can0 2E5#0000243100009D00
(6.227000) can0 247#DB0DFF0C00B00100
(6.229000) can0 428#20001010000010
(6.230000) can0 45A#A4B8383A604A375F
(6.232000) can0 1D5#290000000000C0BF
(6.234000) can0 2E5#0000243100009D00
(6.236000) can0 420#2801404B00000003
(6.238000) can0 263#02004010217D7E21
(6.241000) can0 257#3BA6878712D84301
(6.244000) can0 718#00000000000000
(6.250000) can0 204#010000FF00000010
(6.252000) can0 211#B11D710F0001
(6.254000) can0 234#31E1038043001487
(6.256000) can0 238#8839F6383E00C82F
(6.258000) can0 132#288A7CFD2E3B
(6.260000) can0 1D8#29B040150000E0E7
(6.262000) can0 1F9#0000000000000000
(6.264000) can0 2B6#000300
(6.266000) can0 2E5#0000243100009D00
(6.267000) can0 3E8#0600000000000000
(6.269000) can0 129#032C09600120FF3F
(6.271000) can0 315#185247655047C784
(6.273000) can0 7AA#56DAEFB4C00CA129
(6.277000) can0 439#0000000000185A04
(6.279000) can0 2E1#1021040010000004
(6.281000) can0 266#270018471700DA00
(6.283000) can0 22A#00002916
(6.293000) can0 7D5#44964F5D563F004D
(6.301000) can0 2E5#0000243100009D00
(6.305000) can0 234#32200331C504200A
(6.311000) can0 448#20001010000010
(6.315000) can0 3A3#18D00000280DFC01
(6.316000) can0 102#22B3880494FAA009
(6.318000) can0 677#0100000000000000
(6.321000) can0 266#270018471700DA00
(6.323000) can0 393#0380610000000000
(6.328000) can0 407#170C000000000000
(6.333000) can0 401#112A229019903890
(6.337000) can0 709#2000000000000000
(6.341000) can0 2C1#0400000000000000
(6.343000) can0 3C3#5555550100000000
(6.345000) can0 207#003E361E1D000000
(6.347000) can0 3F9#0100000000000000
(6.353000) can0 113#019701
(6.355000) can0 7AA#0780FD79FDD2FB48
(6.357000) can0 3D8#4D004A00
(6.359000) can0 263#0300000000000000
(6.361000) can0 266#260018471700DA00
(6.363000) can0 1D6#000800004A049808
(6.365000) can0 397#F33F80E31C120000
(6.369000) can0 261#00100100FF4FE035
(6.376000) can0 287#524C5554C1020C0C
(6.382000) can0 263#04000000B0200000
(6.386000) can0 225#5555FA00
(6.388000) can0 243#00FCCFCC99260E29
(6.390000) can0 1E5#286C04000000007E
(6.392000) can0 3A2#6045F3BD1C00436E
(6.394000) can0 2E5#0000243100009E00
(6.395000) can0 3C0#0200000000000000
(6.397000) can0 132#2D8A86FD423B
(6.404000) can0 55A#0200000000000000
(6.406000) can0 23E#00003AC002FF3F7A
(6.408000) can0 243#010060375D009393
(6.410000) can0 118#556C950000C874FF
(6.412000) can0 359#2800000000000000
(6.415000) can0 3F5#0000C838830C0000
(6.417000) can0 102#22B3880494FAA009
(6.419000) can0 129#1F2B0660FA1FFF3F
(6.421000) can0 1E5#286C0400000060DE
(6.423000) can0 393#080004D907B00304
(6.425000) can0 2E5#0000243100009E00
(6.427000) can0 428#20001010000010
(6.429000) can0 129#D22C0660FB1FFF3F
(6.431000) can0 545#90045D209BAB791A
(6.432000) can0 719#0D00000000000000
(6.434000) can0 2E5#0000243100009E00
(6.436000) can0 420#2801404B00000004
(6.438000) can0 282#7CD0510728F40224
(6.442000) can0 2E1#0400000000202607
(6.449000) can0 718#01000000000000
(6.455000) can0 7FF#0301082861428001
(6.459000) can0 383#931838002BA0A003
(6.461000) can0 1D6#000800004A049808
(6.463000) can0 281#3F00FF1F0001
(6.465000) can0 22B#FF000000C0FFFFFF
(6.467000) can0 3E8#0100000000000000
(6.469000) can0 1D8#29ACC01400008002
(6.471000) can0 3A1#844C0FCA001C8207
(6.473000) can0 439#0000000000185A04
(6.475000) can0 2E5#0000243100009D00
(6.477000) can0 261#31000900B0495A83
(6.479000) can0 45A#FD07F8FF03000D27
(6.481000) can0 677#0000000000000000
(6.484000) can0 719#3302600000000000
(6.486000) can0 23E#00003AC002FF5F9A
(6.488000) can0 3A2#600573C01C00436E
(6.490000) can0 1E5#286C0400000040BE
(6.491000) can0 3C2#2955000000000000
(6.493000) can0 2E5#0000243100009D00
(6.495000) can0 2AA#57F0F3
(6.497000) can0 2C1#0219060000D09201
(6.499000) can0 249#D3040000
(6.501000) can0 2E1#026D66021A620000
(6.503000) can0 234#2E200331C5046046
(6.505000) can0 2E5#0000243100009D00
(6.507000) can0 448#20001010000010
(6.509000) can0 129#392408600220FF3F
(6.511000) can0 288#0106184C00603186
(6.514000) can0 3A3#18C00000280DFC01
(6.516000) can0 78A#010000001C13080D
(6.518000) can0 2E1#FB1FB02999A50900
(6.520000) can0 419#00
(6.522000) can0 2F2#1201
(6.523000) can0 3B2#B098020800000000
(6.525000) can0 261#140F904C004084B9
(6.527000) can0 243#02FC6B1004B50000
(6.529000) can0 1E5#286C0400000040BE
(6.531000) can0 272#0380610000000000
(6.533000) can0 2E1#0400000000202607
(6.537000) can0 421#F21A0000002000
(6.543000) can0 129#882709600420FF3F
(6.549000) can0 2E5#0000243100009D00
(6.554000) can0 3FD#0000003C20000180
(6.566000) can0 318#1A063605102B31E2
(6.573000) can0 4E2#0600000000000000
(6.575000) can0 2E5#0000243100009D00
(6.577000) can0 2C1#2163186402000000
(6.579000) can0 118#966D950000C8B4FF
(6.581000) can0 340#0000000000000000
(6.583000) can0 7A8#01000000FFA1F812
(6.584000) can0 2E5#0000243100009D00
(6.586000) can0 3A2#6005F3BE1C00436E
(6.590000) can0 372#0A384206010000AA
(6.594000) can0 379#040057B7800D0200
(6.600000) can0 3C0#0400000000000000
(6.604000) can0 3FD#01000A0000080280
(6.610000) can0 103#22B38804A4EE2032
(6.612000) can0 201#0200000000000000
(6.614000) can0 22B#7F000000C0FFFFFF
(6.616000) can0 78A#01000100DC5CC05D
(6.618000) can0 2B3#0B43FEFEFF018010
(6.620000) can0 212#5904000081FF7731
(6.622000) can0 20E#130300
(6.624000) can0 3A2#0110200000000000
(6.626000) can0 20C#C1F8340AE800300C
(6.629000) can0 132#048A66FDF73A
(6.631000) can0 45A#A4B8383A604A3760
(6.633000) can0 719#150009B400000000
(6.634000) can0 2E5#0000243100009D00
(6.636000) can0 420#2801404B00000005
(6.639000) can0 282#7CD041071CF40224
(6.641000) can0 3E2#04000001DFCE00
(6.643000) can0 744#AA
(6.645000) can0 2E5#0000243100009D00
(6.647000) can0 39D#0058E12700
(6.653000) can0 372#0B6FFB0000481500
(6.655000) can0 234#31E1038043009407
(6.657000) can0 195#000800000A002706
(6.659000) can0 3FD#01000A0000080280
(6.663000) can0 396#010F11470E01117D
(6.665000) can0 201#006F700000E4FF00
(6.667000) can0 22B#7F000000C0FFFFFF
(6.669000) can0 119#00000000
(6.671000) can0 1D8#29B6C0150000008D
(6.672000) can0 757#3200000000000000
(6.675000) can0 7D7#323C000000000000
(6.677000) can0 2E1#398D2AFF0F000000
(6.679000) can0 129#AF2509600020FF3F
(6.681000) can0 340#0100000000000000
(6.683000) can0 719#163C005A79010000
(6.685000) can0 261#322A9901805C22EA
(6.687000) can0 39D#0159E12700
(6.689000) can0 129#752609600020FF3F
(6.691000) can0 3C2#2955000000000000
(6.693000) can0 381#1100000000000000
(6.695000) can0 3C0#0500010000000000
(6.697000) can0 2C1#0219060000D09201
(6.699000) can0 129#622709600020FF3F
(6.701000) can0 261#7B4D0A000040353D
(6.703000) can0 234#30200331C504A088
(6.705000) can0 39B#0318FF80B088F060
(6.707000) can0 3FD#0200740000000090
(6.710000) can0 132#F08959FDDA3A
(6.712000) can0 1D5#290000000000C0BF
(6.714000) can0 3F5#0000C838820C0000
(6.717000) can0 102#22B3880494FAA009
(6.718000) can0 118#A56B950000C8C400
(6.720000) can0 257#239E878712C84301
(6.722000) can0 393#0380610000000000
(6.725000) can0 2E5#0000243100009D00
(6.727000) can0 545#E0045D209BAB09FA
(6.728000) can0 247#D90DFF0D00AB0100
(6.730000) can0 45A#A4B8383A604A3760
(6.733000) can0 261#05223CCA9A42504F
(6.735000) can0 441#D200B6C358003541
(6.737000) can0 132#E08955FDD33A
(6.739000) can0 118#476D950000C86400
(6.741000) can0 1E5#286C0400000060DE
(6.742000) can0 6A1#0000000000
(6.746000) can0 2E5#0000243100009D00
(6.750000) can0 243#030000801D745400
(6.756000) can0 7FF#06003200000000C0
(6.763000) can0 553#000000000000D028
(6.769000) can0 677#0200000000000000
(6.771000) can0 7D5#2B92AFFF00000000
(6.773000) can0 422#700010000000
(6.775000) can0 2E5#0000243100009E00
(6.781000) can0 2C1#2163186402000000
(6.787000) can0 262#0B00A8B200B09010
(6.794000) can0 129#E9200A600120FF3F
(6.800000) can0 139#00
(6.806000) can0 103#22B38804A2EC2032
(6.813000) can0 123#01000000003F0000
(6.815000) can0 2E5#0000243100009E00
(6.817000) can0 102#22B3880494FAA009
(6.819000) can0 118#AE65950000C8D4FF
(6.821000) can0 257#1893878712C84301
(6.823000) can0 393#080005D907B00304
(6.825000) can0 407#180D000000000000
(6.827000) can0 428#20001010000010
(6.829000) can0 227#66053E0040000081
(6.832000) can0 266#2A0018471800DA00
(6.834000) can0 34A#0007000000000020
(6.836000) can0 421#F21A0000002000
(6.838000) can0 263#02004010217D7E21
(6.840000) can0 1D8#29C0C016000020B8
(6.842000) can0 381#15404D7070000001
(6.844000) can0 727#0400
(6.846000) can0 23E#00003AC002FFEF2A
(6.852000) can0 129#B1260960FE1FFF3F
(6.854000) can0 221#6105555501050039
(6.856000) can0 195#000800000A002706
(6.858000) can0 263#0300000000000000
(6.860000) can0 257#32A5878712D04301
(6.862000) can0 261#3100D8FFB149DAD2
(6.865000) can0 397#F33F80E31C140000
(6.867000) can0 3E8#0500000000000000
(6.868000) can0 739#2E07250100
(6.870000) can0 3A1#844C0FCA001C0287
(6.872000) can0 422#700010000000
(6.875000) can0 439#0000000000185A04
(6.877000) can0 261#322A9901805CE2AA
(6.879000) can0 118#E56B950000C80400
(6.881000) can0 340#0300000000000000
(6.883000) can0 7A8#01000000FFA1F812
(6.884000) can0 2E5#0000243100009D00
(6.886000) can0 39D#065EE12700
(6.888000) can0 129#D72A0860FD1FFF3F
(6.890000) can0 266#2B0018471800DA00
(6.892000) can0 1D5#29000000000000FF
(6.895000) can0 2E5#0000243100009D00
(6.897000) can0 2C1#0219060000D09201
(6.899000) can0 129#262B0860FD1FFF3F
(6.901000) can0 666#0000C800
(6.912000) can0 234#32200331C504E0CA
(6.914000) can0 3F5#0000C838820C0000
(6.916000) can0 3AA#0000000000000000
(6.918000) can0 2B3#10000000001B0000
(6.920000) can0 22B#1F00000080FFFFFF
(6.922000) can0 2A8#01010000060030E2
(6.924000) can0 677#0100000000000000
(6.926000) can0 261#05223CCA9A42100F
(6.928000) can0 243#02FC731004B50000
(6.929000) can0 118#DA60950000C80400
(6.932000) can0 4E3#0200000000002800
(6.934000) can0 2E5#0000243100009D00
(6.936000) can0 420#2801404B00008006
(6.938000) can0 282#74D0310728F40224
(6.942000) can0 1D8#29C48017000060BD
(6.948000) can0 3C3#5555550100000000
(6.959000) can0 1E5#286C04000000007E
(6.961000) can0 128#0000EC0A02
(6.963000) can0 1D5#290000000000E0DF
(6.965000) can0 7AA#42081DF9E9062100
(6.971000) can0 552#00000000000090E7
(6.973000) can0 422#700010000000
(6.975000) can0 2E5#0000243100009C00
(6.976000) can0 2C1#2163186402000000
(6.979000) can0 118#1F65950000C84400
(6.981000) can0 2E1#026D66021A620000
(6.983000) can0 3A2#6045F3BF1C80426E
(6.985000) can0 2E5#0000243100009C00
(6.988000) can0 201#0168980000000000
(6.990000) can0 1E5#286C04000000007E
(6.991000) can0 228#0106184C00607166
(6.993000) can0 2E5#0000243100009C00
(6.995000) can0 3C0#0800000000000000
(6.997000) can0 2E1#FB1FB22999A50900
(6.999000) can0 249#AF0E0000
(7.001000) can0 330#0B00030100000000
(7.003000) can0 234#31200331C50400E9
(7.005000) can0 082#017FFF1FFF03F303
(7.007000) can0 39D#F951E12700
(7.009000) can0 1D8#29C6C017000040DF
(7.011000) can0 288#0106184C006081D6
(7.014000) can0 3A3#16D00000280DFC01
(7.016000) can0 3A2#0110200000000000
(7.018000) can0 263#690ED297C78F7A00
(7.020000) can0 1D8#29C6C017000060FF
(7.022000) can0 252#DD3F537400FC0F00
(7.024000) can0 42F#5244FE02FA00FF
(7.026000) can0 20C#C2F8340AE800300C
(7.028000) can0 243#02FC631004B50000
(7.030000) can0 227#69053F0040000081
(7.031000) can0 4E3#03FD000000002800
(7.033000) can0 2E5#0000243100009C00
(7.036000) can0 421#F21A0000002000
(7.038000) can0 261#00100100FF4F80D5
(7.043000) can0 257#3BAE878712D04301
(7.057000) can0 1F8#3A000000
(7.061000) can0 545#010000000010A0FB
(7.066000) can0 2E1#398D2AFF0F000000
(7.068000) can0 2C3#0000C04B010040CB
(7.070000) can0 261#322A9901805CA26A
(7.072000) can0 3CC#03218318000E0900
(7.074000) can0 439#0000000000185A04
(7.076000) can0 2E1#026D66021A620000
(7.078000) can0 263#04000000B0200000
(7.080000) can0 266#2C0018471800DA00
(7.081000) can0 22A#00001916
(7.084000) can0 3DB#0A1D130D12000000
(7.086000) can0 23E#00003AC002FF4F8A
(7.088000) can0 401#052AB88FAD8FC08F
(7.091000) can0 118#9960950000C8C4FF
(7.093000) can0 2E1#FB1FB23999A60900
(7.095000) can0 2E5#0000243100009D00
(7.097000) can0 2C1#0219060000D09201
(7.098000) can0 118#DB61950000C80400
(7.100000) can0 2E8#0101000006006052
(7.102000) can0 234#33200331C504200B
(7.104000) can0 37A#9108000000000000
(7.106000) can0 3FD#0000003C20000180
(7.109000) can0 448#20001010000010
(7.111000) can0 360#0200000000000000
(7.116000) can0 3A3#16D00000280DFC01
(7.122000) can0 263#690ED297C78F7A00
(7.129000) can0 3A1#C1FFFF2B3D005037
(7.132000) can0 272#0380610000000000
(7.134000) can0 2E5#0000243100009D00
(7.136000) can0 420#2801404B00008007
(7.138000) can0 2BF#00000000000001
(7.140000) can0 1D8#29C6C0170000E07F
(7.142000) can0 2E1#1021040010000004
(7.144000) can0 2E5#0000243100009D00
(7.146000) can0 204#010000FF00000010
(7.148000) can0 243#030000801D745400
(7.154000) can0 3FD#01000A0000080280
(7.157000) can0 3ED#00
(7.159000) can0 396#010F12470E02117D
(7.167000) can0 129#D3250660FB1FFF3F
(7.173000) can0 119#00000000
(7.178000) can0 35A#0000000000000000
(7.180000) can0 7D7#323C000000000000
(7.182000) can0 22A#00001916
(7.184000) can0 2E5#0000243100009D00
(7.186000) can0 201#0168980000000000
(7.188000) can0 3C8#0500000000000000
(7.190000) can0 118#C36A950000C8E4FF
(7.192000) can0 1D5#290000000000C0BF
(7.194000) can0 2E5#0000243100009D00
(7.196000) can0 1FA#3AC001
(7.197000) can0 139#00
(7.199000) can0 1D8#29C6C0170000A03F
(7.203000) can0 677#0300000000000000
(7.205000) can0 3FD#0200740000000090
(7.207000) can0 2E5#0000243100009D00
(7.209000) can0 118#956C950000C8B4FF
