(0.000000) can0 43B#037F00FF00000000
(0.003000) can0 3E9#F088022100001097
(0.007000) can0 123#00001392D2000000
(0.009000) can0 1E5#286C04000000007E
(0.011000) can0 288#0106184C006071C6
(0.013000) can0 4E2#04BE008C16600100
(0.015000) can0 129#A32AE75F0020FF3F
(0.017000) can0 201#006F6D0000E4FF00
(0.020000) can0 118#7167950000C89400
(0.020000) can0 279#3EB7FC01C4056502
(0.021000) can0 397#030000491C000000
(0.024000) can0 2E1#0400000000202600
(0.026000) can0 1F9#0000000000000000
(0.028000) can0 1A5#00101F4015
(0.030000) can0 23E#00003AC002FF7FBA
(0.033000) can0 261#0522CDC99A42D05F
(0.035000) can0 420#2801404B00008003
(0.038000) can0 458#00002000000000
(0.039000) can0 439#0000000000185A04
(0.040000) can0 213#081D
(0.040000) can0 201#0128980000000000
(0.041000) can0 3E3#04000000
(0.042000) can0 3C2#2955000000000000
(0.042000) can0 1D5#290000000000807F
(0.045000) can0 129#552DE75F0220FF3F
(0.045000) can0 2E5#000008320000DD00
(0.046000) can0 261#00100600FF4FE03A
(0.047000) can0 553#000000000000A0F8
(0.047000) can0 719#140000000000B500
(0.049000) can0 1FA#1AC001
(0.052000) can0 3AA#0000000000000000
(0.052000) can0 1D5#290000000000A09F
(0.053000) can0 682#000000400411A0D5
(0.054000) can0 129#522EE75F0120FF3F
(0.054000) can0 2E1#1021040010000004
(0.055000) can0 2B3#0900F02C00008B05
(0.056000) can0 2C4#1400000000000000
(0.057000) can0 2B4#40056D0E7301
(0.057000) can0 211#BA16710F1001
(0.058000) can0 1E5#286C04000000209E
(0.059000) can0 25B#D38000056A8630D3
(0.060000) can0 379#03C00E4833B92200
(0.060000) can0 3A2#0110200000000000
(0.062000) can0 261#3140FEFF9049FA37
(0.063000) can0 1D5#290000000000C0BF
(0.066000) can0 129#A32FE75F0120FF3F
(0.068000) can0 1D8#290000000000C0C2
(0.068000) can0 3F5#0000C838830C0000
(0.069000) can0 266#0000092C08009F01
(0.072000) can0 2E1#398D2AFF0F000000
(0.072000) can0 3A1#C1FFFF213D00906D
(0.073000) can0 287#30322F31E0020000
(0.074000) can0 129#4620E75F0120FF3F
(0.074000) can0 38B#FEFE6F1EFCC02203
(0.075000) can0 2D2#EF2EB34E8813E822
(0.076000) can0 292#477EF8E492010000
(0.077000) can0 2F2#1201
(0.078000) can0 118#176D950000C83400
(0.079000) can0 400#00E0FBBEEFFB00
(0.082000) can0 3AE#0940000800004193
(0.082000) can0 234#2EE1038043009404
(0.085000) can0 272#080002D107B00304
(0.085000) can0 2E5#000008320000DD00
(0.086000) can0 2E1#026D66021C7F0000
(0.087000) can0 381#1100000000000000
(0.087000) can0 1E5#286C04000000007E
(0.088000) can0 441#D400B6C358002533
(0.089000) can0 421#021A0000002000
(0.090000) can0 473#0000030000000000
(0.090000) can0 324#29319CD09E010000
(0.091000) can0 282#943CF20814040324
(0.093000) can0 361#2C0E1A0200
(0.093000) can0 3A2#72A7FFFF04000000
(0.094000) can0 132#3A90E1FFFF3F
(0.095000) can0 263#700ED29FA74F5F1F
(0.096000) can0 7AA#220880F7F0052100
(0.098000) can0 1D8#2900000000002022
(0.098000) can0 545#010000000010B00B
(0.103000) can0 788#01000000FFA1C812
(0.103000) can0 2F9#BCFB071800000000
(0.104000) can0 129#0F23E75F0120FF3F
(0.105000) can0 123#01000000003F0000
(0.105000) can0 39D#FC54E12700
(0.106000) can0 221#610555550107A0DB
(0.107000) can0 1D8#2900000000004042
(0.110000) can0 118#8960950000C8B4FF
(0.111000) can0 227#A903130053000081
(0.112000) can0 4E2#65018E13022F0000
(0.113000) can0 1D5#290000000000605F
(0.115000) can0 129#8924E75F0120FF3F
(0.115000) can0 201#006E6D0000E4FF00
(0.116000) can0 419#00
(0.117000) can0 393#0380610000000000
(0.117000) can0 118#0B61950000C83400
(0.118000) can0 108#FA08000A00A91125
(0.119000) can0 3AE#09400008000051A3
(0.120000) can0 268#1109A101FF
(0.120000) can0 2E1#0400000000202600
(0.121000) can0 397#030000491C000000
(0.124000) can0 381#5200000000003C03
(0.125000) can0 1F9#0000000000000000
(0.126000) can0 195#000000000A002706
(0.127000) can0 261#0522CDC99A4230BF
(0.127000) can0 1D8#2900000000008082
(0.128000) can0 428#20001010000010
(0.129000) can0 7D5#2B350FFF00000000
(0.130000) can0 7D5#2C3F3F0000000000
(0.130000) can0 2C1#216B186402000000
(0.131000) can0 545#020003000000C00F
(0.134000) can0 234#3320032FB904A07D
(0.134000) can0 132#3790E0FFF83F
(0.135000) can0 340#0000000000000000
(0.136000) can0 458#00002000000000
(0.136000) can0 2E5#000008320000DD00
(0.138000) can0 1D8#290000000000A0A2
(0.139000) can0 441#3E8589003200280F
(0.139000) can0 333#0410590700
(0.140000) can0 3FD#0000003C20000180
(0.142000) can0 201#0128980000000000
(0.145000) can0 129#9727E75FFF1FFF3F
(0.145000) can0 2E5#000008320000DD00
(0.148000) can0 553#000000000000B008
(0.148000) can0 23E#00003AC002FFAFEA
(0.149000) can0 266#0000092C09009F01
(0.150000) can0 78A#01000400CC06A100
(0.150000) can0 2E1#1021040010000004
(0.153000) can0 1D5#290000000000E0DF
(0.155000) can0 682#000000400411B0E5
(0.156000) can0 2C4#550001081000FF00
(0.157000) can0 2B4#3C056C0E7201
(0.158000) can0 211#BB17710F1001
(0.158000) can0 266#0000092C08009F01
(0.159000) can0 261#314001008F495A9A
(0.160000) can0 381#130000000020FCFF
(0.160000) can0 423#00001000000000
(0.163000) can0 3E8#0600000000000000
(0.165000) can0 129#7C29E75F0020FF3F
(0.165000) can0 201#0200000000000000
(0.166000) can0 2E1#398D2AFF0F000000
(0.167000) can0 1D8#29FC3F000000003D
(0.167000) can0 3F5#0000C838820C0000
(0.168000) can0 37A#C00D000000000000
(0.170000) can0 102#22B3480494FAA009
(0.171000) can0 743#22
(0.173000) can0 3A1#C1FFFF333D00B09F
(0.173000) can0 409#00
(0.174000) can0 129#A32AE75F0020FF3F
(0.175000) can0 263#04000000901C0000
(0.175000) can0 212#5904000081FF7731
(0.176000) can0 2D2#F02EB34E8813E822
(0.177000) can0 359#5700000000000000
(0.178000) can0 45A#FD07F8FF03000057
(0.178000) can0 257#296C4B390AB02501
(0.179000) can0 7A8#0240C207000F0000
(0.182000) can0 225#5555FA00
(0.182000) can0 2E1#026D66021C7F0000
(0.185000) can0 272#0380610000000000
(0.186000) can0 666#0000C800
(0.187000) can0 283#000000004000
(0.187000) can0 1E5#286C0400000040BE
(0.188000) can0 441#D400B6C358002D3B
(0.189000) can0 266#0000092C08009F01
(0.190000) can0 2F3#07070B0400600002
(0.190000) can0 3FD#01000A0000080280
(0.193000) can0 737#03000000E0F080
(0.193000) can0 2AA#57C0C3
(0.194000) can0 129#322CE75F0020FF3F
(0.195000) can0 381#54102006000000FE
(0.195000) can0 2E5#000008320000DD00
(0.198000) can0 1D8#29FA3F000000609B
(0.198000) can0 2E1#FB1F9069978C0900
(0.200000) can0 103#22B38804A2F02032
(0.203000) can0 788#0240C70700030000
(0.203000) can0 2F9#BCFB072000000000
(0.204000) can0 129#8D2DE75F0120FF3F
(0.205000) can0 123#00001392D2000000
(0.208000) can0 261#9401B04B0040844A
(0.208000) can0 22B#FFFFFF0FC0FFFFFF
(0.211000) can0 288#0106184C006091E6
(0.211000) can0 4E2#0600000000000000
(0.212000) can0 281#1400FF1F0001
(0.215000) can0 129#522EE75F0120FF3F
(0.215000) can0 2E5#000008320000DD00
(0.216000) can0 419#00
(0.217000) can0 393#080002C907B00304
(0.217000) can0 1E5#286C04000000209E
(0.220000) can0 108#8FD9FFE3FF961125
(0.222000) can0 395#090F12610902037D
(0.224000) can0 1D5#290000000000C0BF
(0.226000) can0 1F9#0000000000000000
(0.228000) can0 1A5#00101F5025
(0.230000) can0 23E#00003AC002FFCF0A
(0.232000) can0 7D5#3200000000000000
(0.235000) can0 234#2F20032EB904C098
(0.236000) can0 2E5#000008320000DD00
(0.237000) can0 757#2C003E0000000000
(0.237000) can0 1D8#29FA3F000000E01B
(0.238000) can0 266#FF07092C09009F01
(0.239000) can0 439#0000000000185A04
(0.242000) can0 3FD#0200560000000090
(0.244000) can0 201#0128980000000000
(0.245000) can0 2E5#000008320000DD00
(0.248000) can0 2E1#1021040010000004
(0.248000) can0 1FA#1AC001
(0.249000) can0 266#FF07092C09009F01
(0.250000) can0 78A#010005009D0D0A00
(0.260000) can0 1D5#290000000000201F
(0.264000) can0 7AA#04000FC000260000
(0.266000) can0 3AE#09400008000090E2
(0.268000) can0 381#16000400007F0000
(0.270000) can0 23E#00003AC002FFDF1A
(0.272000) can0 261#B2291902805CC28A
(0.274000) can0 3A1#C1FFFF2D3D00D0B9
(0.276000) can0 263#04000000901C0000
(0.279000) can0 2D2#EF2EB34E8813E822
(0.281000) can0 6C8#247C00F412200C00
(0.283000) can0 234#2EE103804300D444
(0.283000) can0 272#080002D107B00304
(0.284000) can0 129#3325E75F0020FF3F
(0.285000) can0 243#00FCCF0C91440D29
(0.285000) can0 3C8#0100000000000000
(0.286000) can0 261#934C0A000040D5F4
(0.287000) can0 1D8#29F63F00000080B7
(0.290000) can0 441#D400B6C358003543
(0.290000) can0 201#0300000000000000
(0.291000) can0 2BF#00000000000001
(0.292000) can0 3C2#0055555500006A05
(0.292000) can0 1D5#290000000000A09F
(0.294000) can0 2AA#57D0D3
(0.295000) can0 263#700ED29FA74F5F1F
(0.295000) can0 2E5#000008320000DD00
(0.296000) can0 545#010000000010106B
(0.297000) can0 1D8#29F63F000000A0D7
(0.298000) can0 118#BC63950000C8E4FF
(0.298000) can0 257#1F624B390AB02501
(0.303000) can0 788#B8D4B1830000B600
(0.303000) can0 381#1700000000000000
(0.304000) can0 129#3A27E75FFE1FFF3F
(0.305000) can0 289#CA0C06C3A5003D0F
(0.305000) can0 2E5#000008320000DD00
(0.306000) can0 221#610555550107E01B
(0.307000) can0 1D8#29F63F000000C0F7
(0.309000) can0 22B#FFFFFF0FC0FFFFFF
(0.309000) can0 288#0106184C0060A1F6
(0.310000) can0 2E1#0400000000202600
(0.311000) can0 247#7B0EFF0C00C40100
(0.312000) can0 3F9#0500000000000000
(0.312000) can0 6A1#0000000000
(0.315000) can0 129#4028E75FFF1FFF3F
(0.317000) can0 2E5#000008320000DD00
(0.319000) can0 419#00
(0.321000) can0 108#58AAFFCBFFA61125
(0.323000) can0 397#03E07F491C000000
(0.325000) can0 129#B829E75FFE1FFF3F
(0.327000) can0 2E5#000008320000DD00
(0.330000) can0 1E5#286C04000000007E
(0.331000) can0 7D5#3200000000000000
(0.332000) can0 234#3320032EB904E0BC
(0.333000) can0 2C2#2040404B010080CB
(0.334000) can0 420#2801404B00000005
(0.334000) can0 132#4990EFFF1740
(0.335000) can0 340#0200000000000000
(0.336000) can0 318#1A06380D10192FD8
(0.337000) can0 757#2C003E0000000000
(0.337000) can0 1D8#29F43F0000002055
(0.338000) can0 266#FF07092C09009F01
(0.339000) can0 300#1278CEA87F02F3C3
(0.340000) can0 3D2#380E0803A8B02A03
(0.340000) can0 201#0128980000000000
(0.341000) can0 323#3B141F0204
(0.343000) can0 3A8#0103000700020100
(0.345000) can0 129#3B2BE75FFF1FFF3F
(0.345000) can0 39D#025AE12700
(0.346000) can0 401#002A519650964F96
(0.347000) can0 553#000000000000D028
(0.347000) can0 207#0000000000000000
(0.348000) can0 1FA#1AC001
(0.349000) can0 118#7268950000C89400
(0.352000) can0 78A#0100060003000000
(0.352000) can0 1D5#290000000000605F
(0.355000) can0 22B#FFFFFF0FC0C3FFFF
(0.355000) can0 2B3#CE2B5E0180151900
(0.356000) can0 264#3E000000A000
(0.357000) can0 224#0408004019011008
(0.357000) can0 1D8#29F43F0000006095
(0.359000) can0 2F1#113F011201C00900
(0.360000) can0 423#00001000000000
(0.363000) can0 139#00
(0.365000) can0 129#8D2DE75F0120FF3F
(0.365000) can0 201#0200000000000000
(0.366000) can0 261#B2291902805C22EA
(0.367000) can0 1D8#29F23F00000080B3
(0.367000) can0 1E5#286C04000000007E
(0.368000) can0 37A#C20D000000000000
(0.369000) can0 266#FF07092C09009F01
(0.372000) can0 2C1#531A900000000000
(0.372000) can0 3A1#C1FFFF1F3D00F0CB
(0.375000) can0 129#AD2EE85F0120FF3F
(0.375000) can0 2E5#000008320000DD00
(0.377000) can0 122#00001392D2000000
(0.378000) can0 118#956B950000C8B400
(0.378000) can0 257#23664B390AB02501
(0.379000) can0 2D2#EF2EB34E8813E822
(0.380000) can0 400#00E0FBBEEFFB00
(0.381000) can0 225#5555FA00
(0.383000) can0 261#934C0A0000403554
(0.383000) can0 3AE#0A4000080000D023
(0.384000) can0 129#842FE85F0220FF3F
(0.385000) can0 243#00FCCF0C91440D29
(0.385000) can0 3C8#0200000000000000
(0.386000) can0 228#0106184C00606156
(0.387000) can0 1D8#29F23F000000C0F3
(0.390000) can0 23E#00003AC002FF0F4A
(0.391000) can0 301#1100000000000000
(0.392000) can0 2C1#0400000000000000
(0.393000) can0 1D5#290000000000E0DF
(0.393000) can0 2AA#57E0E3
(0.394000) can0 129#6120E85F0220FF3F
(0.395000) can0 718#01000000000000
(0.395000) can0 545#010000000010409B
(0.398000) can0 307#000000000000003B
(0.398000) can0 257#24674B390AB02501
(0.403000) can0 788#01000000FFA1C812
(0.403000) can0 2F9#BCFB07030D1A8B84
(0.404000) can0 132#4290F3FF2740
(0.405000) can0 372#0157540340003401
(0.405000) can0 2E5#000008320000DD00
(0.407000) can0 2E1#0400000000202600
(0.410000) can0 118#486E950000C86400
(0.410000) can0 2C1#D0647E00008A0200
(0.411000) can0 247#7B0EFF0D00C30100
(0.412000) can0 4E2#013B0EFE0F002800
(0.412000) can0 1D5#290000000000201F
(0.415000) can0 129#3F22E85F0220FF3F
(0.415000) can0 201#006E6D0000E4FF00
(0.418000) can0 393#080002C907B00304
(0.420000) can0 257#25684B390AB02501
(0.422000) can0 2B6#000300
(0.424000) can0 2E1#65800800E44E316A
(0.426000) can0 1F9#0000000000000000
(0.428000) can0 27A#D2BC0C01C4056202
(0.430000) can0 23E#00003AC002FF1F5A
(0.433000) can0 7D5#3200000000000000
(0.435000) can0 420#2801404B00008005
(0.436000) can0 263#0200A0460D353521
(0.436000) can0 405#113345374542334B
(0.437000) can0 666#0000C800
(0.438000) can0 757#3200000000000000
(0.438000) can0 458#00002000000000
(0.439000) can0 7FF#024612289C5181C2
(0.440000) can0 313#026464050000E0C5
(0.441000) can0 439#0000000000185A04
(0.441000) can0 3C3#0000000000A50000
(0.442000) can0 3C2#2955000000000000
(0.445000) can0 3E9#F0880221000020A7
(0.445000) can0 241#7574541D1D4500
(0.447000) can0 3FD#0000003C20000180
(0.449000) can0 261#3140140095497AD3
(0.450000) can0 78A#010000002013050D
(0.453000) can0 1D5#290000000000A09F
(0.455000) can0 129#6326E85F0220FF3F
(0.455000) can0 2C4#19C27C030D1C2003
(0.456000) can0 264#3D000000A000
(0.457000) can0 2B4#3C056E0E7B01
(0.457000) can0 1E5#286C04000000209E
(0.458000) can0 118#FD63950000C82400
(0.459000) can0 257#276A4B390AB02501
(0.460000) can0 423#00001000000000
(0.462000) can0 545#E0045D60998F697C
(0.462000) can0 261#B2291902805C824A
(0.464000) can0 3E8#0200000000000000
(0.465000) can0 372#0264003E508A8075
(0.465000) can0 39D#055DE12700
(0.466000) can0 2E5#000008320000DD00
(0.467000) can0 1D8#29EE3F000000C0EF
(0.467000) can0 302#0D16389367000000
(0.468000) can0 37A#CBE0010000000000
(0.469000) can0 118#9D64950000C8C4FF
(0.472000) can0 2E1#026D66021C7E0000
(0.472000) can0 3A1#C1FFFF2B3D0010F7
(0.473000) can0 409#00
(0.474000) can0 129#D628E85F0020FF3F
(0.476000) can0 263#04000000901C0000
(0.476000) can0 2E5#000008320000DD00
(0.478000) can0 312#00E56644ADC91C1B
(0.479000) can0 257#286B4B390AB02501
(0.479000) can0 400#00E0FBBEEFFB00
(0.480000) can0 7A8#0240C107000F0000
(0.483000) can0 234#2EE1038043001484
(0.483000) can0 3AE#0940000800000052
(0.484000) can0 129#7C29E75F0020FF3F
(0.485000) can0 7AA#07F7FFF7FFF1FF48
(0.485000) can0 3C8#0300000000000000
(0.486000) can0 2E1#FB1F9169978B0900
(0.487000) can0 1D8#29EE3F000000002F
(0.490000) can0 441#D300B6C358000512
(0.490000) can0 421#021A0000002000
(0.491000) can0 201#0300000000000000
(0.493000) can0 2C1#0400000000000000
(0.493000) can0 2AA#57F0F3
(0.494000) can0 129#5C2AE85F0020FF3F
(0.495000) can0 2E8#0101000006009082
(0.495000) can0 2E5#000008320000DD00
(0.498000) can0 3FD#01000A0000080280
(0.499000) can0 1D8#29EC3F000000204D
(0.503000) can0 788#0240C60700030000
(0.505000) can0 21D#0400B50000000000
(0.507000) can0 243#01FC374836005B5B
(0.509000) can0 1D8#29EC3F000000406D
(0.511000) can0 3AE#0A40000800002174
(0.513000) can0 3A3#18C00000380DFC01
(0.515000) can0 129#CD2CE85F0020FF3F
(0.519000) can0 201#006F6E0000E4FF00
(0.520000) can0 1D6#020800000A80FA07
(0.520000) can0 381#22A2F027F1200400
(0.521000) can0 397#03E07F491C000000
(0.522000) can0 3A1#884C0FCA001422A3
(0.523000) can0 3A2#6025F3B51C80C26F
(0.526000) can0 129#202DE75F0020FF3F
(0.526000) can0 261#00100600FF4FC01A
(0.527000) can0 422#700010000000
(0.528000) can0 428#20001010000010
(0.528000) can0 118#936A950000C8B4FF
(0.529000) can0 266#FE07092C09009F01
(0.530000) can0 7D5#3200000000000000
(0.533000) can0 119#00000000
(0.534000) can0 420#2801404B00000006
(0.535000) can0 2E1#1021040010000004
(0.535000) can0 458#00002000000000
(0.536000) can0 7FF#0301082861428001
(0.537000) can0 757#2C003E0000000000
(0.538000) can0 1E5#286C04000000209E
(0.538000) can0 257#2B6E4B390AB02501
(0.541000) can0 253#0064A6C66490B505
(0.541000) can0 3A8#2A80E9F51F00FFBF
(0.542000) can0 261#314023009549DA42
(0.545000) can0 129#F12FE85F0020FF3F
(0.545000) can0 2E5#000008320000DD00
(0.546000) can0 207#0000000000000000
(0.547000) can0 553#000000000000F048
(0.548000) can0 719#0300000000000000
(0.549000) can0 3FD#0200560000000090
(0.551000) can0 118#E66C950000C80400
(0.554000) can0 1D5#290000000000E0DF
(0.554000) can0 132#5390FAFF3440
(0.555000) can0 263#0300000000000000
(0.556000) can0 264#3C000000A000
(0.556000) can0 221#6055551554513118
(0.557000) can0 1D8#29EA3F000000E00B
(0.558000) can0 2F1#00DA328142001600
(0.559000) can0 261#B2291902805CE2AA
(0.559000) can0 3A2#0110200000000000
(0.560000) can0 54F#0000000000000000
(0.561000) can0 139#00
(0.564000) can0 3E8#0300000000000000
(0.565000) can0 401#0B2A489656964C96
(0.566000) can0 7AA#0800000018011B0E
(0.569000) can0 1D8#29EA3F000000002B
(0.569000) can0 102#22B3480494FAA009
(0.570000) can0 2C1#531A900000000000
(0.571000) can0 287#30322F31E1020000
(0.574000) can0 3A1#C1FFFF173D003003
(0.574000) can0 261#934C0A000040F514
(0.575000) can0 45A#FD07F8FF03000058
(0.576000) can0 252#C94B417D00FC0F00
(0.576000) can0 122#00001392D2000000
(0.577000) can0 1D8#29EA3F000000204B
(0.578000) can0 118#886F950000C8A4FF
(0.579000) can0 400#00E0FBBEEFFB00
(0.582000) can0 225#5555FA00
(0.582000) can0 2E1#FB1F927997850900
(0.585000) can0 272#0380610000000000
(0.585000) can0 2E5#000008320000DD00
(0.588000) can0 228#0106184C00608176
(0.588000) can0 23E#00003AC002FF5F9A
(0.589000) can0 118#DA60950000C80400
(0.590000) can0 39A#2013EB760B2FEF7E
(0.590000) can0 421#021A0000002000
(0.591000) can0 201#0300000000000000
(0.592000) can0 2C1#0400000000000000
(0.593000) can0 40A#0910000000003057
(0.593000) can0 545#010000000010A0FB
(0.594000) can0 132#579002004040
(0.596000) can0 263#700ED29FA74F5F1F
(0.599000) can0 1D8#29E83F0000006089
(0.603000) can0 788#B8D4B1830000B600
(0.603000) can0 2F9#BCFB07100D1A8B84
(0.604000) can0 129#3325E75F0020FF3F
(0.605000) can0 401#0D2A4F9651965196
(0.605000) can0 2E5#000008320000DD00
(0.606000) can0 261#0522CEC99A4210A0
(0.607000) can0 1D8#29E83F00000080A9
(0.610000) can0 118#6B62950000C894FF
(0.610000) can0 2C1#D0647E00008A0200
(0.611000) can0 227#B003140053000081
(0.612000) can0 6A1#0000000000
(0.612000) can0 1D5#290000000000A09F
(0.614000) can0 129#1626E85F0020FF3F
(0.615000) can0 263#89E6D1AFB74F5F1F
(0.615000) can0 201#006D6D0000E4FF00
(0.616000) can0 419#00
(0.617000) can0 1D8#29E83F000000A0C9
(0.620000) can0 2A8#0101000006008032
(0.622000) can0 279#44BDFC01C4056502
(0.624000) can0 261#00100600FF4F207A
(0.626000) can0 1F9#0000000000000000
(0.628000) can0 1A5#00101F7045
(0.630000) can0 23E#00003AC002FF6FAA
(0.632000) can0 2E1#1021040010000004
(0.633000) can0 234#3220032EB904401B
(0.634000) can0 132#509006004540
(0.637000) can0 318#1A06390D101935DF
(0.639000) can0 1D8#29E63F000000E007
(0.641000) can0 439#0000000000185A04
(0.643000) can0 3FD#0000003C20000180
(0.649000) can0 656#0C02010100000000
(0.652000) can0 78A#0100020060066206
(0.653000) can0 383#A7181E00C380E20B
(0.654000) can0 682#0000004004110035
(0.654000) can0 229#310E00
(0.655000) can0 263#0300000000000000
(0.656000) can0 2C4#010001D200000000
(0.656000) can0 224#0408004019011008
(0.657000) can0 1E5#286C04000000209E
(0.658000) can0 118#3167950000C85400
(0.661000) can0 2F1#01DA338142801300
(0.663000) can0 2E1#026D66021C7F0000
(0.665000) can0 3E8#0400000000000000
(0.667000) can0 39D#FA52E12700
(0.669000) can0 1E5#286C0400000040BE
(0.671000) can0 102#22B3480494FAA009
(0.673000) can0 677#0100000000000000
(0.676000) can0 409#00
(0.677000) can0 1D8#29E43F0000006085
(0.678000) can0 359#5D00000000000000
(0.679000) can0 257#22654B390AB02501
(0.679000) can0 712#020AD3132F140000
(0.682000) can0 225#5555FA00
(0.682000) can0 234#2FE10380430054C5
(0.685000) can0 272#080003D107B00304
(0.686000) can0 55A#0200000000000000
(0.687000) can0 283#000000004000
(0.688000) can0 3A2#62A7FFFF04000000
(0.688000) can0 441#D500B6C358001524
(0.689000) can0 266#FE070A2C09009F01
(0.690000) can0 421#021A0000002000
(0.690000) can0 33A#82D443A3FDFF3761
(0.691000) can0 3FD#01000A0000080280
(0.693000) can0 282#8C3CF20814040324
(0.694000) can0 2AA#571013
(0.694000) can0 2E1#0400000000202600
(0.695000) can0 2E5#000008320000DD00
(0.698000) can0 1D8#29E43F000000A0C5
(0.698000) can0 257#23664B390AB02501
(0.700000) can0 103#22B38804A2F02032
(0.703000) can0 524#86730302201001
(0.703000) can0 41D#00
(0.704000) can0 75D#0500000000007E04
(0.705000) can0 22B#FFFFFF0FC0C3FFFF
(0.705000) can0 243#01FC374836005B5B
(0.706000) can0 372#06BFDB1FDCFB9E05
(0.707000) can0 788#01000000FFA1C812
(0.708000) can0 31A#20010000000080BE
(0.708000) can0 23E#00003AC002FF8FCA
(0.709000) can0 266#FD070A2C09009F01
(0.710000) can0 288#0106184C0060E136
(0.711000) can0 2C1#D0647E00008A0200
(0.711000) can0 227#B203140053000081
(0.712000) can0 677#0200000000000000
(0.714000) can0 129#1420E85F0020FF3F
(0.714000) can0 22A#00002917
(0.715000) can0 2B3#032323040900003C
(0.716000) can0 7AA#0A7F067F06005600
(0.717000) can0 393#0380610000000000
(0.717000) can0 419#00
(0.718000) can0 118#A66D950000C8C4FF
(0.719000) can0 261#00100600FF4F80DA
(0.719000) can0 126#094038741C
(0.720000) can0 268#120AA101FF
(0.721000) can0 395#090F13610902047D
(0.722000) can0 552#00000000000080D7
(0.722000) can0 3A1#884C0FCA001462E3
(0.725000) can0 3AE#0A400008000091E4
(0.726000) can0 2E5#000008320000DD00
(0.727000) can0 396#091E1F5650570C7D
(0.728000) can0 1E5#286C04000000007E
(0.728000) can0 545#020003000000E02F
(0.729000) can0 118#086E950000C82400
(0.730000) can0 7D5#2C3F3F0000000000
(0.731000) can0 315#015A5A00625A0000
(0.731000) can0 7D7#3212000000000000
(0.732000) can0 7D5#42F8007500002800
(0.733000) can0 1D5#290000000000201F
(0.733000) can0 7D5#439BAB888C3F0000
(0.734000) can0 7D5#449A505E5C440042
(0.735000) can0 318#1A06390D101937E1
(0.736000) can0 340#0600400000000000
(0.737000) can0 2E5#000008320000DD00
(0.738000) can0 1D8#29E23F0000002043
(0.739000) can0 118#C86F950000C8E4FF
(0.740000) can0 3C5#0000000000000000
(0.740000) can0 3E5#0000000000000000
(0.741000) can0 3FD#0200560000000090
(0.743000) can0 441#3E858900320018FF
(0.744000) can0 2E1#398D2AFF0F000000
(0.745000) can0 757#3200000000000000
(0.745000) can0 39D#FC54E12700
(0.746000) can0 320#0200000000000000
(0.747000) can0 207#0000000000000000
(0.747000) can0 553#0000000000001068
(0.748000) can0 719#1700000000000000
(0.750000) can0 118#B960950000C8E4FF
(0.760000) can0 677#0300000000000000
(0.764000) can0 717#000600E9FF2500
(0.766000) can0 132#4E900C004A40
(0.768000) can0 261#934C0A000040B5D4
(0.770000) can0 37A#B20D000000000000
(0.772000) can0 2C1#531A900000000000
(0.774000) can0 3A1#C1FFFF1F3D00704B
(0.776000) can0 2E1#FB1F9079978A0900
(0.779000) can0 2E5#000008320000DD00
(0.780000) can0 400#00E0FBBEEFFB00
(0.780000) can0 225#5555FA00
(0.783000) can0 234#2EE10380430074E4
(0.783000) can0 272#0380610000000000
(0.785000) can0 129#0127E85F0020FF3F
(0.786000) can0 3C8#0600000000000000
(0.786000) can0 228#0106184C0060A196
(0.787000) can0 1D8#29E03F000000C0E1
(0.788000) can0 386#0000000000000000
(0.789000) can0 384#0000000000000000
(0.789000) can0 238#9831F63C1E003285
(0.790000) can0 39A#1C17EF7A0B33EB7E
(0.791000) can0 7B5#000000
(0.791000) can0 282#8C3CE20814040324
(0.792000) can0 2E1#0400000000202600
(0.793000) can0 40A#0910000000004067
(0.794000) can0 3C0#0200000000000000
(0.794000) can0 718#03000000000000
(0.795000) can0 2E8#010100000600C0B2
(0.797000) can0 7AA#0B4F002855004000
(0.797000) can0 719#0003140F14070E00
(0.798000) can0 266#FD070A2C09009F01
(0.799000) can0 103#22B38804A2F02032
(0.802000) can0 788#0240C60700030000
(0.802000) can0 448#20001010000010
(0.803000) can0 2F9#BCFB072000000000
(0.804000) can0 129#8329E85F0020FF3F
(0.804000) can0 289#CA0C068390003D0F
(0.805000) can0 243#01FC374835005B5B
(0.806000) can0 2E1#65800800E54E316A
(0.807000) can0 381#0A00000000000000
(0.810000) can0 22B#FFFFFF0F80C3FFFF
(0.810000) can0 2C1#D0647E00008A0200
(0.812000) can0 247#7D0EFF0C00C40100
(0.815000) can0 129#F12AE85F0120FF3F
(0.815000) can0 201#006D6D0000E4FF00
(0.818000) can0 393#080002C107B00304
(0.820000) can0 257#316C4B390AB82501
(0.822000) can0 3A2#6045F3B41C80C26F
(0.824000) can0 2E1#1021040010000004
(0.826000) can0 1F9#0000000000000000
(0.828000) can0 1A5#00101F00D5
(0.830000) can0 545#0200040000001060
(0.833000) can0 261#31404A009449FA88
(0.834000) can0 129#B82CE85F0220FF3F
(0.835000) can0 318#1A06390D101939E3
(0.836000) can0 263#0200A0460D353521
(0.837000) can0 2E5#000008320000DD00
(0.838000) can0 118#5369950000C87400
(0.839000) can0 2E1#398D2AFF0F000000
(0.839000) can0 441#3E85890032002007
(0.840000) can0 284#300000004008F0EE
(0.841000) can0 3C3#0000000000A50000
(0.842000) can0 2E2#00000069020B0000
(0.842000) can0 381#0B00000000000000
(0.845000) can0 129#722DE85F0120FF3F
(0.845000) can0 241#7474141D1D4500
(0.846000) can0 261#B2291902805C02CA
(0.847000) can0 553#0000000000002078
(0.847000) can0 719#0100040000000000
(0.849000) can0 1FA#1AC001
(0.850000) can0 78A#01000400CC06A100
(0.850000) can0 2C1#0219160000D09201
(0.853000) can0 1D5#290000000000A09F
(0.855000) can0 682#0000004004112055
(0.855000) can0 2C4#03010E40010C8000
(0.856000) can0 2E5#000008320000DD00
(0.857000) can0 2B4#3E056F0E7601
(0.857000) can0 211#C21E710F1001
(0.858000) can0 379#0B0000000300180F
(0.859000) can0 257#2B6E4B390AB02501
(0.860000) can0 545#E0045860998B2933
(0.863000) can0 139#00
(0.865000) can0 129#702FE95F0220FF3F
(0.865000) can0 39D#FF57E12700
(0.867000) can0 7AA#0C00000000000039
(0.867000) can0 3F5#0000C838820C0000
(0.868000) can0 37A#CBE0010000000000
(0.869000) can0 266#FC070A2D09009F01
(0.872000) can0 2E1#FB1F9279978B0900
(0.872000) can0 3A1#C1FFFF353D009081
(0.873000) can0 409#00
(0.874000) can0 129#9520E95F0220FF3F
(0.876000) can0 263#04000000901C0000
(0.876000) can0 2E5#000008320000DD00
(0.877000) can0 359#803F000000000000
(0.878000) can0 3B2#3A70E64DD1D93C00
(0.878000) can0 261#9401B84B004024F2
(0.879000) can0 400#00E0FBBEEFFB00
(0.882000) can0 3AE#0B4000080000E034
(0.883000) can0 234#2EE1038043009404
(0.884000) can0 129#8221E95F0220FF3F
(0.885000) can0 372#0900000000F83F00
(0.885000) can0 2E5#000008320000DD00
(0.886000) can0 2E1#0400000000202600
(0.887000) can0 283#000000004000
(0.890000) can0 441#D700B6C358002536
(0.890000) can0 421#021A0000002000
(0.891000) can0 282#943CE20814040324
(0.892000) can0 3C2#0055555500006A05
(0.892000) can0 1D5#290000000000201F
(0.893000) can0 2AA#573033
(0.894000) can0 129#CB22E95F0220FF3F
(0.895000) can0 2E8#010100000600D0C2
(0.896000) can0 2E5#000008320000DD00
(0.897000) can0 1D8#29DA3F000000203B
(0.898000) can0 118#A86F950000C8C4FF
(0.901000) can0 103#22B38804A2F02032
(0.901000) can0 788#B8D4B1830000B600
(0.902000) can0 21D#0400B50000000000
(0.903000) can0 25D#3741012A04F08803
(0.906000) can0 129#DC23E95F0220FF3F
(0.906000) can0 221#610555550107A0DB
(0.907000) can0 1D8#29DA3F000000405B
(0.910000) can0 22B#FFFFFF0F80C3FFFF
(0.910000) can0 261#00100800FF4F409C
(0.911000) can0 3A3#16C00000380DFC01
(0.912000) can0 247#7C0EFF0C00C30100
(0.913000) can0 1D5#290000000000605F
(0.914000) can0 132#579014006240
(0.915000) can0 263#89E6D1AFB74F5F1F
(0.915000) can0 201#006D6D0000E4FF00
(0.918000) can0 393#0380610000000000
(0.918000) can0 257#26614B390AB82501
(0.919000) can0 108#1BD0FE83FF8C1125
(0.920000) can0 128#0000EC0A02
(0.920000) can0 279#37B0FC01C4056502
(0.921000) can0 552#000000000000A0F7
(0.922000) can0 3A1#884C0FCA0014A223
(0.923000) can0 20C#20D836141D01000E
(0.926000) can0 129#9525E95F0120FF3F
(0.926000) can0 27A#B6B1FC00C4056202
(0.928000) can0 422#700010000000
(0.929000) can0 118#7B62950000C8A4FF
(0.929000) can0 266#FD070A2D09009F01
(0.930000) can0 7D5#2C3F3F0000000000
(0.931000) can0 7D7#3212000000000000
(0.934000) can0 234#3120032EB904A07A
(0.934000) can0 132#5B9012005C40
(0.935000) can0 414#1000000000434956
(0.936000) can0 263#0200A0460D353521
(0.936000) can0 318#1A06390D10193BE5
(0.937000) can0 757#2C3F3E0000000000
(0.938000) can0 7FF#0720000528000000
(0.939000) can0 118#9C63950000C8C4FF
(0.939000) can0 3E9#F0880221000030B7
(0.941000) can0 285#02A800000000B200
(0.942000) can0 3A8#FCE07FB3FC0F0000
(0.942000) can0 1D5#290000000000C0BF
(0.943000) can0 708#2B1F0A0000
(0.944000) can0 129#F527E95F0020FF3F
(0.945000) can0 320#0300000000000000
(0.945000) can0 39D#0159E12700
(0.948000) can0 553#0000000000003088
(0.948000) can0 719#0CC30F0059096000
(0.949000) can0 118#0E64950000C83400
(0.950000) can0 78A#010005009D0D0A00
(0.950000) can0 2E1#026D66021C800000
(0.951000) can0 3A2#0110200000000000
(0.954000) can0 1D5#290000000000E0DF
(0.955000) can0 229#440100
(0.956000) can0 264#3C000000A000
(0.956000) can0 224#0408004019011008
(0.957000) can0 1E5#286C0400000060DE
(0.958000) can0 118#BE65950000C8E4FF
(0.959000) can0 22B#FFFFFF0F80C3FFFF
(0.959000) can0 25B#D38000056A86C063
(0.960000) can0 3A4#0100000000000000
(0.961000) can0 54F#0000000000000000
(0.964000) can0 3E8#0000000000000000
(0.964000) can0 401#1F2A539642965896
(0.965000) can0 243#04FC63F16D7CFFFF
(0.968000) can0 2E1#FB1F907997840900
(0.968000) can0 37A#B00C000000000000
(0.970000) can0 266#FC070A2D09009F01
(0.971000) can0 3AE#0B40000800001165
(0.973000) can0 3A1#C1FFFF333D00B09F
(0.975000) can0 129#5C2AE85F0020FF3F
(0.975000) can0 409#00
(0.976000) can0 252#C94B417D00FC0F00
(0.977000) can0 122#00001392D2000000
(0.977000) can0 1D8#29D83F0000002039
(0.978000) can0 118#7067950000C894FF
(0.979000) can0 392#0111A467000A0300
(0.980000) can0 400#00E0FBBEEFFB00
(0.980000) can0 225#5555FA00
(0.983000) can0 2E1#0400000000202600
(0.985000) can0 272#0380610000000000
(0.987000) can0 39D#025AE12700
(0.990000) can0 1E5#286C0400000040BE
(0.992000) can0 421#021A0000002000
(0.994000) can0 40A#0910000000005077
(0.996000) can0 132#529017005F40
(0.999000) can0 1D8#29D63F0000006077
(1.002000) can0 788#01000000FFA1C812
(1.003000) can0 1D5#290000000000807F
(1.007000) can0 123#00001392D2000000
(1.009000) can0 1E5#286C04000000007E
(1.011000) can0 266#FC070A2D09009F01
(1.013000) can0 6A1#0000000000
(1.015000) can0 129#B22EEA5F0220FF3F
(1.017000) can0 2B3#08FA0000D9780000
(1.020000) can0 1E5#286C04000000209E
(1.023000) can0 552#000000000000B007
(1.025000) can0 3A1#884C0FCA0014C243
(1.027000) can0 39D#035BE12700
(1.029000) can0 1D8#29D63F000000C0D7
(1.031000) can0 266#FC070A2D09009F01
(1.033000) can0 7D5#3200000000000000
(1.035000) can0 3AE#0D400008000050A6
(1.038000) can0 343#009258CE95000000
(1.039000) can0 257#2C674B390AB82501
(1.040000) can0 253#0064A6C66490B505
(1.043000) can0 3C3#0000000000A50000
(1.045000) can0 207#0000000000000000
(1.045000) can0 241#7574541D1D4500
(1.046000) can0 2E1#026D66021C800000
(1.048000) can0 553#0000000000004098
(1.048000) can0 1FA#1AC001
(1.049000) can0 266#FC070A2D09009F01
(1.050000) can0 3AA#0000000000000000
(1.050000) can0 2C1#0219160000D09201
(1.053000) can0 1D5#290000000000201F
(1.053000) can0 682#0000004004114075
(1.054000) can0 129#9322EB5F0420FF3F
(1.055000) can0 249#CE0F0000
(1.055000) can0 204#010000FF00000010
(1.056000) can0 2E5#000008320000DD00
(1.057000) can0 224#0408004019011008
(1.058000) can0 2B4#3C05700E6C01
(1.058000) can0 257#3D784B390AB82501
(1.059000) can0 2F1#055A2A0143000100
(1.061000) can0 545#E0045890998F89C7
(1.063000) can0 2E1#FB1F9279978B0900
(1.065000) can0 129#2923EB5F0520FF3F
(1.065000) can0 39D#045CE12700
(1.068000) can0 1D8#29D43F0000004055
(1.068000) can0 3F5#0000C838830C0000
(1.069000) can0 118#9960950000C8C4FF
(1.070000) can0 266#FC070A2D09009F01
(1.070000) can0 2C1#531A900000000000
(1.071000) can0 748#2A1F0B0000
(1.072000) can0 3A1#C1FFFF353D00D0C1
(1.075000) can0 3AE#0D400008000060B6
(1.075000) can0 252#C94B417D00FC0F00
(1.076000) can0 2D2#EF2EB44E8813E822
(1.078000) can0 2F2#1201
(1.078000) can0 266#FC070A2D09009F01
(1.079000) can0 7A8#0240C207000F0000
(1.082000) can0 225#5555FA00
(1.082000) can0 1D5#290000000000807F
(1.085000) can0 272#080002D107B00304
(1.085000) can0 3C8#0200000000000000
(1.086000) can0 261#0522CEC99A42F080
(1.087000) can0 283#000000004000
(1.090000) can0 545#01000000001090EB
(1.090000) can0 253#0164A6C66490B505
(1.091000) can0 473#0000030000000000
(1.092000) can0 282#8C3CE20814040324
(1.092000) can0 3C2#0055555500006A05
(1.094000) can0 3C0#0500010000000000
(1.095000) can0 381#5200000000003C03
(1.096000) can0 7AA#320867F7DA052100
(1.098000) can0 1D8#29D23F000000A0B3
(1.098000) can0 257#377A4B390AB02501
(1.103000) can0 788#0240C70700030000
(1.103000) can0 448#20001010000010
(1.104000) can0 129#D827EB5F0420FF3F
(1.105000) can0 123#01000000003F0000
(1.105000) can0 2E5#000008320000DD00
(1.106000) can0 221#610555550107E01B
(1.107000) can0 1D8#29D23F000000C0D3
(1.110000) can0 22B#FFFFFF0F80C3FFFF
(1.110000) can0 2E1#1021040010000004
(1.112000) can0 3A3#14C00000380DFC01
(1.113000) can0 1D5#290000000000E0DF
(1.115000) can0 129#9028EB5F0220FF3F
(1.115000) can0 201#006D6D0000E4FF00
(1.118000) can0 3A2#602573B21C00C26F
(1.118000) can0 261#3140070091491A62
(1.119000) can0 2A8#010100000600D082
(1.120000) can0 339#02F1FE008007800F
(1.120000) can0 279#39B2FC01C4056502
(1.121000) can0 397#03E07F491CFE0700
(1.122000) can0 3A1#884C0FCA0014E263
(1.123000) can0 20C#1FD836141D01000E
(1.126000) can0 129#C529EB5F0220FF3F
(1.126000) can0 422#700010000000
(1.128000) can0 396#091E1E564F550C7D
(1.129000) can0 3AE#0D400008000081D7
(1.129000) can0 266#FC070A2D09009F01
(1.130000) can0 7D5#2C3F3F0000000000
(1.131000) can0 7D5#3200000000000000
(1.134000) can0 234#3320032EB904E0BC
(1.134000) can0 132#51901F007740
(1.135000) can0 318#1A06390D10193FE9
(1.136000) can0 343#0092642E96000000
(1.136000) can0 2B3#0A2E0E0005000002
(1.137000) can0 757#3200000000000000
(1.138000) can0 118#A067950000C8C4FF
(1.139000) can0 439#0000000000185A04
(1.142000) can0 3FD#0000003C20000180
(1.144000) can0 201#0128980000000000
(1.145000) can0 39D#065EE12700
(1.148000) can0 553#00000000000050A8
(1.148000) can0 1FA#1AC001
(1.149000) can0 118#6168950000C884FF
(1.150000) can0 3A2#0110200000000000
(1.150000) can0 2C1#0219160000D09201
(1.153000) can0 1D5#290000000000605F
(1.155000) can0 129#632CEA5FFF1FFF3F
(1.155000) can0 2C4#063EA48CCA481700
(1.156000) can0 2E5#000008320000DD00
(1.157000) can0 2B4#3D05700E7A01
(1.157000) can0 1E5#286C0400000060DE
(1.158000) can0 266#FB070A2D09009F01
(1.160000) can0 2E1#FB1F916997850900
(1.163000) can0 139#00
(1.165000) can0 129#712DEA5FFF1FFF3F
(1.165000) can0 201#0200000000000000
(1.166000) can0 261#9401B04B0040440A
(1.167000) can0 1D8#29D03F0000008091
(1.167000) can0 3F5#0000C838820C0000
(1.168000) can0 287#30322F31E1020000
(1.169000) can0 266#FC070A2D09009F01
(1.172000) can0 2C1#531A900000000000
(1.172000) can0 3A1#C1FFFF493D00F0F5
(1.175000) can0 409#00
(1.175000) can0 212#5904000081FF7731
(1.176000) can0 292#477EF8E492010000
(1.177000) can0 122#00001392D2000000
(1.178000) can0 3B2#3B0B075FE7F6541D
(1.179000) can0 7A8#B8CCB18300008200
(1.180000) can0 7AA#2362F7D50510001C
(1.180000) can0 225#5555FA00
(1.183000) can0 261#0522CEC99A4250E0
(1.183000) can0 272#0380610000000000
(1.184000) can0 129#F22FEA5FFE1FFF3F
(1.185000) can0 372#0E00000C067D0000
(1.185000) can0 2E5#000008320000DD00
(1.186000) can0 55A#0500000000000000
(1.187000) can0 1D8#29D03F000000C0D1
(1.188000) can0 545#010000000010C01B
(1.191000) can0 118#066C950000C82400
(1.191000) can0 3FD#01000A0000080280
(1.194000) can0 2C1#0400000000000000
(1.195000) can0 263#700ED29FA74F5F1F
(1.195000) can0 6A2#0000000000
(1.198000) can0 1D8#29CE3F000000E0EF
(1.198000) can0 43B#007F00FF00000000
(1.199000) can0 103#22B38804A2F02032
(1.202000) can0 788#B8CCB1830000B600
(1.202000) can0 381#15205C6D6D000001
(1.203000) can0 448#20001010000010
(1.204000) can0 129#AD21EA5FFF1FFF3F
(1.204000) can0 289#CA0C068390003D0F
(1.205000) can0 2E5#000008320000DD00
(1.206000) can0 2E1#1021040010000004
(1.207000) can0 1D8#29CE3F000000000F
(1.208000) can0 22B#FFFFFF0F80C3FFFF
(1.209000) can0 266#FC070A2D09009F01
(1.212000) can0 2C1#D0647E00008A0200
(1.212000) can0 1D5#290000000000201F
(1.215000) can0 129#E422EA5FFF1FFF3F
(1.215000) can0 2E5#000008320000DD00
(1.218000) can0 393#080002C107B00304
(1.220000) can0 339#02F1FE008007800F
(1.222000) can0 545#020004000000D020
(1.224000) can0 2E1#398D2AFF0F000000
(1.226000) can0 1F9#0000000000000000
(1.228000) can0 27A#CAB40C01C4056202
(1.230000) can0 23E#00003AC002FF5F9A
(1.232000) can0 7D5#2C3F3F0000000000
(1.235000) can0 234#3220032EB90400DB
(1.236000) can0 318#1A06390D101921CB
(1.236000) can0 757#2C003E0000000000
(1.237000) can0 1D8#29CE3F000000606F
(1.238000) can0 118#DB61950000C80400
(1.239000) can0 257#1E614B390AB02501
(1.239000) can0 441#3E858900320000E7
(1.240000) can0 201#0128980000000000
(1.241000) can0 3C3#0000000000A50000
(1.242000) can0 2E2#E211194959490900
(1.242000) can0 3FD#0200560000000090
(1.244000) can0 1D5#290000000000807F
(1.245000) can0 243#0300008029452600
(1.248000) can0 261#934C0A00004095B4
(1.249000) can0 1FA#1AC001
(1.252000) can0 78A#01000100D05C6C5D
(1.253000) can0 383#A7181E00C780E20B
(1.257000) can0 2B3#0C09496160415300
(1.259000) can0 1E5#286C04000000209E
(1.261000) can0 423#00001000000000
(1.263000) can0 261#9401B04B0040A46A
(1.265000) can0 129#9F27EB5F0120FF3F
(1.267000) can0 39D#F951E12700
(1.269000) can0 3F5#0000C838820C0000
(1.271000) can0 266#FB070A2D09009F01
(1.274000) can0 3A1#C1FFFF473D001013
(1.274000) can0 132#5F9026008440
(1.275000) can0 2E5#000008320000DD00
(1.277000) can0 292#477EF8E492010000
(1.277000) can0 1E5#286C0400000060DE
(1.278000) can0 266#FB070A2D09009F01
(1.279000) can0 400#00E0FBBEEFFB00
(1.282000) can0 225#5555FA00
(1.282000) can0 234#2EE1038043001484
(1.285000) can0 272#080003D107B00304
(1.285000) can0 2E5#000008320000DD00
(1.286000) can0 2E1#65800800E54E316A
(1.287000) can0 545#010000000010F04B
(1.287000) can0 283#000000004000
(1.288000) can0 441#D800B6C358000517
(1.289000) can0 266#FB070A2D09009F01
(1.292000) can0 61D#00C17A1E8B150308
(1.293000) can0 1D5#290000000000201F
(1.294000) can0 129#C22AEB5F0120FF3F
(1.295000) can0 2E8#0101000006001002
(1.295000) can0 2E5#000008320000DD00
(1.298000) can0 1D8#29CC3F000000202D
(1.298000) can0 257#19644B3902B02501
(1.303000) can0 788#01000000FFA1C812
(1.303000) can0 2F9#BCFB071800000000
(1.304000) can0 129#332BEB5F0120FF3F
(1.305000) can0 3D8#65006000
(1.305000) can0 39D#FA52E12700
(1.306000) can0 221#610555550107205B
(1.307000) can0 31A#200100000000B0EE
(1.310000) can0 23E#00003AC002FF7FBA
(1.310000) can0 261#3140CEFF9149DAE8
(1.313000) can0 3A3#10C00000380DFC01
(1.315000) can0 129#532CEB5F0120FF3F
(1.317000) can0 2B3#8D04A094EE716319
(1.319000) can0 419#00
(1.321000) can0 257#22654B3902B82501
(1.323000) can0 395#090F14610A02047D
(1.325000) can0 129#EC2DEB5F0020FF3F
(1.327000) can0 2E5#000008320000DD00
(1.329000) can0 1E5#286C04000000007E
(1.330000) can0 7D5#3200000000000000
(1.331000) can0 119#00000000
(1.334000) can0 234#3020032EB90420F9
(1.334000) can0 2E1#026D66021C7F0000
(1.335000) can0 343#00925CAE95000000
(1.337000) can0 318#1A06390D101923CD
(1.337000) can0 1E5#286C04000000209E
(1.338000) can0 266#FB070A2D09009F01
(1.339000) can0 300#14050000FC2182ED
(1.340000) can0 3F2#059AAF99F0DA9701
(1.340000) can0 284#30000000400800FE
(1.341000) can0 492#2503FF0F280000
(1.342000) can0 3A8#0102000700020100
(1.342000) can0 1D5#290000000000C0BF
(1.345000) can0 39B#0310DF80B00C11DD
(1.345000) can0 39D#FB53E12700
(1.346000) can0 401#002A6D966C966C96
(1.347000) can0 553#00000000000070C8
(1.347000) can0 3A2#0110200000000000
(1.349000) can0 1FA#1AC001
(1.350000) can0 78A#010002005F066206
(1.350000) can0 2E1#FB1F9169978B0900
(1.353000) can0 545#E0045820998B19E3
(1.355000) can0 129#BA20EA5FFF1FFF3F
(1.355000) can0 2C4#6836A02981DBC2A8
(1.356000) can0 2E5#000008320000DD00
(1.357000) can0 2B4#3D05700E7601
(1.357000) can0 1E5#286C0400000060DE
(1.358000) can0 266#FB070A2D09009F01
(1.359000) can0 54F#0000000000000000
(1.360000) can0 682#00000040041170A5
(1.363000) can0 139#00
(1.365000) can0 129#C421EA5F0020FF3F
(1.365000) can0 201#0200000000000000
(1.367000) can0 2E1#0400000000202600
(1.368000) can0 3F5#0000C838820C0000
(1.368000) can0 3F5#0000C838830C0000
(1.369000) can0 118#186E950000C83400
(1.372000) can0 2C1#531A900000000000
(1.372000) can0 3A1#C1FFFF213D00300D
(1.375000) can0 129#E422EA5FFF1FFF3F
(1.375000) can0 409#00
(1.376000) can0 45A#FD07F8FF03000059
(1.377000) can0 1D8#29CA3F000000202B
(1.377000) can0 212#5904000081FF7731
(1.378000) can0 292#477EF8E492010000
(1.379000) can0 2D2#EF2EB44E8813E822
(1.380000) can0 42E#00E0BFFFFEEFBFFF
(1.381000) can0 3A2#72A7FFFF04000000
(1.382000) can0 234#2EE10380430034A4
(1.383000) can0 2E1#65800800E54E316A
(1.383000) can0 272#0380610000000000
(1.384000) can0 132#4E9029008D40
(1.385000) can0 243#00FCCF0C91440D29
(1.386000) can0 3C8#0500000000000000
(1.386000) can0 228#0106184C006001F6
(1.387000) can0 1D8#29CA3F000000404B
(1.388000) can0 23E#00003AC002FF9FDA
(1.389000) can0 3AE#0E40000800002077
(1.389000) can0 39A#1813EB7A0B2FEF7E
(1.390000) can0 301#125C0AD0266F00AE
(1.391000) can0 285#61018E0308002E00
(1.392000) can0 353#FB0F39801A140A16
(1.393000) can0 1D5#290000000000605F
(1.394000) can0 3C0#0800000000000000
(1.395000) can0 132#56902B008F40
(1.395000) can0 2E5#000008320000DD00
(1.398000) can0 1D8#29CA3F000000606B
(1.398000) can0 2E1#1021040010000004
(1.403000) can0 788#0240C60700030000
(1.403000) can0 6E8#0100000000000000
(1.404000) can0 129#FF25EB5F0020FF3F
(1.405000) can0 330#0B00030100000000
(1.405000) can0 2E5#000008320000DD00
(1.406000) can0 7AA#2604704E316FA129
(1.407000) can0 1D8#29CA3F000000808B
(1.409000) can0 2D3#F1006403290F2644
(1.409000) can0 288#0106184C006051A6
(1.410000) can0 2C1#D0647E00008A0200
(1.411000) can0 3A3#16C00000380DFC01
(1.412000) can0 4E2#04BE008C16600100
(1.412000) can0 247#7E0EFF0C00C60100
(1.413000) can0 281#1300FF1F0001
(1.414000) can0 129#C226EC5F0220FF3F
(1.414000) can0 2E1#398D2AFF0F000000
(1.415000) can0 201#006D6D0000E4FF00
(1.418000) can0 345#0B00030303000000
(1.420000) can0 266#FB070A2D09009F01
(1.422000) can0 1D6#020800000A80FA07
(1.424000) can0 261#B2291902805C420A
(1.427000) can0 132#63902A008740
(1.429000) can0 1E5#286C0400000040BE
(1.431000) can0 266#FB070A2D09009F01
(1.434000) can0 7D5#3200000000000000
(1.435000) can0 3E9#00880200000050C6
(1.436000) can0 263#0200A0460D353521
(1.436000) can0 52F#0006545EE2250580
(1.437000) can0 405#1246333638353739
(1.438000) can0 318#1A063A0D101925D0
(1.439000) can0 1D8#29C83F000000E0E9
(1.439000) can0 118#AE65950000C8D4FF
(1.440000) can0 261#934C0A0000405574
(1.441000) can0 201#0128980000000000
(1.442000) can0 3C3#0000000000A50000
(1.444000) can0 3FD#0000003C20000180
(1.446000) can0 207#0000000000000000
(1.447000) can0 1D8#29C83F0000000009
(1.447000) can0 1E5#286C04000000007E
(1.448000) can0 719#EE75620053630014
(1.449000) can0 118#BF66950000C8E4FF
(1.452000) can0 78A#01000300AE048902
(1.452000) can0 1D5#290000000000201F
(1.453000) can0 682#00000040041180B5
(1.454000) can0 129#A52AEE5F0620FF3F
(1.454000) can0 261#9401B84B00406432
(1.455000) can0 2C4#49D9052FA994A58B
(1.456000) can0 264#3E000000A000
(1.457000) can0 224#0408004019011008
(1.458000) can0 1E5#286C04000000209E
(1.459000) can0 25B#D38000056A8610B3
(1.460000) can0 54F#0000000000000000
(1.463000) can0 139#00
(1.465000) can0 129#542BEE5F0620FF3F
(1.465000) can0 39D#FE56E12700
(1.468000) can0 287#30322F31E1020000
(1.468000) can0 3F5#0000C838830C0000
(1.469000) can0 118#C168950000C8E4FF
(1.472000) can0 261#0522CEC99A427000
(1.472000) can0 3A1#C1FFFF153D005021
(1.475000) can0 129#342CEE5F0620FF3F
(1.475000) can0 252#CA4B417D00FC0F00
(1.476000) can0 2E5#000008320000DD00
(1.478000) can0 122#01000000003F0000
(1.478000) can0 266#FB070A2D09009F01
(1.479000) can0 392#000B000000000000
(1.480000) can0 400#00E0FBBEEFFB00
(1.481000) can0 7A8#B8CCB18300008200
(1.483000) can0 234#2EE10380430054C4
(1.483000) can0 272#080002D107B00304
(1.484000) can0 129#262DEE5F0620FF3F
(1.485000) can0 243#00FCCF0C91440D29
(1.485000) can0 3C8#0600000000000000
(1.486000) can0 261#00100600FF4F80DA
(1.487000) can0 1D8#29C83F0000008089
(1.490000) can0 441#D900B6C358001528
(1.490000) can0 293#020C559055146F60
(1.492000) can0 282#943CF20818040324
(1.493000) can0 285#034A7D5277000000
(1.493000) can0 443#790EFF030000
(1.494000) can0 3FD#01000A0000080280
(1.497000) can0 129#552EED5F0020FF3F
(1.498000) can0 1F8#1A000000
(1.498000) can0 257#236E4B3902B02501
(1.503000) can0 788#B8D4B1830000B600
(1.504000) can0 21D#0400B50000000000
(1.508000) can0 401#082A71966C966B96
(1.510000) can0 23E#00003AC002FFCF0A
(1.512000) can0 2E1#398D2AFF0F000000
(1.514000) can0 1D5#290000000000E0DF
(1.516000) can0 22A#00002917
(1.519000) can0 419#00
(1.522000) can0 126#10403834E3
(1.523000) can0 1D5#29000000000000FF
(1.525000) can0 129#5621ED5F0020FF3F
(1.525000) can0 186#63070002009D1125
(1.526000) can0 27A#BCB7FC00C4056202
(1.527000) can0 381#032C3D00C0200400
(1.527000) can0 1E5#286C04000000007E
(1.528000) can0 45A#A4C0BFC05F2C4837
(1.529000) can0 4E3#00AC010000002800
(1.530000) can0 7D5#2C3F3F0000000000
(1.530000) can0 7D7#3212000000000000
(1.531000) can0 119#00000000
(1.534000) can0 234#3220032EB5046037
(1.534000) can0 261#934C0A000040B5D4
(1.536000) can0 340#0200000000000000
(1.537000) can0 458#00002000000000
(1.537000) can0 1D8#29C63F0000002027
(1.538000) can0 266#FB070A2D09009F01
(1.539000) can0 439#0000000000185A04
(1.540000) can0 253#0064A6C66490B505
(1.540000) can0 082#017FFF29B8013D09
(1.543000) can0 3A8#2A80E9F51F00FFBF
(1.545000) can0 3FD#0200560000000090
(1.546000) can0 129#0823ED5F0020FF3F
(1.547000) can0 1E5#286C0400000040BE
(1.548000) can0 23E#00003AC002FFDF1A
(1.549000) can0 118#EA60950000C81400
(1.552000) can0 3AA#0100000000000000
(1.553000) can0 1D5#290000000000605F
(1.554000) can0 129#8E24ED5F0020FF3F
(1.555000) can0 379#0600AF6A800D0000
(1.555000) can0 2B3#0071807E6C7D697B
(1.556000) can0 264#3D000000A000
(1.557000) can0 224#0408004019011008
(1.557000) can0 2B4#3B05700E7701
(1.558000) can0 266#FA070A2D09009F01
(1.559000) can0 2E1#0400000000202600
(1.560000) can0 54F#0000000000000000
(1.563000) can0 139#00
(1.565000) can0 129#9925ED5F0020FF3F
(1.565000) can0 201#0200000000000000
(1.566000) can0 287#30322F31E1020000
(1.568000) can0 1D8#29C63F0000008087
(1.568000) can0 22B#FFFFFF0F00C0FFFF
(1.569000) can0 102#22B3480494FAA009
(1.572000) can0 2C1#531A900000000000
(1.572000) can0 3A1#C1FFFF2B3D007057
(1.575000) can0 3AE#11400008000091EB
(1.575000) can0 2E5#000008320000DD00
(1.576000) can0 292#477EF8E492010600
(1.577000) can0 359#080400008F74393F
(1.577000) can0 45A#FD07F8FF03000059
(1.578000) can0 266#FB070A2D09009F01
(1.579000) can0 3A2#62A7FFFF04000000
(1.582000) can0 225#5555FA00
(1.582000) can0 261#00100600FF4FE03A
(1.584000) can0 545#01000000001080DB
(1.584000) can0 372#0400000000009011
(1.585000) can0 2E5#000008320000DD00
(1.588000) can0 228#0106184C00602116
(1.588000) can0 441#D900B6C358001D30
(1.589000) can0 266#FB070A2D09009F01
(1.590000) can0 473#0000030000000000
(1.590000) can0 724#090000
(1.591000) can0 2C1#0400000000000000
(1.592000) can0 40A#09100000000080A7
(1.593000) can0 3C0#0A00000000000000
(1.593000) can0 718#02000000000000
(1.594000) can0 132#62902E009640
(1.595000) can0 263#700ED29FA74F5F1F
(1.596000) can0 6A2#0000000000
(1.597000) can0 1E5#286C0400000060DE
(1.598000) can0 1F8#1A000000
(1.599000) can0 261#3140F1FF9149FA2B
(1.603000) can0 788#01000000FFA1C812
(1.603000) can0 2F9#BCFB07030D1A8B84
(1.604000) can0 129#C929EF5F0320FF3F
(1.605000) can0 123#00001392D2000000
(1.605000) can0 2E5#000008320000DD00
(1.606000) can0 2E1#398D2AFF0F000000
(1.607000) can0 1D8#29C43F0000000005
(1.610000) can0 118#9F66950000C8C4FF
(1.610000) can0 2C1#D0647E00008A0200
(1.611000) can0 6A1#0000000000
(1.612000) can0 4E2#0600000000000000
(1.613000) can0 1D5#290000000000201F
(1.614000) can0 129#802AF15F0620FF3F
(1.615000) can0 263#89E6D1AFB74F5F1F
(1.615000) can0 2B3#018D817D79817F74
(1.616000) can0 545#02000400000090E0
(1.617000) can0 1E5#286C04000000209E
(1.619000) can0 2A8#01010000060020D2
(1.621000) can0 108#1F27FE13FFA91125
(1.623000) can0 397#03E07F491CFE0700
(1.625000) can0 3AE#144000080000C01D
(1.627000) can0 39D#025AE12700
(1.629000) can0 1E5#286C0400000040BE
(1.631000) can0 266#FB070A2D09009F01
(1.633000) can0 119#00000000
(1.634000) can0 420#2801404B00008003
(1.635000) can0 458#00002000000000
(1.636000) can0 7FF#0500000120008000
(1.637000) can0 376#015A5A0060000000
(1.637000) can0 376#FBFFFBFFFB0F9005
(1.638000) can0 266#FA070A2D09009F01
(1.639000) can0 2E1#FB1F927997810900
(1.640000) can0 3BC#00007474
(1.640000) can0 3FD#0000003C20000180
(1.642000) can0 439#0000000000185A04
(1.643000) can0 2E2#0000006B020B0000
(1.644000) can0 3C2#2955000000000000
(1.645000) can0 757#3200000000000000
(1.645000) can0 757#485D5F000040175D
(1.648000) can0 372#05493B1500000000
(1.650000) can0 553#000000000000A0F8
(1.652000) can0 2C1#0219160000D09201
(1.654000) can0 1D5#290000000000A09F
(1.656000) can0 132#639031009B40
(1.658000) can0 2E5#000008320000DD00
(1.660000) can0 118#A46B950000C8C4FF
(1.662000) can0 139#00
(1.664000) can0 261#0522CEC99A4230C0
(1.665000) can0 243#04FC63F16D7CFFFF
(1.666000) can0 2E5#000008320000DD00
(1.667000) can0 1D8#29C43F000000C0C5
(1.667000) can0 3F5#0000C838820C0000
(1.668000) can0 3F5#0000C838830C0000
(1.669000) can0 118#A56C950000C8C4FF
(1.672000) can0 102#22B3480494FAA009
(1.674000) can0 3A1#C1FFFF193D009065
(1.676000) can0 752#0200000000000000
(1.678000) can0 2D2#EF2EB44E8813E822
(1.680000) can0 257#1C674B3902B02501
(1.682000) can0 225#5555FA00
(1.684000) can0 234#2EE1038043009404
(1.687000) can0 132#639030009140
(1.688000) can0 441#D900B6C358002538
(1.689000) can0 118#C76E950000C8E4FF
(1.689000) can0 421#021A0000002000
(1.690000) can0 2C1#0400000000000000
(1.691000) can0 282#943CF20814040324
(1.692000) can0 33A#82D443A3FDFF3761
(1.693000) can0 3FD#01000A0000080280
(1.695000) can0 3C2#0055555500006A05
(1.696000) can0 6A2#0000000000
(1.699000) can0 1D8#29C43F0000002025
(1.703000) can0 524#86730302201001
(1.703000) can0 448#20001010000010
(1.704000) can0 75D#0300800000000000
(1.705000) can0 249#3A0C0000
(1.705000) can0 243#01FC374835005B5B
(1.706000) can0 372#06BFDB1FDBFB9E05
(1.707000) can0 221#610555550107A0DB
(1.708000) can0 1E5#286C0400000040BE
(1.708000) can0 23E#00003AC002FF1F5A
(1.711000) can0 288#0106184C006081D6
(1.712000) can0 3F9#0100000000000000
(1.713000) can0 247#7E0EFF0C00C60100
(1.716000) can0 129#AC24FB5F1520FF3F
(1.718000) can0 393#0380610000000000
(1.718000) can0 257#1E694B3902B02501
(1.719000) can0 108#2B28FE13FFB41125
(1.720000) can0 128#0000EC0A02
(1.720000) can0 268#120AA101FF
(1.721000) can0 397#03E07F491CFE0700
(1.724000) can0 1D5#290000000000807F
(1.724000) can0 1F9#0000000000000000
(1.725000) can0 2E5#000008320000DD00
(1.726000) can0 195#000000000A002706
(1.726000) can0 261#934C0A0000407594
(1.728000) can0 1E5#286C04000000007E
(1.729000) can0 118#DC62950000C80400
(1.730000) can0 7D5#2BE3100200000000
(1.730000) can0 7D5#3200000000000000
(1.731000) can0 7D7#3212000000000000
(1.732000) can0 315#6B2BD0264000A005
(1.732000) can0 1D5#290000000000A09F
(1.733000) can0 7D5#439AA787863F0000
(1.734000) can0 420#2801404B00000004
(1.735000) can0 132#6D902E009540
(1.735000) can0 458#00002000000000
(1.736000) can0 7FF#06003200000000C0
(1.737000) can0 343#00925C0E96000000
(1.738000) can0 335#0D0000007CB4F866
(1.739000) can0 3A7#0000000000000000
(1.740000) can0 3E5#0000000000000000
(1.741000) can0 367#0000000000000000
(1.741000) can0 3FD#0200560000000090
(1.743000) can0 201#0128980000000000
(1.744000) can0 1D5#290000000000C0BF
(1.745000) can0 381#0900000000000000
(1.746000) can0 3A2#0110200000000000
(1.746000) can0 132#5C902D008E40
(1.747000) can0 243#0300008029452600
(1.748000) can0 1D8#29C43F000000C0C5
(1.749000) can0 553#000000000000B008
(1.749000) can0 1FA#1AC001
(1.750000) can0 78A#0100060003000000
(1.752000) can0 2E1#0400000000202600
(1.752000) can0 1D5#290000000000E0DF
(1.753000) can0 682#000000400411B0E5
(1.757000) can0 132#659030009E40
(1.760000) can0 211#BB17710F1001
(1.762000) can0 717#01CBFF3C002500
(1.764000) can0 1D5#29000000000000FF
(1.766000) can0 372#0700000000000000
(1.768000) can0 2E1#65800800E64E316A
(1.770000) can0 37A#B00D000000000000
(1.772000) can0 2C1#531A900000000000
(1.774000) can0 3A1#C1FFFF1F3D00B08B
(1.776000) can0 261#00100600FF4FA0FA
(1.778000) can0 2F2#1201
(1.779000) can0 45A#FD07F8FF03000059
(1.781000) can0 400#00E0FBBEEFFB00
(1.781000) can0 545#010000000010E03B
(1.782000) can0 2E1#1021040010000004
(1.783000) can0 234#2EE103804300B424
(1.784000) can0 3AE#1D40000800003197
(1.784000) can0 132#6B9030009740
(1.785000) can0 2E5#000008320000DD00
(1.786000) can0 344#0000000000000047
(1.786000) can0 228#0106184C00604136
(1.787000) can0 283#000000004000
(1.788000) can0 3A0#0000000000000000
(1.789000) can0 380#0000000000000000
(1.789000) can0 266#FA070A2D09009F01
(1.790000) can0 321#BC16AB7B027B10A9
(1.792000) can0 238#9831F63C1E0052A5
(1.792000) can0 40A#09100000000090B7
(1.793000) can0 1D5#290000000000605F
(1.794000) can0 2AA#57C0C3
(1.795000) can0 2E8#0101000006006052
(1.795000) can0 2E5#000008320000DD00
(1.798000) can0 1D8#29C43F0000006065
(1.798000) can0 257#226D4B3902B02501
(1.799000) can0 399#000000
(1.802000) can0 788#B8D4B1830000B600
(1.802000) can0 1D5#290000000000807F
(1.803000) can0 2F9#BCFB07100D1A8B84
(1.804000) can0 129#362D05601620FF3F
(1.804000) can0 289#CA0C060399003D0F
(1.806000) can0 243#01FC374836005B5B
(1.807000) can0 1D8#29C43F0000008085
(1.810000) can0 118#A36A950000C8C4FF
(1.810000) can0 2C1#D0647E00008A0200
(1.811000) can0 3A3#14C00000380DFC01
(1.814000) can0 281#1200FF1F0001
(1.814000) can0 2E1#026D66021C7E0000
(1.815000) can0 263#89E6D1AFB74F5F1F
(1.816000) can0 545#020003000000F03F
(1.819000) can0 1D8#29C23F000000A0A3
(1.821000) can0 126#1140384CFC
(1.823000) can0 407#1106000000000000
(1.825000) can0 129#442F08601820FF3F
(1.827000) can0 39D#075FE12700
(1.829000) can0 1D8#29C23F000000C0C3
(1.832000) can0 266#FA070A2D09009F01
(1.834000) can0 1D5#290000000000E0DF
(1.835000) can0 318#1A063A0D10192DD8
(1.836000) can0 343#00925C8E95000000
(1.836000) can0 2E5#000008320000DD00
(1.837000) can0 1D8#29C23F000000E0E3
(1.838000) can0 266#FA070A2D09009F01
(1.839000) can0 439#0000000000185A04
(1.841000) can0 453#00000000
(1.841000) can0 39B#0310DF80B00C21ED
(1.842000) can0 2E2#01000025020B0000
(1.843000) can0 3A2#0110200000000000
(1.846000) can0 129#EF2109601920FF3F
(1.846000) can0 2E1#0400000000202600
(1.848000) can0 1D8#29C23F0000000003
(1.849000) can0 118#C76E950000C8E4FF
(1.851000) can0 78A#010000001C13090D
(1.853000) can0 1D5#290000000000201F
(1.855000) can0 682#000000400411C0F5
(1.855000) can0 2B3#05000000E7808100
(1.856000) can0 264#3F000000A000
(1.857000) can0 224#0408004019011008
(1.857000) can0 1E5#286C04000000209E
(1.858000) can0 266#FA070A2D09009F01
(1.859000) can0 25B#D38000056A8650F3
(1.860000) can0 423#00001000000000
(1.863000) can0 139#00
(1.865000) can0 129#4B230A601620FF3F
(1.866000) can0 39D#F850E12700
(1.867000) can0 1D8#29C23F0000004043
(1.870000) can0 23E#00003AC002FF5F9A
(1.870000) can0 261#00100600FF4F005A
(1.871000) can0 677#0100000000000000
(1.874000) can0 3A1#C1FFFF3D3D00D0C9
(1.876000) can0 263#04000000901C0000
(1.876000) can0 2D2#EF2EB44E8813E822
(1.877000) can0 1D8#29C23F0000006063
(1.878000) can0 118#4B61950000C87400
(1.878000) can0 2E1#1021040010000004
(1.879000) can0 712#0400000000000000
(1.880000) can0 545#010000000010106B
(1.881000) can0 225#5555FA00
(1.882000) can0 234#2EE103804300D444
(1.885000) can0 272#080003D107B00304
(1.885000) can0 2E5#000008320000DD00
(1.886000) can0 261#31400C0099491A6F
(1.887000) can0 381#0D00000000000000
(1.887000) can0 283#000000004000
(1.888000) can0 441#D800B6C358003547
(1.889000) can0 266#FA070A2D09009F01
(1.890000) can0 285#61018E0308002E00
(1.890000) can0 201#0300000000000000
(1.891000) can0 2BF#00000000000001
(1.892000) can0 3E2#040000510FCF00
(1.893000) can0 3C0#0200000000000000
(1.893000) can0 2AA#57D0D3
(1.894000) can0 132#69903200A040
(1.896000) can0 263#700ED29FA74F5F1F
(1.898000) can0 1D8#29C23F000000A0A3
(1.898000) can0 257#17624B3902B02501
(1.903000) can0 788#01000000FFA1C812
(1.903000) can0 448#20001010000010
(1.904000) can0 129#75270760FD1FFF3F
(1.905000) can0 401#1C2A6A966C966F96
(1.905000) can0 243#01FC374836005B5B
(1.906000) can0 221#610555550107E01B
(1.907000) can0 31A#200100000000E01E
(1.910000) can0 23E#00003AC002FF6FAA
(1.910000) can0 2E1#026D66021C7E0000
(1.911000) can0 3A3#16C00000380DFC01
(1.912000) can0 4E2#025D040000002800
(1.913000) can0 1D5#290000000000E0DF
(1.914000) can0 129#BC280660F91FFF3F
(1.915000) can0 263#89E6D1AFB74F5F1F
(1.916000) can0 2E5#000008320000DD00
(1.918000) can0 1D8#29C23F000000E0E3
(1.918000) can0 257#18634B3902B02501
(1.919000) can0 20E#130300
(1.920000) can0 128#0000EC0A02
(1.920000) can0 552#0000000000004097
(1.921000) can0 395#090F11610902037D
(1.924000) can0 381#0E00000000E0FF00
(1.924000) can0 1F9#0000000000000000
(1.925000) can0 2E5#000008320000DD00
(1.926000) can0 1A5#00101F582D
(1.927000) can0 2E1#FB1F927997840900
(1.928000) can0 45A#A4C0BFC05F2C4837
(1.929000) can0 118#BF66950000C8E4FF
(1.929000) can0 3E9#00880200000060D6
(1.930000) can0 2C1#216B186402000000
(1.931000) can0 119#00000000
(1.934000) can0 234#3320032EB904E0BC
(1.934000) can0 132#719033009540
(1.935000) can0 414#1133535459323530
(1.936000) can0 263#0200A0460D353521
(1.936000) can0 318#1A063A0D10192FDA
(1.937000) can0 757#2C003E0000000000
(1.938000) can0 7FF#0800000100000000
(1.939000) can0 118#8067950000C8A4FF
(1.940000) can0 439#0000000000185A04
(1.941000) can0 355#800C00FF940000
(1.942000) can0 3A2#0110200000000000
(1.942000) can0 1D5#290000000000403F
(1.943000) can0 708#2A1F0A0000
(1.944000) can0 129#3E2BFE5FE91FFF3F
(1.945000) can0 372#0A185006010000AA
(1.945000) can0 39D#FA52E12700
(1.946000) can0 545#E0045810998739EF
(1.947000) can0 1D8#29C23F0000004043
(1.948000) can0 3DB#0400001705000000
(1.948000) can0 719#0100040000000000
(1.949000) can0 118#7168950000C894FF
(1.952000) can0 78A#01000100C45C905D
(1.953000) can0 310#0B00040204001100
(1.954000) can0 682#000000400411D005
(1.955000) can0 379#0A0000000A000C03
(1.955000) can0 2C4#12BB006D0E488502
(1.956000) can0 2E5#000008320000DD00
(1.957000) can0 2B4#3F05720E7A01
(1.957000) can0 1E5#286C0400000060DE
(1.958000) can0 266#FA070A2D09009F01
(1.959000) can0 2F1#AE004021CC012804
(1.960000) can0 3A4#0000000000000000
(1.963000) can0 139#00
(1.963000) can0 3AE#184000080000B112
(1.964000) can0 129#052DF95FDF1FFF3F
(1.965000) can0 287#30322F31E1020000
(1.965000) can0 201#0200000000000000
(1.967000) can0 261#00100600FF4F60BA
(1.968000) can0 3F5#0000C838830C0000
(1.968000) can0 37A#C20D000000000000
(1.969000) can0 102#22B3480494FAA009
(1.972000) can0 2C1#531A900000000000
(1.972000) can0 1D5#290000000000A09F
(1.975000) can0 22B#FFFFFF0F00C0FFFF
(1.975000) can0 2B3#07C1729F00000000
(1.976000) can0 252#CA4B417D00FC0F00
(1.977000) can0 122#00001392D2000000
(1.977000) can0 312#DD214817408D0C00
(1.978000) can0 266#FA070A2D09009F01
(1.979000) can0 392#0111A467000A0300
(1.980000) can0 545#010000000010409B
(1.983000) can0 225#5555FA00
(1.985000) can0 272#0380610000000000
(1.987000) can0 39D#FB53E12700
(1.989000) can0 283#000000004000
(1.991000) can0 421#021A0000002000
(1.993000) can0 282#943CF20814040324
(1.995000) can0 443#7A0FFF030000
(1.998000) can0 263#700ED29FA74F5F1F
(1.999000) can0 3AE#134000080000D02C
(2.002000) can0 788#0240C70700030000
(2.002000) can0 1D5#29000000000000FF
(2.003000) can0 2F9#BCFB072000000000
(2.009000) can0 129#0921F25FD51FFF3F
(2.013000) can0 288#0106184C0060B106
(2.016000) can0 247#7F0EFF0D00C40100
(2.018000) can0 419#00
(2.020000) can0 2A8#0101000006006012
(2.022000) can0 279#42BBFC01C4056502
(2.024000) can0 1D5#290000000000403F
(2.026000) can0 132#6C9032009A40
(2.029000) can0 27A#C1BCFC00C4056202
(2.030000) can0 4E3#D5028201001C0000
(2.030000) can0 261#9401B84B0040A472
(2.031000) can0 677#0000000000000000
(2.032000) can0 7D7#3212000000000000
(2.032000) can0 2C2#5523AA0680C112AA
(2.033000) can0 420#2801404B00008005
(2.034000) can0 129#E124F15FE01FFF3F
(2.037000) can0 318#1A063A0D101931DC
(2.039000) can0 1E5#286C0400000060DE
(2.041000) can0 207#0000000000000000
(2.043000) can0 2E2#F211295949490900
(2.045000) can0 129#4525F05FE51FFF3F
(2.047000) can0 241#7474141D1D4500
(2.049000) can0 1E5#286C04000000007E
(2.051000) can0 3AA#0000000000000000
(2.053000) can0 1D5#290000000000A09F
(2.054000) can0 129#5526F15F0020FF3F
(2.055000) can0 2E1#65800800E64E316A
(2.055000) can0 2C4#13A500630E353502
(2.056000) can0 2E5#000008320000DD00
(2.057000) can0 2B4#3D05710E7B01
(2.058000) can0 211#BE1A710F1001
(2.059000) can0 54F#0000000000000000
(2.062000) can0 139#00
(2.062000) can0 1D5#290000000000C0BF
(2.063000) can0 3E8#0400000000000000
(2.064000) can0 287#30322F31E1020000
(2.064000) can0 3AE#104000080000F049
(2.065000) can0 39D#FD55E12700
(2.066000) can0 201#0200000000000000
(2.067000) can0 1D8#29C03F000000C0C1
(2.067000) can0 3F5#0000C838820C0000
(2.068000) can0 23E#00003AC002FFAFEA
(2.069000) can0 118#6D64950000C894FF
(2.070000) can0 102#22B3480494FAA009
(2.070000) can0 2E1#1021040010000004
(2.072000) can0 677#0100000000000000
(2.073000) can0 3A1#C1FFFF213D0010ED
(2.073000) can0 3A2#62A7FFFF04000000
(2.074000) can0 132#66903200A140
(2.075000) can0 263#04000000901C0000
(2.076000) can0 212#5904050081FF7731
(2.076000) can0 2D2#EF2EB44E8813E822
(2.077000) can0 1D8#29C03F000000E0E1
(2.078000) can0 118#1E65950000C844FF
(2.078000) can0 261#31401F008D49DA36
(2.079000) can0 45A#FD07F8FF03000059
(2.082000) can0 225#5555FA00
(2.082000) can0 1D5#29000000000000FF
(2.085000) can0 272#080002D907B00304
(2.086000) can0 3C8#0500000000000000
(2.087000) can0 1D8#29C03F0000000001
(2.090000) can0 441#D900B6C358000518
(2.090000) can0 324#FD389CD09E010000
(2.091000) can0 201#0300000000000000
(2.092000) can0 2C1#0400000000000000
(2.092000) can0 1D5#290000000000201F
(2.093000) can0 2AA#57F0F3
(2.094000) can0 129#B22AF15F0120FF3F
(2.095000) can0 2E8#0101000006009082
(2.095000) can0 2E5#000008320000DD00
(2.098000) can0 1D8#29C03F0000002021
(2.098000) can0 266#FA070A2D09009F01
(2.099000) can0 103#22B38804A2F02032
(2.103000) can0 788#B8D4B1830000B600
(2.103000) can0 25D#3741012A04F08803
(2.104000) can0 448#20001010000010
(2.105000) can0 249#D3040000
(2.105000) can0 243#01FC374836005B5B
(2.106000) can0 221#610555550107205B
(2.107000) can0 1D8#29C03F0000004041
(2.110000) can0 23E#00003AC002FFBFFA
(2.110000) can0 261#934C0A000040F514
(2.111000) can0 3A3#16C00000380DFC01
(2.112000) can0 4E2#04BE008C16600100
(2.112000) can0 281#1200FF1F0001
(2.113000) can0 247#7F0EFF0C00C60100
(2.114000) can0 129#232CF15F0120FF3F
(2.116000) can0 22A#00002917
(2.116000) can0 419#00
(2.117000) can0 1E5#286C0400000060DE
(2.118000) can0 266#FA070A2D09009F01
(2.118000) can0 20E#150500
(2.119000) can0 126#1140386414
(2.120000) can0 1D6#020800000A80FA07
(2.121000) can0 279#43BCFC01C4056502
(2.123000) can0 1D5#290000000000807F
(2.123000) can0 22B#FFFFFF0F00C0FFFF
(2.124000) can0 129#312DF15F0120FF3F
(2.125000) can0 243#02FCB30D05D90000
(2.125000) can0 186#6D0D000200A11125
(2.126000) can0 27A#C2BDFC00C4056202
(2.127000) can0 1D8#29C03F0000008081
(2.129000) can0 428#20001010000010
(2.129000) can0 266#FA070A2D09009F01
(2.130000) can0 7D5#3200000000000000
(2.133000) can0 119#00000000
(2.135000) can0 420#2801404B00000006
(2.135000) can0 340#0800000000000000
(2.136000) can0 2E5#000008320000DD00
(2.137000) can0 757#2C003E0000000000
(2.137000) can0 1E5#286C04000000209E
(2.138000) can0 257#2B6E4B390AB02501
(2.139000) can0 207#0000000000000000
(2.140000) can0 333#0410590700
(2.140000) can0 3FD#0000003C20000180
(2.142000) can0 201#0128980000000000
(2.144000) can0 129#1F2FF15F0120FF3F
(2.145000) can0 545#E0045810998A9952
(2.145000) can0 39D#FF57E12700
(2.148000) can0 1D8#29C03F000000C0C1
(2.148000) can0 23E#00003AC002FFCF0A
(2.149000) can0 118#856C950000C8A4FF
(2.150000) can0 78A#01000300AE048902
(2.150000) can0 2C1#0219160000D09201
(2.153000) can0 1D5#290000000000E0DF
(2.155000) can0 129#5720F15F0020FF3F
(2.155000) can0 2B3#0A2E2E0005000002
(2.156000) can0 264#3C000000A000
(2.157000) can0 224#0408004019011008
(2.157000) can0 2B4#4005710E7301
(2.158000) can0 118#A66D950000C8C4FF
(2.160000) can0 257#2C6F4B390AB02501
(2.163000) can0 139#00
(2.163000) can0 287#30322F31E1020000
(2.164000) can0 129#B421F05F0020FF3F
(2.165000) can0 2C3#555BA9B682C112AA
(2.165000) can0 201#0200000000000000
(2.166000) can0 2E1#1021040010000004
(2.167000) can0 1D8#29C03F0000000001
(2.168000) can0 3F5#0000C838830C0000
(2.168000) can0 37A#B00D000000000000
(2.171000) can0 102#22B3480494FAA009
(2.173000) can0 1D5#290000000000201F
(2.173000) can0 22B#FFFFFF0F00C0FFFF
(2.174000) can0 129#FD22F05F0020FF3F
(2.176000) can0 45B#0000
(2.176000) can0 2E5#000008320000DD00
(2.177000) can0 1D8#29C03F0000002021
(2.178000) can0 118#D86F950000C8F4FF
(2.178000) can0 45A#FD07F8FF03000059
(2.179000) can0 7A8#01000000FFA1B812
(2.180000) can0 7AA#234FF7C40513001C
(2.181000) can0 225#5555FA00
(2.183000) can0 234#2EE10380430034A4
(2.183000) can0 272#0380610000000000
(2.184000) can0 129#8323F05FFF1FFF3F
(2.185000) can0 372#0E00000C067D0000
(2.185000) can0 2E5#000008320000DD00
(2.186000) can0 55A#0500000000000000
(2.188000) can0 1D8#29C03F0000004041
(2.189000) can0 118#F960950000C824FF
(2.189000) can0 421#021A0000002000
(2.190000) can0 2F3#07070B0400600002
(2.191000) can0 3FD#01000A0000080280
(2.193000) can0 261#B2291902805C420A
(2.193000) can0 677#0400000000000000
(2.194000) can0 129#8D24EF5FFE1FFF3F
(2.195000) can0 263#700ED29FA74F5F1F
(2.196000) can0 6A2#0000000000
(2.198000) can0 1D8#29C03F0000006061
(2.198000) can0 34A#0207000000000090
(2.199000) can0 103#22B38804A2F02032
(2.200000) can0 3AE#0F40000800003088
(2.201000) can0 788#01000000FFA1C812
(2.202000) can0 21D#0400B50000000000
(2.203000) can0 41D#00
(2.203000) can0 3AE#0E40000800004097
(2.204000) can0 132#7B9035009E40
(2.205000) can0 123#00001392D2000000
(2.206000) can0 3A2#60E5F2B21C00C26F
(2.206000) can0 221#610555550107407B
(2.207000) can0 1E5#286C04000000007E
(2.210000) can0 118#FC62950000C82400
(2.210000) can0 2C1#D0647E00008A0200
(2.211000) can0 3A3#16C00000380DFC01
(2.212000) can0 6A1#0000000000
(2.212000) can0 281#1200FF1F0001
(2.215000) can0 247#7E0EFF0C00C40100
(2.216000) can0 2B3#0B43FEFEFF01A014
(2.217000) can0 1D8#29BE3F000000A09F
(2.218000) can0 118#3C63950000C864FF
(2.218000) can0 257#07524B390AA82501
(2.219000) can0 108#FE0DFE03FFB21125
(2.220000) can0 1D6#020800000A80FA07
(2.221000) can0 2B6#000300
(2.223000) can0 1D5#290000000000C0BF
(2.225000) can0 22B#FFFFFF0F00C0FFFF
(2.227000) can0 39D#0159E12700
(2.229000) can0 428#20001010000010
(2.231000) can0 266#FA070A2D09009F01
(2.233000) can0 7D5#3200000000000000
(2.235000) can0 420#2801404B00008006
(2.239000) can0 263#0200A0460D353521
(2.242000) can0 3FD#0200560000000090
(2.243000) can0 201#0128980000000000
(2.244000) can0 132#6C903600A240
(2.245000) can0 243#0300008029452600
(2.248000) can0 2E1#65800800E64E316A
(2.248000) can0 1FA#1AC001
(2.249000) can0 266#FA070A2D09009F01
(2.252000) can0 78A#01000400CC06A100
(2.252000) can0 1D5#290000000000201F
(2.253000) can0 682#0000004004110035
(2.259000) can0 129#272AED5FFA1FFF3F
(2.263000) can0 7AA#04000FC000260000
(2.265000) can0 287#30322F31E1020000
(2.268000) can0 39D#025AE12700
(2.270000) can0 23E#00003AC002FFFF3A
(2.272000) can0 261#3140F2FF93499ACE
(2.274000) can0 1D5#290000000000605F
(2.276000) can0 263#04000000901C0000
(2.279000) can0 2D2#EF2EB44E8813E822
(2.280000) can0 6C8#247C00F412200C00
(2.280000) can0 3AE#0C400008000070C5
(2.283000) can0 1D5#290000000000807F
(2.283000) can0 272#080003E107B00304
(2.284000) can0 129#092DED5FFB1FFF3F
(2.285000) can0 243#00FCCF0C91440D29
(2.285000) can0 3C8#0000000000000000
(2.286000) can0 261#B2291902805CA26A
(2.288000) can0 1E5#286C04000000007E
(2.289000) can0 22B#FFFFFF1F00C0FFFF
(2.289000) can0 421#021A0000002000
(2.290000) can0 61D#00C17A1E8B150308
(2.291000) can0 2C1#0400000000000000
(2.291000) can0 2BF#00000000000001
(2.292000) can0 1D5#290000000000A09F
(2.293000) can0 3C0#0600000000000000
(2.294000) can0 129#E42EED5FFC1FFF3F
(2.294000) can0 2E1#026D66021C7F0000
(2.295000) can0 263#700ED29FA74F5F1F
(2.296000) can0 3D8#65006000
(2.297000) can0 1D8#29BE3F000000A09F
(2.297000) can0 719#150003AD00000000
(2.298000) can0 266#FA070A2D09009F01
(2.300000) can0 103#22B38804A2F02032
(2.302000) can0 788#0240C60700030000
(2.302000) can0 1D5#290000000000C0BF
(2.303000) can0 25D#3741012A04F08803
(2.304000) can0 129#B82FED5FFD1FFF3F
(2.304000) can0 289#CA0C06438C003D0F
(2.305000) can0 39D#035BE12700
(2.306000) can0 221#610555550107609B
(2.307000) can0 1D8#29BE3F000000C0BF
(2.307000) can0 31A#200100000000003E
(2.308000) can0 23E#00003AC002FF0F4A
(2.309000) can0 118#656C950000C884FF
(2.310000) can0 545#020002000000E02E
(2.310000) can0 2C1#D0647E00008A0200
(2.313000) can0 677#0200000000000000
(2.315000) can0 247#7F0EFF0C00C30100
(2.317000) can0 2E5#000008320000DD00
(2.319000) can0 393#0380610000000000
(2.321000) can0 126#1240387425
(2.323000) can0 397#F3FF7F491CFC0700
(2.325000) can0 129#3F21ED5FFF1FFF3F
(2.327000) can0 186#690F0002009B1125
(2.330000) can0 1E5#286C04000000007E
(2.330000) can0 2C1#216B186402000000
(2.331000) can0 119#00000000
(2.332000) can0 234#3220032EB904603B
(2.333000) can0 2C2#2040404B010080CB
(2.335000) can0 3AE#0C4000080000A1F6
(2.336000) can0 7FF#0301082861428001
(2.337000) can0 343#009264DE95000000
(2.338000) can0 1D8#29BE3F000000201F
(2.338000) can0 207#0000000000000000
(2.339000) can0 257#1D684B390AA82501
(2.340000) can0 3D2#380E0803A8B02A03
(2.341000) can0 439#0000000000185A04
(2.341000) can0 452#4B4803
(2.342000) can0 3C3#5555550100000000
(2.343000) can0 1BB#02
(2.343000) can0 1D5#290000000000403F
(2.344000) can0 129#0823ED5F0020FF3F
(2.345000) can0 243#0300008029452600
(2.346000) can0 241#7574541D1D4500
(2.347000) can0 1D8#29BE3F000000403F
(2.348000) can0 23E#00003AC002FF1F5A
(2.349000) can0 118#4960950000C874FF
(2.349000) can0 24A#03
(2.350000) can0 78A#010005009D0D0A00
(2.351000) can0 677#0300000000000000
(2.354000) can0 1D5#290000000000605F
(2.354000) can0 229#3B0F00
(2.355000) can0 263#0300000000000000
(2.356000) can0 204#010000FF00000010
(2.356000) can0 381#1A00000000000000
(2.357000) can0 1D8#29BE3F000000605F
(2.358000) can0 118#AA61950000C8D4FF
(2.359000) can0 2E1#1021040010000004
(2.359000) can0 423#00001000000000
(2.361000) can0 139#00
(2.364000) can0 1D5#290000000000807F
(2.364000) can0 401#012A70967B967796
(2.365000) can0 243#04FC63F16D7CFFFF
(2.368000) can0 261#314005009049FA3F
(2.368000) can0 37A#C20D000000000000
(2.369000) can0 266#FA070A2D09009F01
(2.372000) can0 2C1#531A900000000000
(2.372000) can0 1D5#290000000000A09F
(2.375000) can0 3AE#0C4000080000B106
(2.375000) can0 2E5#000008320000DD00
(2.376000) can0 545#010000000010005B
(2.377000) can0 1D8#29BE3F000000A09F
(2.377000) can0 118#9C63950000C8C4FF
(2.379000) can0 266#FA070A2D09009F01
(2.380000) can0 400#00E0FBBEEFFB00
(2.381000) can0 7A8#B8CCB18300008200
(2.383000) can0 234#2EE10380430074E4
(2.383000) can0 272#0380610000000000
(2.384000) can0 129#F927ED5F0120FF3F
(2.385000) can0 243#00FCCF0C91440D29
(2.385000) can0 3C8#0100000000000000
(2.386000) can0 228#0106184C0060A196
(2.387000) can0 1E5#286C0400000040BE
(2.388000) can0 23E#00003AC002FF2F6A
(2.388000) can0 118#2D64950000C854FF
(2.389000) can0 421#021A0000002000
(2.390000) can0 285#61018E0308002E00
(2.391000) can0 353#FB0F39801A140A16
(2.392000) can0 1D5#290000000000E0DF
(2.393000) can0 3C0#0700000000000000
(2.394000) can0 129#EA28ED5FFF1FFF3F
(2.394000) can0 2E8#010100000600C0B2
(2.395000) can0 2B3#CE2B5E0180151900
(2.398000) can0 1D8#29BE3F000000E0DF
(2.398000) can0 257#286B4B390AB02501
(2.403000) can0 788#B8D4B1830000B600
(2.403000) can0 25D#3741012A04F08803
(2.404000) can0 3A2#602573B30400C26F
(2.405000) can0 289#CA0C060382003D0F
(2.405000) can0 243#01FC374836005B5B
(2.406000) can0 7AA#2605704E316FA129
(2.408000) can0 1D8#29BE3F00000000FF
(2.409000) can0 118#9F66950000C8C4FF
(2.409000) can0 288#0106184C0060F146
(2.410000) can0 2C1#D0647E00008A0200
(2.411000) can0 3A3#16C00000380DFC01
(2.412000) can0 4E2#00D3000000002800
(2.412000) can0 1D5#290000000000201F
(2.415000) can0 129#602AED5FFF1FFF3F
(2.415000) can0 263#89E6D1AFB74F5F1F
(2.418000) can0 1D8#29BE3F000000201F
(2.420000) can0 257#296C4B390AB02501
(2.422000) can0 552#00000000000090E7
(2.424000) can0 1D5#290000000000403F
(2.426000) can0 20A#F61509821801
(2.429000) can0 1A5#00101F00D5
(2.431000) can0 266#FA070A2D09009F01
(2.434000) can0 7D7#3212000000000000
(2.435000) can0 348#160001990F070110
(2.436000) can0 2E5#000008320000DD00
(2.437000) can0 55A#0100000000000000
(2.437000) can0 757#2C003E0000000000
(2.438000) can0 7F1#0200000F004E00
(2.439000) can0 1D8#29BE3F000000605F
(2.440000) can0 118#0369950000C82400
(2.440000) can0 266#FA070A2D09009F01
(2.441000) can0 22B#FFFFFF1F00C0FFFF
(2.442000) can0 441#3E85890032002007
(2.442000) can0 3E3#04000000
(2.444000) can0 3FD#0000003C20000180
(2.446000) can0 545#900458109987298F
(2.447000) can0 1D8#29BE3F000000807F
(2.447000) can0 553#0000000000002078
(2.448000) can0 719#0003140F14070E00
(2.449000) can0 118#046A950000C82400
(2.452000) can0 78A#0100060003000000
(2.452000) can0 1D5#290000000000A09F
(2.455000) can0 682#0000004004112055
(2.455000) can0 2B3#AF03298EED0E8004
(2.456000) can0 2C4#D781000004006000
(2.457000) can0 224#0408004019011008
(2.457000) can0 2B4#3B05710E7001
(2.458000) can0 266#FA070A2D09009F01
(2.460000) can0 379#03C00E4833B92200
(2.463000) can0 139#00
(2.463000) can0 3E8#0100000000000000
(2.464000) can0 129#CD2FED5FFF1FFF3F
(2.465000) can0 401#062A6E9672967196
(2.465000) can0 39D#075FE12700
(2.468000) can0 1D8#29C03F000000C0C1
(2.468000) can0 3F5#0000C838830C0000
(2.469000) can0 266#FA070A2D09009F01
(2.470000) can0 3A2#72A7FFFF04000000
(2.470000) can0 2C1#531A900000000000
(2.473000) can0 1D5#290000000000E0DF
(2.473000) can0 409#00
(2.474000) can0 129#2820ED5FFF1FFF3F
(2.475000) can0 263#04000000901C0000
(2.476000) can0 212#59C4060081FF7731
(2.477000) can0 1D8#29C03F000000E0E1
(2.478000) can0 118#276D950000C84400
(2.478000) can0 257#246F4B390AA82501
(2.479000) can0 400#00E0FBBEEFFB00
(2.480000) can0 7A8#01000000FFA1B812
(2.481000) can0 225#5555FA00
(2.483000) can0 1D5#29000000000000FF
(2.483000) can0 3AE#0C4000080000E035
(2.484000) can0 129#9221ED5FFE1FFF3F
(2.485000) can0 7AA#0733003300550048
(2.485000) can0 3C8#0200000000000000
(2.486000) can0 2E1#026D66021C7F0000
(2.487000) can0 1E5#286C04000000007E
(2.489000) can0 441#DE00B6C35800253D
(2.489000) can0 293#020C559055148F80
(2.490000) can0 39A#99FFFDFDFD01000A
(2.491000) can0 282#943CF20814040324
(2.492000) can0 2C1#0400000000000000
(2.492000) can0 1D5#290000000000201F
(2.493000) can0 3C0#0800000000000000
(2.494000) can0 129#7622ED5FFF1FFF3F
(2.494000) can0 3FD#01000A0000080280
(2.496000) can0 261#934C0A0000407594
(2.497000) can0 1E5#286C04000000209E
(2.498000) can0 118#B76F950000C8D4FE
(2.499000) can0 257#1D604B390AB02501
(2.503000) can0 788#01000000FFA1C812
(2.505000) can0 2F9#BCFB071800000000
(2.509000) can0 448#20001010000010
(2.511000) can0 288#0106184C00600156
(2.513000) can0 677#0200000000000000
(2.515000) can0 129#BE24EC5FFE1FFF3F
(2.517000) can0 2B3#10000000000B0000
(2.519000) can0 393#0380610000000000
(2.522000) can0 339#02F1FE008007800F
(2.525000) can0 129#0425EC5FFF1FFF3F
(2.525000) can0 2E5#000008320000DD00
(2.526000) can0 1A5#00101F08DD
(2.527000) can0 396#091E1D5650560C7D
(2.527000) can0 422#700010000000
(2.530000) can0 118#2C62950000C85400
(2.531000) can0 2C1#216B186402000000
(2.534000) can0 1D5#290000000000A09F
(2.534000) can0 420#2801404B00000000
(2.535000) can0 318#1A063B0D10193BE7
(2.536000) can0 7FF#0500000120008000
(2.536000) can0 2E5#000008320000DD00
(2.537000) can0 757#2C003E0000000000
(2.538000) can0 1E5#286C04000000209E
(2.539000) can0 266#FA070A2D09009F01
(2.539000) can0 082#017FFF29B8013D09
(2.540000) can0 439#0000000000185A04
(2.541000) can0 545#90045860998B5913
(2.542000) can0 3C2#2955000000000000
(2.542000) can0 261#00100600FF4FA0FA
(2.544000) can0 3AE#0B40000800000155
(2.545000) can0 401#0A2A7C967E968096
(2.545000) can0 3FD#0200560000000090
(2.548000) can0 241#7574541D1D4500
(2.548000) can0 1FA#1AC001
(2.549000) can0 118#9D64950000C8C4FF
(2.552000) can0 3AA#0100000000000000
(2.552000) can0 1D5#290000000000E0DF
(2.555000) can0 682#0000004004113065
(2.555000) can0 2C4#19C27C030D1C2003
(2.556000) can0 2E5#000008320000DD00
(2.557000) can0 2B4#3D05710E7201
(2.557000) can0 211#C31F710F1001
(2.558000) can0 54F#0000000000000000
(2.560000) can0 257#20634B390AB02501
(2.563000) can0 139#00
(2.565000) can0 129#4B29EC5FFF1FFF3F
(2.565000) can0 201#0200000000000000
(2.566000) can0 2E1#398D2AFF0F000000
(2.567000) can0 1D8#29C03F0000000001
(2.570000) can0 3F5#0000C838830C0000
(2.570000) can0 2C1#531A900000000000
(2.573000) can0 1D5#290000000000201F
(2.573000) can0 545#01000000001060BB
(2.574000) can0 129#942AEC5FFF1FFF3F
(2.575000) can0 263#04000000901C0000
(2.575000) can0 2E5#000008320000DD00
(2.576000) can0 2D2#EF2EB44E8813E822
(2.578000) can0 1D8#29C03F0000002021
(2.579000) can0 257#19644B3902B02501
(2.579000) can0 7A8#0240C107000F0000
(2.582000) can0 225#5555FA00
(2.582000) can0 1D5#290000000000403F
(2.585000) can0 3AE#0B40000800001165
(2.585000) can0 39D#FA52E12700
(2.588000) can0 228#0106184C0060C1B6
(2.588000) can0 441#DF00B6C358002D46
(2.589000) can0 266#FA070A2D09009F01
(2.590000) can0 421#021A0000002000
(2.590000) can0 253#0164A6C66490B505
(2.591000) can0 282#943CE20818040324
(2.592000) can0 40A#091000000000D0F7
(2.593000) can0 3C0#0900000000000000
(2.594000) can0 718#02000000000000
(2.595000) can0 2E5#000008320000DD00
(2.598000) can0 1D8#29C03F0000006061
(2.598000) can0 257#1A654B3902B02501
(2.603000) can0 788#0240C60700030000
(2.603000) can0 2F9#BCFB072000000000
(2.604000) can0 129#172DEC5FFF1FFF3F
(2.605000) can0 123#00001392D2000000
(2.605000) can0 2E5#000008320000DD00
(2.606000) can0 261#9401B04B0040E4AA
(2.607000) can0 1D8#29C03F0000008081
(2.608000) can0 709#0569000EE0130000
(2.608000) can0 118#736A950000C894FF
(2.609000) can0 726#040000
(2.611000) can0 2C1#D0647E00008A0200
(2.611000) can0 4E2#025D040000002800
(2.612000) can0 1D5#290000000000A09F
(2.615000) can0 129#A12EEC5F0020FF3F
(2.615000) can0 2E1#0400000000202600
(2.619000) can0 419#00
(2.623000) can0 128#0000EC0A02
(2.627000) can0 129#A42FED5F0020FF3F
(2.631000) can0 428#20001010000010
(2.635000) can0 7D7#3212000000000000
(2.638000) can0 458#00002000000000
(2.642000) can0 3FD#0000003C20000180
(2.646000) can0 333#0410590700
(2.646000) can0 35A#0000000000000000
(2.649000) can0 2E5#000008320000DD00
(2.651000) can0 1E5#286C04000000007E
(2.653000) can0 1D5#290000000000201F
(2.655000) can0 129#EB22EC5F0020FF3F
(2.657000) can0 2C4#20C000D200000000
(2.659000) can0 211#B410710F1001
(2.661000) can0 423#00001000000000
(2.663000) can0 1D5#290000000000403F
(2.666000) can0 129#9523EC5FFF1FFF3F
(2.668000) can0 1D8#29C23F0000004043
(2.668000) can0 23E#00003AC002FF9FDA
(2.669000) can0 266#FA070A2D09009F01
(2.672000) can0 261#B2291902805C22EA
(2.672000) can0 1D5#290000000000605F
(2.674000) can0 303#1303000000000000
(2.675000) can0 263#04000000901C0000
(2.675000) can0 359#1500000000000000
(2.676000) can0 292#477EF8E492011E00
(2.677000) can0 1D8#29C23F0000006063
(2.678000) can0 118#8A61950000C8B4FF
(2.678000) can0 257#1E694B3902B02501
(2.679000) can0 381#0800000000000000
(2.680000) can0 712#020AD21328140000
(2.681000) can0 225#5555FA00
(2.683000) can0 234#2EE103804300D444
(2.683000) can0 3AE#0B40000800004094
(2.684000) can0 129#0425EC5FFF1FFF3F
(2.685000) can0 401#112A8C968E969296
(2.685000) can0 55A#0200000000000000
(2.687000) can0 3C8#0400000000000000
(2.690000) can0 441#E000B6C35800354F
(2.690000) can0 33A#82D443A3FDFF3761
(2.691000) can0 3FD#01000A0000080280
(2.693000) can0 282#8C3CE20818040324
(2.694000) can0 22B#FFFFFF1F00FEFFFF
(2.694000) can0 2E1#FB1F916997850900
(2.695000) can0 2B3#024D0000801E3D00
(2.698000) can0 1D8#29C23F000000A0A3
(2.698000) can0 257#1F6A4B3902B02501
(2.699000) can0 103#22B38804A2F02032
(2.702000) can0 3A2#602573B51C00C26F
(2.702000) can0 21D#0400B50000000000
(2.704000) can0 309#0000000000000000
(2.705000) can0 129#C927EC5FFF1FFF3F
(2.705000) can0 123#01000000003F0000
(2.706000) can0 2E5#000008320000DD00
(2.707000) can0 221#610555550107E01B
(2.708000) can0 1E5#286C0400000040BE
(2.708000) can0 23E#00003AC002FFAFEA
(2.709000) can0 266#FA070A2D09009F01
(2.712000) can0 2E1#0400000000202600
(2.712000) can0 1D5#290000000000E0DF
(2.715000) can0 129#2128EB5FFE1FFF3F
(2.715000) can0 263#89E6D1AFB74F5F1F
(2.716000) can0 7AA#0A34063406005700
(2.717000) can0 1D8#29C23F000000E0E3
(2.718000) can0 118#9E65950000C8C4FF
(2.719000) can0 126#12403814C5
(2.720000) can0 261#0522CEC99A4250E0
(2.720000) can0 2B6#000300
(2.721000) can0 552#000000000000C017
(2.722000) can0 1D5#29000000000000FF
(2.723000) can0 20C#1ED836141D01000E
(2.725000) can0 129#2229EC5F0020FF3F
(2.725000) can0 186#6603000200A41125
(2.726000) can0 1A5#00101F18ED
(2.727000) can0 396#091E1E5652570C7D
(2.727000) can0 1E5#286C04000000007E
(2.730000) can0 118#E066950000C80400
(2.730000) can0 7D5#3200000000000000
(2.731000) can0 7D7#3212000000000000
(2.733000) can0 315#6B2BD0264000A005
(2.733000) can0 7D5#449A505E5C440042
(2.734000) can0 420#2801404B00000001
(2.735000) can0 129#FD2AEC5F0020FF3F
(2.736000) can0 261#00100600FF4F60BA
(2.736000) can0 7FF#0720000528000000
(2.737000) can0 343#009264FE95000000
(2.738000) can0 5D7#506E0A0002
(2.738000) can0 335#1001CE18DC21FF00
(2.739000) can0 266#FA070A2D09009F01
(2.740000) can0 294#14C1400040000000
(2.741000) can0 3E5#0000000000000000
(2.741000) can0 3FD#0200560000000090
(2.743000) can0 367#0000000000000000
(2.745000) can0 1D5#290000000000403F
(2.746000) can0 22B#FFFFFF1F00FEFFFF
(2.746000) can0 132#579032009640
(2.747000) can0 243#0300008029452600
(2.748000) can0 1D8#29C23F0000004043
(2.749000) can0 553#00000000000050A8
(2.749000) can0 266#FA070A2D09009F01
(2.750000) can0 261#3140130090497ACD
(2.751000) can0 677#0300000000000000
(2.754000) can0 1D5#290000000000605F
(2.755000) can0 229#6D0300
(2.759000) can0 1E5#286C0400000060DE
(2.761000) can0 2F1#035A2B8142000100
(2.763000) can0 1D5#290000000000807F
(2.766000) can0 129#EC2DEB5F0020FF3F
(2.768000) can0 261#B2291902805C824A
(2.770000) can0 37A#C20D000000000000
(2.773000) can0 2C1#531A900000000000
(2.774000) can0 129#332EEB5F0020FF3F
(2.777000) can0 263#04000000901C0000
(2.777000) can0 1E5#286C04000000209E
(2.778000) can0 712#0300000000000000
(2.782000) can0 225#5555FA00
(2.784000) can0 1D5#290000000000C0BF
(2.786000) can0 132#729030009340
(2.788000) can0 381#0B00000000000000
(2.790000) can0 3A0#0000000000000000
(2.792000) can0 7B5#030000
(2.794000) can0 3C2#0055555500006A05
(2.797000) can0 2E8#01010000060000F2
(2.798000) can0 118#176D950000C83400
(2.798000) can0 257#246F4B3902B02501
(2.799000) can0 399#000000
(2.802000) can0 788#01000000FFA1C812
(2.802000) can0 1D5#29000000000000FF
(2.805000) can0 2F9#BCFB07030D1A8B84
(2.805000) can0 243#01FC374836005B5B
(2.806000) can0 545#020002000000D01E
(2.807000) can0 1D8#29C23F0000000003
(2.810000) can0 118#A76E950000C8C4FF
(2.810000) can0 2C1#D0647E00008A0200
(2.811000) can0 6A1#0000000000
(2.814000) can0 1D5#290000000000201F
(2.815000) can0 261#0522CEC99A42B040
(2.816000) can0 2B3#24E4C79327090C00
(2.817000) can0 1D8#29C23F0000002023
(2.817000) can0 393#080002C107B00304
(2.818000) can0 257#15604B3902B02501
(2.819000) can0 20E#140400
(2.819000) can0 552#000000000000D027
(2.820000) can0 268#120AA101FF
(2.821000) can0 397#F31F00491CFC0700
(2.822000) can0 407#1308000000000000
(2.822000) can0 2E1#65800800E74E316A
(2.823000) can0 3A1#884C0FCA00140283
(2.824000) can0 129#6E23EB5F0020FF3F
(2.825000) can0 1F9#0000000000000000
(2.828000) can0 39D#0058E12700
(2.830000) can0 23E#00003AC002FFDF1A
(2.832000) can0 7D5#3200000000000000
(2.834000) can0 234#3320032EB90400DC
(2.836000) can0 340#0300000000000000
(2.838000) can0 2E5#000008320000DD00
(2.840000) can0 257#16614B3902B02501
(2.843000) can0 284#300000004008302E
(2.844000) can0 129#6D25EC5F0020FF3F
(2.845000) can0 401#192A729674967896
(2.845000) can0 241#7574541D1D4500
(2.846000) can0 261#314004008F49DA1D
(2.847000) can0 1D8#29C23F0000008083
(2.848000) can0 719#150003AD00000000
(2.849000) can0 1FA#1AC001
(2.852000) can0 78A#01000300AE048902
(2.852000) can0 1D5#290000000000A09F
(2.853000) can0 682#0000004004116095
(2.854000) can0 129#2526EB5F0020FF3F
(2.854000) can0 2E1#398D2AFF0F000000
(2.855000) can0 2C4#020001D200000000
(2.856000) can0 2E5#000008320000DD00
(2.857000) can0 224#0408004019011008
(2.857000) can0 1E5#286C04000000209E
(2.858000) can0 266#FA070A2D09009F01
(2.859000) can0 25B#D38000056A86F093
(2.860000) can0 54F#0000000000000000
(2.863000) can0 139#00
(2.864000) can0 129#3227EB5F0020FF3F
(2.865000) can0 2C3#0000C04B010040CB
(2.865000) can0 201#0200000000000000
(2.866000) can0 7AA#0C00000000000039
(2.867000) can0 1E5#286C0400000040BE
(2.868000) can0 3F5#0000C838830C0000
(2.868000) can0 37A#CBE0010000000000
(2.869000) can0 266#FA070A2D09009F01
(2.872000) can0 2E1#026D66021C7F0000
(2.872000) can0 1D5#290000000000E0DF
(2.875000) can0 409#00
(2.875000) can0 263#04000000901C0000
(2.876000) can0 2E5#000008320000DD00
(2.877000) can0 45A#FD07F8FF0300005A
(2.877000) can0 1E5#286C0400000060DE
(2.879000) can0 266#FA070A2D09009F01
(2.882000) can0 225#5555FA00
(2.882000) can0 1D5#29000000000000FF
(2.885000) can0 3AE#0A4000080000B003
(2.885000) can0 2E5#000008320000DD00
(2.886000) can0 2E1#FB1F9069978A0900
(2.887000) can0 1D8#29C23F0000000003
(2.890000) can0 441#E100B6C358000520
(2.890000) can0 201#0300000000000000
(2.891000) can0 2BF#00000000000001
(2.892000) can0 3C2#0055555500006A05
(2.895000) can0 3C0#0100000000000000
(2.895000) can0 263#700ED29FA74F5F1F
(2.898000) can0 1D8#29C23F0000002023
(2.899000) can0 257#09544B3902B02501
(2.902000) can0 788#0240C60700030000
(2.902000) can0 1D5#290000000000403F
(2.903000) can0 448#20001010000010
(2.904000) can0 2F9#BCFB070800000000
(2.904000) can0 249#D3040000
(2.905000) can0 243#01FC374836005B5B
(2.906000) can0 401#1C2A789679967C96
(2.907000) can0 1D8#29C23F0000004043
(2.907000) can0 1E5#286C0400000040BE
(2.908000) can0 23E#00003AC002FFFF3A
(2.909000) can0 118#3268950000C85400
(2.910000) can0 288#0106184C00604196
(2.910000) can0 261#0522CEC99A4210A0
(2.912000) can0 3A3#14C00000380DFC01
(2.915000) can0 129#6C2CEC5F0020FF3F
(2.915000) can0 247#7E0EFF0C00C10100
(2.916000) can0 2E5#000008320000DD00
(2.917000) can0 1D8#29C23F0000006063
(2.917000) can0 118#4269950000C864FF
(2.918000) can0 257#1A654B3902B02501
(2.919000) can0 339#02F1FE008007800F
(2.920000) can0 128#0000EC0A02
(2.920000) can0 279#3BB4FC01C4056502
(2.921000) can0 397#F31F00491CFC0700
(2.922000) can0 709#0636000000000000
(2.923000) can0 20C#20D836141D01000E
(2.926000) can0 129#EC2DEB5F0020FF3F
(2.927000) can0 396#091E1E5651570C7D
(2.928000) can0 45A#A4C0BFC05F2C4837
(2.929000) can0 118#836A950000C8A4FF
(2.929000) can0 266#FA070A2D09009F01
(2.930000) can0 7D5#3200000000000000
(2.931000) can0 7D7#3212000000000000
(2.932000) can0 3A2#0110200000000000
(2.932000) can0 1D5#290000000000A09F
(2.935000) can0 3AE#094000080000D123
(2.935000) can0 414#1233585646544756
(2.936000) can0 263#0200A0460D353521
(2.937000) can0 318#1A063B0D101923CF
(2.937000) can0 343#009268EE95000000
(2.938000) can0 1D8#29C03F000000A0A1
(2.940000) can0 266#FA070A2D09009F01
(2.941000) can0 355#800C00FF940000
(2.941000) can0 201#0128980000000000
(2.942000) can0 3A8#FCE07FB2FC0F0000
(2.943000) can0 3C2#2955000000000000
(2.943000) can0 22B#FFFFFF1F00FEFFFF
(2.944000) can0 320#0300000000000000
(2.945000) can0 243#0300008029452600
(2.946000) can0 241#7574541D1D4500
(2.949000) can0 1D8#29C03F000000C0C1
(2.949000) can0 266#FA070A2D09009F01
(2.950000) can0 78A#01000400CC06A100
(2.951000) can0 677#0300000000000000
(2.954000) can0 1D5#290000000000E0DF
(2.955000) can0 229#410500
(2.956000) can0 204#010000FF00000010
(2.956000) can0 221#6055551554513118
(2.957000) can0 211#B713710F1001
(2.958000) can0 118#A66D950000C8C4FF
(2.959000) can0 261#B2291902805C420A
(2.959000) can0 364#3C822802
(2.960000) can0 423#00001000000000
(2.961000) can0 139#00
(2.964000) can0 1D5#29000000000000FF
(2.964000) can0 401#1F2A7D966B968196
(2.965000) can0 243#04FC63F16D7CFFFF
(2.968000) can0 2E1#026D66021C7F0000
(2.968000) can0 37A#C00D000000000000
(2.970000) can0 266#FA070A2D09009F01
(2.971000) can0 2EC#57B0F5
(2.973000) can0 1D5#290000000000201F
(2.975000) can0 409#00
(2.975000) can0 2E5#000008320000DD00
(2.976000) can0 252#CA4B427D00FC0F00
(2.977000) can0 122#00001392D2000000
(2.977000) can0 2F2#1201
(2.978000) can0 266#FA070A2D09009F01
(2.979000) can0 3B2#410135D704721E27
(2.980000) can0 712#0500000000000000
(2.982000) can0 225#5555FA00
(2.984000) can0 1D5#290000000000403F
(2.986000) can0 132#699035009A40
(2.988000) can0 228#0106184C006001F6
(2.990000) can0 441#E000B6C358000D27
(2.993000) can0 293#020C559055149F90
(2.995000) can0 677#0400000000000000
(2.997000) can0 2E5#000008320000DD00
(2.999000) can0 719#0003140F14070E00
