(0.000000) can0 2E5#00000D320000DD00
(0.007000) can0 439#0000000000185A04
(0.011000) can0 6A1#0000000000
(0.013000) can0 281#1E00FF1F0001
(0.015000) can0 6A2#0000000000
(0.017000) can0 2B3#08FA0000D6780000
(0.019000) can0 261#BB4C0A00004095DC
(0.021000) can0 3FD#0000003C20000180
(0.026000) can0 1D5#290000000000403F
(0.027000) can0 45A#A4BFBEC05F304639
(0.028000) can0 33D#1A290ABE874AFA98
(0.028000) can0 4E3#0476808705600000
(0.029000) can0 552#000000000000C017
(0.030000) can0 2C1#216B186402000000
(0.030000) can0 3AA#0100000000000000
(0.032000) can0 78A#01000100C45C845D
(0.033000) can0 118#186F950000C834FF
(0.034000) can0 263#0200E0C60D373721
(0.034000) can0 129#D82DDB5F0220FF3F
(0.035000) can0 128#0000EC0A02
(0.036000) can0 268#1C0F9901FF
(0.037000) can0 2B6#000300
(0.037000) can0 376#0200FFFFFFFF0000
(0.038000) can0 376#FBFFFBFFFB0F5005
(0.039000) can0 3A2#6025F3B21C00426F
(0.040000) can0 201#0138980000000000
(0.040000) can0 293#020C559055140F00
(0.041000) can0 441#4085890032003821
(0.042000) can0 2E1#0400000000202600
(0.043000) can0 132#8A8EA2FE833D
(0.044000) can0 357#0000000000000000
(0.045000) can0 241#7374D41C1D4500
(0.046000) can0 113#019701
(0.046000) can0 458#00002000000000
(0.047000) can0 7FF#024612289C5181C2
(0.048000) can0 3A8#2A80E9F51F00FFDF
(0.048000) can0 757#3200000000000000
(0.049000) can0 757#48595B000040165C
(0.050000) can0 261#0522E3C99A42B055
(0.051000) can0 25B#D38000056A86E083
(0.051000) can0 7D7#321C000000000000
(0.052000) can0 132#7E8E9EFE773D
(0.053000) can0 118#6A61950000C894FF
(0.054000) can0 266#17000F320F008601
(0.055000) can0 257#27A15C5002502E01
(0.056000) can0 3AE#FE3F000800004086
(0.059000) can0 2E1#65800800FC51316A
(0.059000) can0 1D5#290000000000C0BF
(0.060000) can0 242#55558600
(0.061000) can0 379#0A0000000A000C03
(0.061000) can0 2C4#13A400450E373502
(0.062000) can0 132#758E9DFE733D
(0.063000) can0 252#644B037B00FC0F00
(0.064000) can0 1E5#286C04000000007E
(0.064000) can0 129#1E20DC5F0420FF3F
(0.065000) can0 292#27F2F7E28A010000
(0.066000) can0 2B4#3D05400E7901
(0.067000) can0 2F2#1201
(0.068000) can0 3F5#0000C838830C0000
(0.069000) can0 2C1#531A900000000000
(0.070000) can0 287#30323031D7020000
(0.070000) can0 3A2#0110200000000000
(0.071000) can0 3A1#C1FFFF153D00F0C1
(0.072000) can0 2E5#00000D320000DD00
(0.072000) can0 372#0400000000009011
(0.073000) can0 1D8#29AE00150000A065
(0.074000) can0 129#A421DC5F0520FF3F
(0.075000) can0 249#D3040000
(0.075000) can0 3FD#01000A0000080280
(0.077000) can0 2E1#1021040010000004
(0.080000) can0 3E2#040000611FCF00
(0.082000) can0 247#4D0EFF0C00BA0100
(0.083000) can0 2E5#00000E320000DD00
(0.084000) can0 129#ED22DC5F0520FF3F
(0.088000) can0 283#000000004000
(0.092000) can0 272#0380610000000000
(0.096000) can0 285#2445605872000000
(0.100000) can0 3C2#0055555500006A05
(0.109000) can0 2E8#01010000060000F2
(0.110000) can0 1D5#290000000000605F
(0.110000) can0 3A3#12C00000380DFC01
(0.111000) can0 20E#140400
(0.112000) can0 788#0240C50700030000
(0.112000) can0 401#0E2A879488949094
(0.113000) can0 261#BB4C0A000040F53C
(0.114000) can0 129#C625DC5F0420FF3F
(0.115000) can0 257#2AA45C5002502E01
(0.116000) can0 393#080002C907B00304
(0.117000) can0 381#1A00000000000000
(0.120000) can0 288#0106184C00603186
(0.122000) can0 2E1#FB1F96C9978A0900
(0.122000) can0 132#808E9AFE6B3D
(0.123000) can0 1D8#29B0401500004047
(0.124000) can0 21D#0400B50000000000
(0.124000) can0 25D#3741012A04F08803
(0.125000) can0 249#83050000
(0.126000) can0 3FD#02003C0000000090
(0.128000) can0 396#091E1E52555F0E7D
(0.131000) can0 261#D401E04B0040043A
(0.133000) can0 2E5#00000D320000DD00
(0.133000) can0 340#0700000000000000
(0.135000) can0 266#17000F320F008601
(0.136000) can0 23E#00003AC002FF6FAA
(0.136000) can0 268#1D0F9901FF
(0.137000) can0 395#090F125E0C05047D
(0.138000) can0 39D#1D61F52700
(0.138000) can0 3A2#602573B51C00426F
(0.139000) can0 545#020005000000D021
(0.140000) can0 3C3#0000000000A50000
(0.141000) can0 682#0000004004116095
(0.144000) can0 2E5#00000D320000DD00
(0.144000) can0 207#0000000000000000
(0.145000) can0 315#1862556D5056D38B
(0.146000) can0 113#019701
(0.146000) can0 315#02000B1700000000
(0.148000) can0 553#00000000000060B8
(0.149000) can0 7D5#2B796FFF00000000
(0.149000) can0 3FE#80EA830F3EF800CD
(0.150000) can0 473#0000030000000000
(0.151000) can0 25B#D38000056A86F093
(0.152000) can0 7D7#321C000000000000
(0.152000) can0 3A7#0000000000000000
(0.153000) can0 383#A518200025918309
(0.154000) can0 132#6C8E98FE693D
(0.155000) can0 401#102AA3949B949994
(0.155000) can0 1D8#29B040150000A0A7
(0.156000) can0 129#1629DC5F0220FF3F
(0.157000) can0 1E5#286C04000000209E
(0.158000) can0 257#14965C5002482E01
(0.159000) can0 381#60E00690DD00B210
(0.160000) can0 7D5#486D83000080DB5B
(0.161000) can0 22B#FFFFFF070080FFFF
(0.161000) can0 261#00100800FF4F207C
(0.162000) can0 132#828E98FE603D
(0.163000) can0 752#0802E07F0070A44A
(0.164000) can0 212#5904000081FF7731
(0.164000) can0 129#112ADC5F0120FF3F
(0.165000) can0 252#644B037B00FC0F00
(0.166000) can0 292#27F2F7E28A010000
(0.167000) can0 2F2#1201
(0.167000) can0 3F5#0000C838830C0000
(0.168000) can0 545#40045380998EE971
(0.169000) can0 287#30323031D7020000
(0.170000) can0 2C1#531A900000000000
(0.171000) can0 3A1#C1FFFF333D0010FF
(0.172000) can0 2E5#00000E320000DD00
(0.172000) can0 401#112AA2949E94AC94
(0.173000) can0 266#18000F320F008501
(0.174000) can0 129#4D2BDC5F0020FF3F
(0.175000) can0 249#4C060000
(0.175000) can0 23E#00003AC002FF7FBA
(0.178000) can0 2D1#FF01
(0.180000) can0 3E2#040000611FCF00
(0.182000) can0 247#4C0EFF0D00B90100
(0.182000) can0 132#878E96FE5C3D
(0.183000) can0 2D3#F5005C03280E2543
(0.184000) can0 118#276E950000C844FF
(0.184000) can0 266#18000F320F008501
(0.186000) can0 283#000000004000
(0.189000) can0 441#D000B6C35800050F
(0.189000) can0 1D5#290000000000605F
(0.190000) can0 2BF#00000000000001
(0.191000) can0 3FD#0000003C20000180
(0.193000) can0 3AE#FF3F0008000081C8
(0.193000) can0 1D8#29B2801500002069
(0.194000) can0 263#700ED29FA74F5F1F
(0.195000) can0 1E5#286C04000000209E
(0.196000) can0 414#1133535459323530
(0.196000) can0 282#8C30C20814040324
(0.197000) can0 22A#0000D916
(0.198000) can0 3E2#040000611FCF00
(0.201000) can0 1D5#290000000000807F
(0.202000) can0 545#010000000010F04B
(0.203000) can0 132#798E98FE6A3D
(0.204000) can0 2AA#577073
(0.204000) can0 243#01FC384638005C5C
(0.205000) can0 211#B713710F1001
(0.206000) can0 266#17000F320F008501
(0.206000) can0 554#D08403051ED000
(0.207000) can0 386#0000000000000000
(0.208000) can0 384#0000000000000000
(0.211000) can0 261#BB4C0A000040559C
(0.211000) can0 281#1E00FF1F0001
(0.212000) can0 6A2#0000000000
(0.213000) can0 401#132A9D9491948D94
(0.213000) can0 1D8#29B28015000060A9
(0.214000) can0 129#782FDC5FFF1FFF3F
(0.216000) can0 257#17995C5002482E01
(0.216000) can0 3F9#0800000000000000
(0.217000) can0 2E1#FB1F97C9978B0900
(0.220000) can0 345#1200000000000000
(0.222000) can0 3A1#884C0FCA001822A7
(0.222000) can0 132#7A8E95FE5F3D
(0.223000) can0 1D8#29B28015000080C9
(0.224000) can0 21D#0400B50000000000
(0.224000) can0 25D#3741012A04F08803
(0.225000) can0 249#5E070000
(0.226000) can0 339#02F1FE008007800F
(0.227000) can0 420#2801404B00000002
(0.227000) can0 552#000000000000E037
(0.228000) can0 75D#0500000000007E04
(0.230000) can0 2C1#216B186402000000
(0.230000) can0 1F9#0000000000000000
(0.231000) can0 387#FFFFFFFFFFFF0040
(0.232000) can0 2E5#00000D320000DD00
(0.233000) can0 401#142A9A949D949E94
(0.233000) can0 263#0200E0C60D373721
(0.234000) can0 129#E321DC5F0020FF3F
(0.235000) can0 257#189A5C5002482E01
(0.236000) can0 268#1C0F9901FF
(0.236000) can0 340#0800000000000000
(0.237000) can0 397#030000751A120000
(0.238000) can0 119#00000000
(0.239000) can0 545#0200050000000051
(0.239000) can0 757#3200000000000000
(0.241000) can0 3FD#01000A0000080280
(0.243000) can0 3BB#230F14
(0.243000) can0 243#0300000028442500
(0.244000) can0 118#5D64950000C884FF
(0.245000) can0 266#18000F320F008501
(0.246000) can0 553#00000000000070C8
(0.246000) can0 458#00002000000000
(0.247000) can0 3A8#0300000000000000
(0.248000) can0 7D7#321C000000000000
(0.251000) can0 2E1#65800800FC51316A
(0.252000) can0 2E5#00000D320000DD00
(0.256000) can0 129#D423DC5FFF1FFF3F
(0.258000) can0 2D7#8CA94106
(0.260000) can0 31F#794C7E4A7E4B7E4B
(0.262000) can0 22B#FFFFFF070000FEFF
(0.265000) can0 264#3E000000A000
(0.267000) can0 292#27F2F7E28A010000
(0.270000) can0 545#40044E90999219B0
(0.270000) can0 400#00E0FBBEEFFB00
(0.271000) can0 3A1#C1FFFF2B3D003017
(0.272000) can0 2E5#00000D320000DD00
(0.273000) can0 118#1067950000C834FF
(0.273000) can0 263#04000000A01C0000
(0.274000) can0 1E5#286C04000000209E
(0.275000) can0 257#1A9C5C5002482E01
(0.276000) can0 7AA#0B4E00284C004000
(0.279000) can0 2D1#FF01
(0.279000) can0 1D5#290000000000807F
(0.282000) can0 247#4D0EFF0D00BC0100
(0.283000) can0 132#7F8E90FE5D3D
(0.284000) can0 118#7168950000C894FF
(0.287000) can0 283#000000004000
(0.289000) can0 421#021A0000002000
(0.291000) can0 1D5#290000000000A09F
(0.293000) can0 3FD#02003C0000000090
(0.302000) can0 3C0#0300000000000000
(0.303000) can0 123#00001392D2000000
(0.304000) can0 118#246A950000C84400
(0.305000) can0 719#EE75620054630014
(0.305000) can0 221#610555550107407B
(0.310000) can0 6A1#0000000000
(0.310000) can0 3A3#16C00000380DFC01
(0.311000) can0 448#20001010000010
(0.312000) can0 6A2#0000000000
(0.313000) can0 1D8#29B4C0150000A02B
(0.314000) can0 1E5#286C04000000209E
(0.315000) can0 257#1C9E5C5002482E01
(0.315000) can0 407#0D02000000000000
(0.316000) can0 4E2#65018E13022F0000
(0.321000) can0 288#0106184C006051A6
(0.323000) can0 20C#4AB8391C1801000E
(0.325000) can0 1E5#286C0400000040BE
(0.327000) can0 27A#A8B7FC00B0056202
(0.329000) can0 2A8#01010000060000B2
(0.331000) can0 1D5#290000000000201F
(0.333000) can0 2E5#00000D320000DD00
(0.335000) can0 263#0200E0C60D373721
(0.338000) can0 1D6#02080000CAC02008
(0.339000) can0 428#20001010000010
(0.339000) can0 201#0138980000000000
(0.340000) can0 3E3#04000000
(0.341000) can0 757#3200000000000000
(0.344000) can0 2E5#00000D320000DD00
(0.344000) can0 241#7374D41C1D4500
(0.345000) can0 7D5#2B786FFF00000000
(0.346000) can0 553#00000000000080D8
(0.346000) can0 7D5#2C3F3F0000000000
(0.347000) can0 2E2#07D44F3F01000000
(0.348000) can0 7D7#321C000000000000
(0.351000) can0 2C1#0219160000D09201
(0.351000) can0 383#A518200025918309
(0.353000) can0 2E5#00000D320000DD00
(0.354000) can0 263#0300000000000000
(0.354000) can0 1E5#286C04000000209E
(0.355000) can0 2F1#0902000000580200
(0.358000) can0 423#00001000000000
(0.360000) can0 1D5#290000000000807F
(0.360000) can0 22B#FFFFFF070000FEFF
(0.361000) can0 2E1#1021040010000004
(0.362000) can0 2C4#16D6370700000001
(0.362000) can0 2E5#00000D320000DD00
(0.363000) can0 212#5904000081FF7731
(0.364000) can0 118#4960950000C874FF
(0.365000) can0 252#644B037B00FC0F00
(0.365000) can0 409#00
(0.366000) can0 2A4#3768010C98508661
(0.368000) can0 2F2#1201
(0.368000) can0 287#30323031D7020000
(0.369000) can0 712#0400000000000000
(0.370000) can0 2C1#531A900000000000
(0.371000) can0 677#0100000000000000
(0.373000) can0 2E5#00000E320000DD00
(0.373000) can0 1D8#29B4C015000060EB
(0.374000) can0 129#782FDC5FFF1FFF3F
(0.375000) can0 249#E20A0000
(0.375000) can0 23E#00003AC002FFCF0A
(0.378000) can0 2D1#FF01
(0.380000) can0 1D5#290000000000C0BF
(0.382000) can0 247#4C0EFF0C00BF0100
(0.382000) can0 132#7D8E92FE563D
(0.384000) can0 1E5#286C04000000007E
(0.387000) can0 261#CA291002805C02D9
(0.389000) can0 421#021A0000002000
(0.389000) can0 1D5#290000000000E0DF
(0.390000) can0 1BB#02
(0.393000) can0 3C0#0400000000000000
(0.393000) can0 2E1#026D66021D7C0000
(0.394000) can0 129#8A21DC5FFF1FFF3F
(0.397000) can0 3C8#0000000000000000
(0.397000) can0 103#22B38804A2F02032
(0.398000) can0 744#AA
(0.401000) can0 545#01000000001050AB
(0.401000) can0 2E8#0101000006003022
(0.402000) can0 2E5#00000D320000DD00
(0.403000) can0 1D8#29B4C0150000C04B
(0.404000) can0 243#01FC384638005C5C
(0.405000) can0 381#0700000000000000
(0.406000) can0 31A#200100000000C0FE
(0.409000) can0 6A1#0000000000
(0.409000) can0 1D5#290000000000201F
(0.410000) can0 2C1#D0687E00008A0200
(0.411000) can0 20E#170700
(0.411000) can0 677#0200000000000000
(0.412000) can0 2E5#00000D320000DD00
(0.413000) can0 118#8E65950000C8B4FF
(0.414000) can0 1E5#286C0400000060DE
(0.414000) can0 201#006E6E0000E4FF00
(0.415000) can0 393#0380610000000000
(0.416000) can0 23E#00003AC002FFDF1A
(0.417000) can0 3AE#FF3F00080000F037
(0.420000) can0 288#0106184C006061B6
(0.422000) can0 3A1#884C0FCA001862E7
(0.422000) can0 132#798E94FE653D
(0.423000) can0 1D8#29B6C0150000008D
(0.424000) can0 243#02FC9B0D05D50000
(0.424000) can0 25D#3741012A04F08803
(0.425000) can0 249#280B0000
(0.426000) can0 339#02F1FE008007800F
(0.427000) can0 45A#A4BFBEC05F304638
(0.427000) can0 2A8#01010000060010C2
(0.428000) can0 7AA#C0EB8E3C00088C29
(0.429000) can0 2C1#216B186402000000
(0.432000) can0 422#700010000000
(0.432000) can0 132#828E91FE593D
(0.434000) can0 118#8F67950000C8B4FE
(0.435000) can0 108#66B705DA02881825
(0.435000) can0 128#0000EC0A02
(0.436000) can0 2B3#AF032968ED0E6004
(0.437000) can0 340#0A00002000000000
(0.438000) can0 2C2#5563A80680C11AAA
(0.438000) can0 401#1E2A8B9487949094
(0.439000) can0 545#02000600000060B2
(0.440000) can0 285#61018E0308002E00
(0.441000) can0 682#00000040041190C5
(0.441000) can0 2E1#65800800FC51316A
(0.442000) can0 132#808E91FE573D
(0.443000) can0 1D8#29B6C015000040CD
(0.444000) can0 243#0300000028442500
(0.445000) can0 241#7474141D1D4500
(0.446000) can0 553#00000000000090E8
(0.447000) can0 405#1246333638353739
(0.447000) can0 7D5#3200000000000000
(0.448000) can0 7FF#06003200000000C0
(0.449000) can0 319#12605C1D2B1ADFCE
(0.450000) can0 2C1#0219160000D09201
(0.452000) can0 25B#D38000056A8620C3
(0.452000) can0 132#788E8DFE533D
(0.453000) can0 1D8#29B600160000602E
(0.454000) can0 266#18000F320F008601
(0.454000) can0 1E5#286C0400000060DE
(0.455000) can0 708#2A1F0A0000
(0.456000) can0 3AE#FF3F000800000047
(0.457000) can0 2E1#1021040010000004
(0.460000) can0 1D5#290000000000C0BF
(0.460000) can0 3E9#F08802210000A027
(0.463000) can0 3E9#008802000000B026
(0.463000) can0 243#04FC53F2AD7CFFFF
(0.464000) can0 118#736A950000C894FF
(0.465000) can0 252#644B037B00FC0F00
(0.465000) can0 22B#FFFFFF070000F0FF
(0.466000) can0 409#00
(0.467000) can0 39B#0314DF80B004E1A9
(0.468000) can0 3A2#0110200000000000
(0.468000) can0 360#0600000000000000
(0.469000) can0 3F5#0000C838830C0000
(0.470000) can0 2C1#531A900000000000
(0.471000) can0 782#37B680CA29385707
(0.472000) can0 132#7C8E8BFE573D
(0.473000) can0 1D8#29B800160000A070
(0.474000) can0 263#04000000A01C0000
(0.474000) can0 102#22B3480494FAA009
(0.475000) can0 37A#D20D000000000000
(0.478000) can0 2D1#FF01
(0.480000) can0 1D5#29000000000000FF
(0.482000) can0 261#CA291002805C6239
(0.482000) can0 132#718E8CFE4F3D
(0.483000) can0 1E5#286C0400000040BE
(0.484000) can0 118#456C950000C864FF
(0.487000) can0 283#000000004000
(0.489000) can0 421#021A0000002000
(0.491000) can0 1D5#290000000000201F
(0.494000) can0 677#0400000000000000
(0.496000) can0 1E5#286C0400000060DE
(0.498000) can0 22A#0000D916
(0.501000) can0 1D5#290000000000403F
(0.504000) can0 132#738E89FE433D
(0.508000) can0 70B#0900000000000000
(0.510000) can0 419#00
(0.512000) can0 3A3#18C00000380DFC01
(0.514000) can0 401#2200000000000000
(0.516000) can0 1E5#286C04000000209E
(0.518000) can0 4E2#00D3000000002800
(0.520000) can0 288#0106184C006071C6
(0.522000) can0 2E1#0400000000202600
(0.524000) can0 186#5209000200831825
(0.526000) can0 266#19000F320F008601
(0.526000) can0 45A#A4BFBEC05F304639
(0.527000) can0 2A8#01010000060020D2
(0.530000) can0 261#0522E3C99A429035
(0.530000) can0 422#700010000000
(0.531000) can0 77A#00DC77FF0813785B
(0.532000) can0 78A#0100060003000000
(0.532000) can0 3A2#602573B41C00426F
(0.533000) can0 1D8#29BC8016000060B4
(0.534000) can0 1E5#286C0400000060DE
(0.535000) can0 257#E6795C4F02382E01
(0.535000) can0 23E#00003AC002FF0F4A
(0.536000) can0 279#2BB8FC01B0056502
(0.537000) can0 397#030000751A140000
(0.538000) can0 39D#276BF52700
(0.539000) can0 757#3200000000000000
(0.540000) can0 293#020C559055141F10
(0.541000) can0 3C3#0000000000A50000
(0.544000) can0 2E5#00000D320000DD00
(0.544000) can0 241#7574541D1D4500
(0.545000) can0 7D5#2B746FFF00000000
(0.546000) can0 553#000000000000A0F8
(0.546000) can0 7D5#3200000000000000
(0.547000) can0 458#00002000000000
(0.550000) can0 2C1#0219160000D09201
(0.550000) can0 25B#D38000056A8630D3
(0.551000) can0 383#A518200025918309
(0.552000) can0 2E5#00000D320000DD00
(0.553000) can0 372#0C0000FF0F000000
(0.554000) can0 129#8A21DC5FFF1FFF3F
(0.555000) can0 2E1#1021040010000004
(0.556000) can0 3AE#FF3F000800003178
(0.558000) can0 423#00001000000000
(0.560000) can0 1D5#29000000000000FF
(0.560000) can0 379#03C00E4833B92200
(0.561000) can0 261#314005009649BA05
(0.562000) can0 2C4#19C27C030D1C2003
(0.562000) can0 2E5#00000D320000DD00
(0.563000) can0 212#5904000081FF7731
(0.564000) can0 118#0D64950000C834FF
(0.565000) can0 252#644B027B00FC0F00
(0.565000) can0 22B#FFFFFF070000E0FF
(0.567000) can0 2C3#0000C04B010040CB
(0.568000) can0 360#0700000000000000
(0.568000) can0 545#900453709990A973
(0.569000) can0 1D5#290000000000201F
(0.570000) can0 677#0100000000000000
(0.573000) can0 3A1#C1FFFF373D009083
(0.573000) can0 266#19000F320F008601
(0.574000) can0 129#BD23DC5F0020FF3F
(0.575000) can0 249#AF0E0000
(0.575000) can0 23E#00003AC002FF1F5A
(0.578000) can0 2D1#FF01
(0.580000) can0 1D5#290000000000403F
(0.582000) can0 122#01000000003F0000
(0.582000) can0 132#758E80FE403D
(0.583000) can0 1E5#286C04000000007E
(0.585000) can0 118#6F66950000C894FF
(0.585000) can0 283#000000004000
(0.586000) can0 7A8#01000000FFA1C812
(0.587000) can0 441#CF00B6C35800252E
(0.590000) can0 421#021A0000002000
(0.590000) can0 2C1#0400000000000000
(0.591000) can0 3C0#0600000000000000
(0.592000) can0 2E5#00000D320000DD00
(0.592000) can0 285#2445605872000000
(0.593000) can0 261#BB4C0A000040D51C
(0.594000) can0 266#190010320F008601
(0.595000) can0 257#E97C5C4F02382E01
(0.595000) can0 3AE#FF3F000800004188
(0.596000) can0 22A#0000D916
(0.598000) can0 3E2#040000610FCF00
(0.601000) can0 1D5#290000000000807F
(0.601000) can0 2E8#0101000006005042
(0.602000) can0 2E5#00000D320000DD00
(0.603000) can0 1D8#29C0C016000040D8
(0.603000) can0 243#01FC394638005C5C
(0.604000) can0 129#AF26DD5F0120FF3F
(0.605000) can0 221#610555550107A0DB
(0.610000) can0 6A1#0000000000
(0.610000) can0 2F9#BCFB071800000000
(0.611000) can0 448#20001010000010
(0.612000) can0 788#01000000FFA1D812
(0.612000) can0 132#6C8E7EFE2C3D
(0.613000) can0 1D8#29C0001700006039
(0.615000) can0 1E5#286C0400000060DE
(0.615000) can0 22B#FFFFFF070000E0FF
(0.616000) can0 4E2#013B0EFF0F002800
(0.617000) can0 2E1#0400000000202600
(0.618000) can0 39D#296DF52700
(0.620000) can0 1D5#290000000000C0BF
(0.622000) can0 381#0D00000000000000
(0.622000) can0 186#330A000200631825
(0.623000) can0 1D8#29C0001700008059
(0.624000) can0 21D#0400B50000000000
(0.624000) can0 25D#3741012A04F08803
(0.625000) can0 249#CE0F0000
(0.626000) can0 31E#0000000000000000
(0.627000) can0 420#2801404B00000004
(0.628000) can0 54F#0000000000000000
(0.629000) can0 2C1#216B186402000000
(0.632000) can0 545#020004000000C010
(0.632000) can0 2E5#00000D320000DD00
(0.633000) can0 1D8#29C200170000A07B
(0.634000) can0 108#E319061203691825
(0.634000) can0 126#2DB02F4C7F
(0.635000) can0 263#0200E0C60D373721
(0.636000) can0 2E1#65800800FC51316A
(0.637000) can0 343#0092642E96000000
(0.637000) can0 2C2#5563A80680C11AAA
(0.638000) can0 682#000000400411B0E5
(0.639000) can0 201#0138980000000000
(0.640000) can0 3C3#5555550100000000
(0.641000) can0 3CC#03218318000E0900
(0.642000) can0 2E5#00000D320000DD00
(0.643000) can0 324#4347A8D09E010000
(0.643000) can0 1E5#286C0400000040BE
(0.644000) can0 118#356C950000C854FF
(0.645000) can0 266#1A0010320F008701
(0.646000) can0 113#019701
(0.646000) can0 553#000000000000B008
(0.647000) can0 3A8#00FF000000000000
(0.648000) can0 7D7#321C000000000000
(0.651000) can0 2E1#1021040010000004
(0.651000) can0 383#A518200025918309
(0.652000) can0 2E5#00000D320000DD00
(0.653000) can0 118#566D950000C874FF
(0.653000) can0 1E5#286C0400000060DE
(0.656000) can0 263#0300000000000000
(0.658000) can0 7AA#2323FA650813001C
(0.660000) can0 1D5#290000000000403F
(0.662000) can0 379#0400440A800D0000
(0.664000) can0 264#3D000000A000
(0.666000) can0 129#742CDD5F0120FF3F
(0.668000) can0 2C3#555BA9B682C112AA
(0.670000) can0 3F5#0000C838830C0000
(0.672000) can0 400#00E0FBBEEFFB00
(0.673000) can0 261#CA291002805C22F9
(0.674000) can0 129#CB2DDD5F0020FF3F
(0.675000) can0 249#9B000000
(0.675000) can0 37A#D00D000000000000
(0.678000) can0 2D1#FF01
(0.679000) can0 1D5#290000000000807F
(0.682000) can0 2E1#026D66021D7B0000
(0.682000) can0 132#738E74FE1D3D
(0.683000) can0 1E5#286C0400000040BE
(0.684000) can0 118#B960950000C8E4FF
(0.687000) can0 283#000000004000
(0.689000) can0 421#021A0000002000
(0.691000) can0 1D5#290000000000A09F
(0.693000) can0 3FD#0000003C20000180
(0.702000) can0 718#00000000000000
(0.703000) can0 123#00001392D2000000
(0.704000) can0 118#CA62950000C8F4FE
(0.705000) can0 34A#0207000000000090
(0.705000) can0 221#610555550107C0FB
(0.709000) can0 6A1#0000000000
(0.709000) can0 1D5#290000000000E0DF
(0.710000) can0 2F9#BCFB072000000000
(0.711000) can0 20E#120200
(0.711000) can0 6A2#0000000000
(0.712000) can0 132#6C8E70FE2A3D
(0.713000) can0 118#4C63950000C874FF
(0.714000) can0 1E5#286C04000000209E
(0.714000) can0 263#89E6D1AFAF4F5F1F
(0.715000) can0 393#080002C107B00304
(0.718000) can0 4E2#025D040000002800
(0.720000) can0 288#0106184C006091E6
(0.720000) can0 3AE#FF3F0008000091D8
(0.721000) can0 261#0522E3C99A4250F5
(0.722000) can0 3A1#884C0FCA0014C243
(0.723000) can0 195#000000000A002706
(0.724000) can0 118#BD64950000C8E4FF
(0.725000) can0 229#F60A00
(0.725000) can0 31E#0100000000000000
(0.726000) can0 396#091E1F52545E0F7D
(0.727000) can0 54F#0000000000000000
(0.728000) can0 4E3#0474808705600000
(0.731000) can0 2E1#65800800FC51316A
(0.731000) can0 78A#01000100AC5C785D
(0.732000) can0 2E5#00000D320000DD00
(0.733000) can0 757#3200000000000000
(0.733000) can0 263#0200E0C60D373721
(0.734000) can0 129#D423DC5FFF1FFF3F
(0.735000) can0 128#0000EC0A02
(0.736000) can0 1D6#02080000CAC02008
(0.737000) can0 261#00100A00FF4F60BE
(0.738000) can0 119#00000000
(0.739000) can0 682#000000400411C0F5
(0.739000) can0 1D5#290000000000403F
(0.740000) can0 3C3#0000000000A50000
(0.741000) can0 3FD#01000A0000080280
(0.743000) can0 2F3#07070B0400600002
(0.743000) can0 7E8#125C0AD0266F00AE
(0.744000) can0 129#3B24DC5F0020FF3F
(0.745000) can0 439#0000000000185A04
(0.746000) can0 113#019701
(0.746000) can0 7D5#2B706FFF00000000
(0.747000) can0 7D5#3200000000000000
(0.749000) can0 7D7#321D000000000000
(0.749000) can0 1D5#290000000000605F
(0.750000) can0 25B#D38000056A8650F3
(0.751000) can0 383#A518200025918309
(0.758000) can0 2E5#00000D320000DD00
(0.763000) can0 1D5#290000000000807F
(0.765000) can0 1E5#286C0400000040BE
(0.767000) can0 266#1C00103310008601
(0.769000) can0 3A2#0110200000000000
(0.771000) can0 1D5#290000000000A09F
(0.773000) can0 2E5#00000D320000DD00
(0.775000) can0 266#1C00103310008601
(0.778000) can0 23E#00003AC002FF6FAA
(0.780000) can0 1D5#290000000000C0BF
(0.781000) can0 122#01000000003F0000
(0.782000) can0 2E5#00000D320000DD00
(0.783000) can0 247#4A0EFF0C00C10100
(0.783000) can0 243#00FCCFCC90440D29
(0.784000) can0 129#5F28DC5FFF1FFF3F
(0.785000) can0 261#BB4C0A00004095DC
(0.786000) can0 6C8#247C00F412200C00
(0.788000) can0 441#CE00B6C35800353D
(0.788000) can0 272#080003E107B00304
(0.789000) can0 2C1#0400000000000000
(0.790000) can0 201#0300000000000000
(0.793000) can0 3C0#0800000000000000
(0.793000) can0 263#700ED29FA74F5F1F
(0.794000) can0 129#6329DC5F0020FF3F
(0.796000) can0 2E1#FB1F98B997900900
(0.796000) can0 294#14C1400040000000
(0.797000) can0 3C2#0055555500006A05
(0.800000) can0 3FD#02003C0000000090
(0.802000) can0 1D5#29000000000000FF
(0.802000) can0 132#608E51FEDE3C
(0.803000) can0 1E5#286C0400000040BE
(0.804000) can0 2AA#57D0D3
(0.804000) can0 266#1C00103210008601
(0.805000) can0 211#BD19710F1001
(0.806000) can0 7AA#1522880C50081300
(0.809000) can0 6A1#0000000000
(0.809000) can0 1D5#290000000000201F
(0.810000) can0 2C1#D0687E00008A0200
(0.811000) can0 20E#130300
(0.812000) can0 677#0200000000000000
(0.813000) can0 1D8#29D880190000E053
(0.814000) can0 1E5#286C0400000060DE
(0.814000) can0 257#CC675C4F02302E01
(0.815000) can0 393#0380610000000000
(0.818000) can0 4E2#03B0010000002800
(0.820000) can0 1D5#290000000000403F
(0.820000) can0 3AE#FF3F00080000C007
(0.821000) can0 3A1#884C0FCA0018E267
(0.822000) can0 2E5#00000D320000DD00
(0.822000) can0 2D3#F5005C03280E2543
(0.823000) can0 1D8#29D8C019000000B3
(0.824000) can0 243#02FC9B0D05D50000
(0.825000) can0 21D#0400B50000000000
(0.826000) can0 266#1C00103310008601
(0.827000) can0 300#1278CEA87F02F3C3
(0.828000) can0 2A8#0101000006005002
(0.829000) can0 472#FF1CC221007FFF07
(0.829000) can0 545#020003000000206F
(0.830000) can0 3A2#604573B61C80426F
(0.831000) can0 422#700010000000
(0.831000) can0 75D#0100000000000080
(0.832000) can0 2E5#00000D320000DD00
(0.833000) can0 757#2C003E0000000000
(0.834000) can0 261#00100A00FF4FC01E
(0.834000) can0 129#3F2DDC5F0020FF3F
(0.835000) can0 257#CD685C4F02302E01
(0.836000) can0 268#1D109901FF
(0.837000) can0 343#009260EE95000000
(0.838000) can0 119#00000000
(0.839000) can0 441#4085890032003821
(0.840000) can0 238#9835F6301E00024D
(0.840000) can0 1D5#290000000000807F
(0.841000) can0 3C3#5555550100000000
(0.842000) can0 2E1#1021040010000004
(0.843000) can0 1D8#29DC401A00004078
(0.843000) can0 243#0300000028442500
(0.844000) can0 129#E02EDC5F0020FF3F
(0.845000) can0 439#0000000000185A04
(0.846000) can0 553#000000000000D028
(0.846000) can0 7D5#3200000000000000
(0.847000) can0 7FF#0191494642041601
(0.851000) can0 261#314008009649DA28
(0.851000) can0 383#A518200025918309
(0.852000) can0 2E5#00000D320000DD00
(0.853000) can0 118#4A61950000C874FF
(0.853000) can0 1E5#286C0400000060DE
(0.854000) can0 263#0300000000000000
(0.855000) can0 2F1#AE008021C4012804
(0.858000) can0 2E1#398D2AFF0F000000
(0.860000) can0 1D5#290000000000C0BF
(0.860000) can0 379#0600ABBB800D0000
(0.861000) can0 545#E0045860998F3947
(0.862000) can0 2C4#020001D200000000
(0.862000) can0 204#010000FF00000010
(0.863000) can0 1E5#286C04000000007E
(0.865000) can0 118#9B62950000C8C4FF
(0.866000) can0 212#5904000081FF7731
(0.866000) can0 287#30323031D6020000
(0.867000) can0 2F2#1201
(0.868000) can0 360#0A00000000000000
(0.868000) can0 42E#00E0BFFFFEEFBFFF
(0.869000) can0 2C1#531A900000000000
(0.872000) can0 22B#FFFFFF0700000080
(0.872000) can0 132#5E8E44FEC13C
(0.873000) can0 1D8#29DEC01A0000A05A
(0.874000) can0 257#CF6A5C4F02302E01
(0.874000) can0 102#22B3480494FAA009
(0.875000) can0 37A#D20D000000000000
(0.878000) can0 2D1#FF01
(0.879000) can0 1D5#29000000000000FF
(0.882000) can0 3AE#FE3F00080000E026
(0.882000) can0 132#588E4AFEC13C
(0.883000) can0 1D8#29DEC01A0000C07A
(0.884000) can0 118#3E64950000C86400
(0.887000) can0 283#000000004000
(0.889000) can0 421#021A0000002000
(0.891000) can0 1D5#290000000000201F
(0.893000) can0 284#300000004008D0CE
(0.895000) can0 266#1D00103310008601
(0.897000) can0 23E#00003AC002FF9FDA
(0.899000) can0 103#22B38804A2F02032
(0.903000) can0 2E8#0101000006008072
(0.903000) can0 2AA#57E0E3
(0.904000) can0 118#8F66950000C8B4FF
(0.905000) can0 719#0CD30F005A0A6000
(0.910000) can0 6A1#0000000000
(0.910000) can0 381#1580566E6E000001
(0.911000) can0 448#20001010000010
(0.912000) can0 788#01000000FFA1D812
(0.912000) can0 132#4B8E47FED93C
(0.913000) can0 1D8#29E0C01A000020DC
(0.914000) can0 266#1D00103310008601
(0.915000) can0 201#006F6E0000E4FF00
(0.915000) can0 393#080003C107B00304
(0.916000) can0 4E2#04D6200D19780100
(0.921000) can0 1D5#290000000000807F
(0.921000) can0 2E1#65800800FC51316A
(0.922000) can0 2E5#00000D320000DD00
(0.924000) can0 1A5#00101F683D
(0.924000) can0 129#F626DC5F0020FF3F
(0.925000) can0 25D#3741012A04F08803
(0.926000) can0 31E#0300000000000000
(0.926000) can0 420#2801404B00008005
(0.927000) can0 552#00000000000050A7
(0.928000) can0 545#020003000000509F
(0.931000) can0 261#00100A00FF4F207E
(0.933000) can0 2E5#00000D320000DD00
(0.933000) can0 1D8#29E2001B0000605F
(0.934000) can0 108#9A1C07BA03741825
(0.935000) can0 126#34D83064C7
(0.935000) can0 1D6#02080000CAC02008
(0.936000) can0 279#2FBCFC01B0056502
(0.938000) can0 395#090F125E0C05047D
(0.938000) can0 441#40858900320000E9
(0.939000) can0 201#0138980000000000
(0.942000) can0 207#0000000000000000
(0.944000) can0 285#61018E0308002E00
(0.944000) can0 118#936A950000C8B4FF
(0.945000) can0 241#7574541D1D4500
(0.946000) can0 261#3140100095493A8F
(0.946000) can0 348#1600019C25070110
(0.947000) can0 414#1133535459323530
(0.948000) can0 2E2#E211194959490900
(0.949000) can0 7D5#2B6B6FFF00000000
(0.949000) can0 7D5#2C3F3F0000000000
(0.950000) can0 7FF#024612289C5181C2
(0.952000) can0 1D5#290000000000E0DF
(0.952000) can0 401#062A599464945694
(0.953000) can0 266#1E00113310008701
(0.954000) can0 129#6329DC5F0020FF3F
(0.955000) can0 2E1#398D2AFF0F000000
(0.955000) can0 221#60555515545111F8
(0.956000) can0 719#0D00000000000000
(0.957000) can0 423#00001000000000
(0.960000) can0 1D5#29000000000000FF
(0.960000) can0 242#55558600
(0.961000) can0 261#CA291002805C4219
(0.962000) can0 39B#0314DF80B004F1B9
(0.962000) can0 132#428E36FEA03C
(0.963000) can0 1D8#29E4801B0000C041
(0.965000) can0 243#04FC53F2AD7CFFFF
(0.966000) can0 287#30323031D6020000
(0.966000) can0 2C3#0000C04B010040CB
(0.967000) can0 392#000B000000000000
(0.968000) can0 3F5#0000C838820C0000
(0.969000) can0 7AA#073CFE37FE0CFD48
(0.969000) can0 1D5#290000000000201F
(0.970000) can0 677#0100000000000000
(0.971000) can0 400#00E0FBBEEFFB00
(0.974000) can0 2E5#00000D320000DD00
(0.974000) can0 129#E02BDC5F0120FF3F
(0.975000) can0 257#D46F5C4F02302E01
(0.976000) can0 45A#FD07F8FF03000747
(0.979000) can0 2D1#FF01
(0.980000) can0 1D5#290000000000403F
(0.983000) can0 381#1700000000000000
(0.983000) can0 243#00FCCFCC90440D29
(0.984000) can0 129#802CDC5F0120FF3F
(0.985000) can0 363#0B01010401000000
(0.985000) can0 283#000000004000
(0.988000) can0 441#CC00B6C35800050B
(0.990000) can0 272#080002E107B00304
(0.992000) can0 443#770CFF030000
(0.994000) can0 401#082A709464946094
(0.996000) can0 1E5#286C04000000209E
(0.998000) can0 22A#0000D916
(1.000000) can0 1D5#290000000000807F
(1.003000) can0 2E1#0400000000202600
(1.007000) can0 129#4D2EDC5F0120FF3F
(1.010000) can0 6A1#0000000000
(1.013000) can0 2F9#BCFB070800000000
(1.015000) can0 1D8#29E6801B000060E3
(1.017000) can0 393#0380610000000000
(1.019000) can0 381#1800000000000000
(1.021000) can0 288#0106184C0060C116
(1.023000) can0 3FD#0000003C20000180
(1.029000) can0 3A1#884C0FCA001822A7
(1.029000) can0 1D5#290000000000E0DF
(1.030000) can0 552#00000000000060B7
(1.031000) can0 1F9#0000000000000000
(1.032000) can0 78A#01000400CE06A100
(1.032000) can0 320#0100000800000000
(1.033000) can0 266#1F00103310008701
(1.035000) can0 257#AF525C4F02282E01
(1.035000) can0 268#1E119901FF
(1.036000) can0 2E1#1021040010000004
(1.037000) can0 376#105F55585056B07D
(1.038000) can0 2C2#5563A80680C11AAA
(1.038000) can0 376#FBFFFBFFFB0F5005
(1.039000) can0 401#0A2A6C9464946594
(1.040000) can0 201#0138980000000000
(1.041000) can0 293#020C559055142F20
(1.041000) can0 557#5A6E190002
(1.042000) can0 356#0000000000000000
(1.043000) can0 357#0000000000000000
(1.044000) can0 35A#0000000000000000
(1.044000) can0 118#6D64950000C894FF
(1.046000) can0 266#1F00103310008601
(1.047000) can0 757#2C3F3E0000000000
(1.047000) can0 7FF#0301082861428001
(1.048000) can0 285#034A7D5277000000
(1.049000) can0 757#48595B000040D65B
(1.050000) can0 7D5#2C3F3F0000000000
(1.050000) can0 1D5#290000000000201F
(1.051000) can0 25B#D38000056A868023
(1.052000) can0 2E5#00000D320000DD00
(1.052000) can0 118#AD65950000C8D4FE
(1.053000) can0 266#1E00103310008601
(1.054000) can0 129#C623D95FFA1FFF3F
(1.055000) can0 719#0300000000000000
(1.055000) can0 23E#00003AC002FFDF1A
(1.057000) can0 261#CA291002805CA279
(1.060000) can0 545#E0045360998F99A2
(1.060000) can0 3A2#0110200000000000
(1.063000) can0 2C4#0400000000C0C04D
(1.063000) can0 1E5#286C04000000007E
(1.064000) can0 118#7F66950000C8A4FF
(1.065000) can0 252#634B027B00FC0F00
(1.065000) can0 292#27F2F7E28A010000
(1.066000) can0 2D2#F32EAE4E8813E822
(1.067000) can0 3F5#0000C838820C0000
(1.068000) can0 3F5#0000C838830C0000
(1.071000) can0 2C1#531A900000000000
(1.071000) can0 2E3#0100002B020B00
(1.073000) can0 3FD#01000A0000080280
(1.075000) can0 2E5#00000D320000DD00
(1.075000) can0 257#B1545C4F02282E01
(1.076000) can0 401#0C2A679462946F94
(1.077000) can0 2D1#FF01
(1.080000) can0 3E2#040000610FCF00
(1.082000) can0 2E1#FB1F97B9978B0900
(1.082000) can0 247#480EFF0D00BF0100
(1.083000) can0 1D8#29E8C01B00004005
(1.084000) can0 118#5168950000C874FF
(1.088000) can0 283#000000004000
(1.092000) can0 272#0380610000000000
(1.096000) can0 132#468E37FEB83C
(1.100000) can0 39A#080FEB720B2BEF7E
(1.104000) can0 2E8#010100000600A092
(1.110000) can0 129#A828D85FF61FFF3F
(1.111000) can0 3A3#14C00000380DFC01
(1.112000) can0 132#4C8E32FE983C
(1.113000) can0 1D8#29EA001C0000A0A8
(1.114000) can0 1E5#286C04000000209E
(1.114000) can0 201#006E6E0000E4FF00
(1.115000) can0 7AA#09FB06FB06010000
(1.116000) can0 3AE#F73F00080000508F
(1.117000) can0 4E2#0600000000000000
(1.121000) can0 1D5#29000000000000FF
(1.121000) can0 20C#4BB8391C1801000E
(1.122000) can0 132#3F8E2AFE863C
(1.123000) can0 1D8#29EC001C0000C0CA
(1.123000) can0 3FD#02003C0000000090
(1.131000) can0 21D#0400B50000000000
(1.132000) can0 2E5#00000D320000DD00
(1.132000) can0 372#05493B1500000000
(1.133000) can0 1D8#29EC401C0000E02A
(1.134000) can0 266#1F00113310008601
(1.135000) can0 1E5#286C0400000060DE
(1.135000) can0 1D6#02080000CAC02008
(1.136000) can0 279#31BEFC01B0056502
(1.137000) can0 397#032080741C180000
(1.138000) can0 39D#266AF52700
(1.138000) can0 441#40858900320010F9
(1.139000) can0 757#3200000000000000
(1.140000) can0 473#0000030000000000
(1.141000) can0 3C3#0000000000A50000
(1.142000) can0 2E5#00000D320000DD00
(1.143000) can0 1D8#29EE801C0000008C
(1.144000) can0 118#C76E950000C8E4FF
(1.144000) can0 241#7474141D1D4500
(1.145000) can0 315#1862556D5056D38B
(1.146000) can0 553#0000000000000058
(1.147000) can0 458#00002000000000
(1.147000) can0 2E2#F713504001000000
(1.148000) can0 315#04673D7202565565
(1.149000) can0 7D5#2C3F3F0000000000
(1.150000) can0 7D5#3200000000000000
(1.150000) can0 7D7#321E000000000000
(1.151000) can0 7D5#42F8008A00002800
(1.152000) can0 3B5#0000000000000000
(1.153000) can0 7D5#449A505E5D440042
(1.154000) can0 261#CA291002805C02D9
(1.155000) can0 263#0300000000000000
(1.156000) can0 2B3#0A2E0E0005000002
(1.156000) can0 221#6055551554515138
(1.157000) can0 368#0000000000000000
(1.158000) can0 7D5#465C5B695B40595A
(1.159000) can0 423#00001000000000
(1.159000) can0 3A2#0110200000000000
(1.160000) can0 242#55558600
(1.163000) can0 2E1#026D66021D7D0000
(1.163000) can0 264#3D000000A000
(1.164000) can0 118#2A60950000C85400
(1.165000) can0 252#634B017B00FC0F00
(1.166000) can0 3AE#F73F0008000071B0
(1.167000) can0 352#02C805C50548703C
(1.168000) can0 360#0200000000000000
(1.171000) can0 261#BB4C0A000040155C
(1.171000) can0 303#0DF9BE482A000000
(1.172000) can0 132#398E28FE7C3C
(1.173000) can0 118#1B61950000C84400
(1.173000) can0 263#04000000A01C0000
(1.174000) can0 257#B6595C4F02282E01
(1.175000) can0 37A#B10C000000000000
(1.176000) can0 22B#FFFFFF0FC0FF1F00
(1.179000) can0 2D1#FF01
(1.179000) can0 1D5#290000000000C0BF
(1.182000) can0 122#01000000003F0000
(1.183000) can0 247#470EFF0D00C10100
(1.184000) can0 118#9B62950000C8C4FF
(1.187000) can0 261#D401D84B00402452
(1.189000) can0 421#021A0000002000
(1.189000) can0 1D5#290000000000E0DF
(1.190000) can0 334#3F3F1408FF01D2A3
(1.191000) can0 3FD#0000003C20000180
(1.193000) can0 307#000000000000003B
(1.193000) can0 266#2000113310008601
(1.194000) can0 129#4221D85F0020FF3F
(1.195000) can0 2E1#0400000000202600
(1.196000) can0 405#1246333638353739
(1.196000) can0 55A#0200000000000000
(1.197000) can0 3C2#0055555500006A05
(1.199000) can0 103#22B38804A2F02032
(1.202000) can0 261#0522E3C99A4230D5
(1.202000) can0 2E5#00000D320000DD00
(1.203000) can0 554#D08403051ED000
(1.204000) can0 123#01000000003F0000
(1.204000) can0 129#0B22D85F0020FF3F
(1.205000) can0 118#FE64950000C82400
(1.206000) can0 386#0000000000000000
(1.207000) can0 717#000500E9FF2400
(1.207000) can0 384#0000000000000000
(1.208000) can0 719#1619002677010000
(1.209000) can0 1D5#290000000000201F
(1.210000) can0 289#C80A864286003D0F
(1.210000) can0 2F9#BCFB071800000000
(1.212000) can0 281#1F00FF1F0001
(1.213000) can0 401#132A79946C946894
(1.213000) can0 266#2000113311008601
(1.214000) can0 129#1C23D85F0020FF3F
(1.215000) can0 2B3#0B43FEFEFF01A014
(1.216000) can0 23E#00003AC002FF1F5A
(1.218000) can0 3F9#0000000000000000
(1.220000) can0 1D5#290000000000403F
(1.222000) can0 3A1#884C0FCA001862E7
(1.222000) can0 186#4800000200821825
(1.223000) can0 1D8#29F2001D00000011
(1.224000) can0 243#02FC9B0D05D50000
(1.224000) can0 25D#3741012A04F08803
(1.225000) can0 27A#B2B00C01B0056202
(1.227000) can0 3AE#F73F0008000090CF
(1.228000) can0 2A8#0101000006009042
(1.228000) can0 545#020003000000E02F
(1.229000) can0 75D#0300800000000000
(1.230000) can0 2C1#216B186402000000
(1.230000) can0 78A#0100060003000000
(1.233000) can0 2E5#00000D320000DD00
(1.233000) can0 261#3140330096495AD3
(1.234000) can0 108#219F07CA03681825
(1.235000) can0 126#38E82F7CF2
(1.235000) can0 1D6#02080000CAC02008
(1.236000) can0 279#32BFFC01B0056502
(1.237000) can0 395#090F125E0C04047D
(1.238000) can0 2C2#5563A80680C11AAA
(1.239000) can0 682#0000004004111045
(1.240000) can0 3C3#5555550100000000
(1.241000) can0 3FD#01000A0000080280
(1.244000) can0 33A#79D40383FDFF3761
(1.244000) can0 241#7474141D1D4500
(1.245000) can0 7D5#2B696FFF00000000
(1.246000) can0 113#019701
(1.246000) can0 7D5#3200000000000000
(1.247000) can0 3A8#0300000000000000
(1.250000) can0 261#CA291002805C6239
(1.252000) can0 25B#D38000056A86A043
(1.252000) can0 372#0700000000000000
(1.253000) can0 1D8#29F4401D000060B3
(1.259000) can0 129#4027D85F0020FF3F
(1.264000) can0 242#55558600
(1.266000) can0 129#6828D75F0020FF3F
(1.268000) can0 2C3#555BA9B682C112AA
(1.270000) can0 1D5#290000000000E0DF
(1.272000) can0 400#00E0FBBEEFFB00
(1.274000) can0 132#348E1DFE783C
(1.276000) can0 263#04000000A01C0000
(1.279000) can0 2D1#FF01
(1.279000) can0 225#5555FA00
(1.280000) can0 3AE#F63F00080000B0EE
(1.281000) can0 261#D401D84B004084B2
(1.282000) can0 359#2D00000000000000
(1.284000) can0 1D8#29F4401D0000C013
(1.284000) can0 129#8B2AD75FFF1FFF3F
(1.285000) can0 283#000000004000
(1.288000) can0 441#CA00B6C358001D21
(1.290000) can0 272#0380610000000000
(1.292000) can0 3FD#02003C0000000090
(1.296000) can0 321#9A8EAA7B027B806E
(1.298000) can0 40A#091000000000C0E7
(1.300000) can0 1D5#290000000000403F
(1.302000) can0 2E8#010100000600C0B2
(1.304000) can0 1F8#3A000000
(1.305000) can0 2E1#65800800FD51316A
(1.306000) can0 399#000000
(1.309000) can0 6A1#0000000000
(1.309000) can0 1D5#290000000000605F
(1.310000) can0 289#C80A8682A1003D0F
(1.311000) can0 448#20001010000010
(1.311000) can0 6A2#0000000000
(1.313000) can0 132#348E1BFE723C
(1.314000) can0 266#2000113311008701
(1.314000) can0 1E5#286C04000000209E
(1.315000) can0 407#0F04000000000000
(1.318000) can0 4E2#013B0E0100002800
(1.320000) can0 1D5#290000000000807F
(1.322000) can0 3AE#F63F00080000C0FE
(1.324000) can0 186#2D01000200661825
(1.326000) can0 129#FA2ED55FFB1FFF3F
(1.328000) can0 396#091E1F52505B0F7D
(1.330000) can0 552#00000000000090E7
(1.332000) can0 422#700010000000
(1.334000) can0 401#192A60945F945E94
(1.336000) can0 129#0B2FD55FFB1FFF3F
(1.338000) can0 395#090F125E0C05047D
(1.339000) can0 441#4085890032002009
(1.339000) can0 727#0600
(1.340000) can0 201#0138980000000000
(1.341000) can0 3E3#04000000
(1.343000) can0 2E5#00000D320000DD00
(1.343000) can0 243#0300000028442500
(1.344000) can0 129#EE20D55FFB1FFF3F
(1.345000) can0 439#0000000000185A04
(1.345000) can0 553#0000000000002078
(1.346000) can0 7D5#2C3F3F0000000000
(1.347000) can0 7FF#06003200000000C0
(1.348000) can0 7D5#3200000000000000
(1.351000) can0 1D5#290000000000E0DF
(1.352000) can0 383#A518200025818309
(1.353000) can0 1D8#29F6C01D0000A075
(1.354000) can0 1FA#3AC001
(1.354000) can0 263#0300000000000000
(1.355000) can0 2F1#00DA248142001600
(1.358000) can0 545#900458E09993296B
(1.360000) can0 1D5#29000000000000FF
(1.360000) can0 3AE#F43F00080000E11D
(1.361000) can0 261#BB4C0A000040D51C
(1.362000) can0 204#010000FF00000010
(1.362000) can0 224#0408004019011008
(1.363000) can0 1E5#286C0400000040BE
(1.364000) can0 118#7D64950000C8A4FF
(1.365000) can0 252#634B017B00FC0F00
(1.366000) can0 292#27F2F7E28A010000
(1.367000) can0 3A4#0100000000000000
(1.368000) can0 360#0400000000000000
(1.371000) can0 2E1#FB1F99B997910900
(1.373000) can0 2E5#00000D320000DD00
(1.373000) can0 1D8#29F6C01D0000E0B5
(1.374000) can0 129#FE23D45FFA1FFF3F
(1.375000) can0 249#AF0E0000
(1.375000) can0 23E#00003AC002FF5F9A
(1.378000) can0 2D1#FF01
(1.380000) can0 1D5#290000000000403F
(1.382000) can0 122#01000000003F0000
(1.384000) can0 1D8#29F6801D00000095
(1.384000) can0 129#D524D45FFB1FFF3F
(1.385000) can0 2E1#0400000000202600
(1.387000) can0 7A8#BCCCB18300008200
(1.389000) can0 421#021A0000002000
(1.389000) can0 201#0300000000000000
(1.390000) can0 284#300000004008E0DE
(1.391000) can0 3A2#22A7FFFF03000000
(1.394000) can0 2E5#00000D320000DD00
(1.394000) can0 1E5#286C04000000209E
(1.395000) can0 3C8#0300000000000000
(1.396000) can0 39A#95FFFDFDFD01000A
(1.396000) can0 3C2#0055555500006A05
(1.397000) can0 103#22B38804A2F02032
(1.398000) can0 744#AA
(1.401000) can0 1D5#290000000000807F
(1.401000) can0 709#1E00000000000000
(1.403000) can0 132#418E19FE663C
(1.404000) can0 123#01000000003F0000
(1.404000) can0 129#2A26D45FFC1FFF3F
(1.405000) can0 221#610555550107A0DB
(1.410000) can0 6A1#0000000000
(1.410000) can0 2F9#BCFB072800000000
(1.411000) can0 448#20001010000010
(1.412000) can0 788#BCD4B1830000B600
(1.412000) can0 132#3F8E16FE673C
(1.413000) can0 1D8#29F6C01D00006035
(1.414000) can0 266#2000113311008501
(1.415000) can0 201#006E6E0000E4FF00
(1.415000) can0 393#0380610000000000
(1.416000) can0 4E2#025D040000002800
(1.418000) can0 3F9#0200000000000000
(1.421000) can0 1D5#290000000000C0BF
(1.421000) can0 20C#4BB8391C1801000E
(1.422000) can0 186#12020002004A1825
(1.423000) can0 545#0200050000004091
(1.423000) can0 1E5#286C04000000007E
(1.424000) can0 129#9F28D45FFE1FFF3F
(1.425000) can0 25D#3741012A04F08803
(1.426000) can0 22B#FFFFFF0FC0FFFF3F
(1.426000) can0 339#02F1FE008007800F
(1.427000) can0 3A2#6025F3B51C00426F
(1.428000) can0 4E3#0476808705600000
(1.429000) can0 552#000000000000A0F7
(1.429000) can0 1D5#290000000000E0DF
(1.431000) can0 422#700010000000
(1.432000) can0 2E5#00000D320000DD00
(1.432000) can0 310#0D03000078CA06B9
(1.433000) can0 266#2000113311008501
(1.434000) can0 129#CA29D45FFE1FFF3F
(1.435000) can0 128#0000EC0A02
(1.435000) can0 268#1E119901FF
(1.436000) can0 2E1#398D2AFF0F000000
(1.437000) can0 340#0800000000000000
(1.438000) can0 397#032080741C180000
(1.438000) can0 207#0000000000000000
(1.439000) can0 285#61018E0308002E00
(1.440000) can0 682#0000004004113065
(1.441000) can0 3C3#5555550100000000
(1.442000) can0 2E5#00000D320000DD00
(1.443000) can0 1D8#29F6C01D0000C095
(1.444000) can0 118#656C950000C884FF
(1.444000) can0 241#7474141D1D4500
(1.445000) can0 7D5#2B666FFF00000000
(1.446000) can0 318#1A06090D10273BC3
(1.447000) can0 55A#0400000000000000
(1.447000) can0 7D7#321E000000000000
(1.448000) can0 458#00002000000000
(1.451000) can0 1D5#290000000000201F
(1.451000) can0 383#A518200025818309
(1.452000) can0 2E5#00000D320000DD00
(1.453000) can0 118#376D950000C85400
(1.454000) can0 263#0300000000000000
(1.455000) can0 1E5#286C0400000060DE
(1.456000) can0 39B#0314DF80B00401C9
(1.457000) can0 3A2#0110200000000000
(1.457000) can0 423#00001000000000
(1.460000) can0 1D5#290000000000403F
(1.460000) can0 379#00000B48333F2100
(1.463000) can0 2C4#6836C03521DEE2A8
(1.463000) can0 1E5#286C04000000007E
(1.464000) can0 118#A76E950000C8C4FF
(1.465000) can0 252#634B017B00FC0F00
(1.465000) can0 292#27F2F7E28A010000
(1.466000) can0 2D2#F32EAE4E8813E822
(1.467000) can0 312#E9214817408D0800
(1.468000) can0 360#0500040000000000
(1.469000) can0 1D5#290000000000605F
(1.472000) can0 400#00E0FBBEEFFB00
(1.472000) can0 132#3C8E1AFE6A3C
(1.473000) can0 1D8#29F6C01D000020F5
(1.474000) can0 266#2000113311008601
(1.474000) can0 102#22B3480494FAA009
(1.475000) can0 37A#B00C000000000000
(1.476000) can0 22B#FFFFFF0FC0FFFF3F
(1.477000) can0 2D1#FF01
(1.481000) can0 1D5#290000000000807F
(1.481000) can0 122#00001392D2000000
(1.482000) can0 132#418E1BFE6F3C
(1.483000) can0 1D8#29F6C01D00004015
(1.483000) can0 243#00FCCFCC90440D29
(1.484000) can0 129#202ED45F0120FF3F
(1.487000) can0 381#0A00000000000000
(1.489000) can0 421#021A0000002000
(1.491000) can0 201#0300000000000000
(1.493000) can0 3C0#0400000000000000
(1.495000) can0 1D8#29F6C01D00006035
(1.497000) can0 23E#00003AC002FF8FCA
(1.499000) can0 2E1#65800800FD51316A
(1.503000) can0 2E8#010100000600E0D2
(1.514000) can0 123#00001392D2000000
(1.516000) can0 201#006E6E0000E4FF00
(1.518000) can0 4E2#03B0010000002800
(1.520000) can0 1D5#29000000000000FF
(1.524000) can0 261#3140450091497A00
(1.526000) can0 129#3322D55F0020FF3F
(1.529000) can0 420#2801404B00008000
(1.531000) can0 2C1#216B186402000000
(1.533000) can0 3AE#F23F00080000417B
(1.535000) can0 340#0900000000000000
(1.537000) can0 1D6#02080000CAC02008
(1.539000) can0 261#CA291002805C8259
(1.541000) can0 757#3200000000000000
(1.544000) can0 2E5#00000D320000DD00
(1.544000) can0 241#7474141D1D4500
(1.545000) can0 7D5#2B656FFF00000000
(1.546000) can0 113#019701
(1.546000) can0 318#1A06090D10273DC5
(1.547000) can0 1FB#0502000000000000
(1.548000) can0 70A#BCDB013120
(1.550000) can0 1D5#290000000000605F
(1.550000) can0 25B#D38000056A86D073
(1.551000) can0 383#A518200025818309
(1.552000) can0 2E5#00000D320000DD00
(1.553000) can0 118#F167950000C81400
(1.553000) can0 1E5#286C04000000209E
(1.554000) can0 129#B525D55F0020FF3F
(1.555000) can0 545#90045860998B8943
(1.556000) can0 2F1#025A258142000000
(1.558000) can0 381#0C00000000000000
(1.560000) can0 1D5#290000000000807F
(1.560000) can0 242#55558600
(1.561000) can0 2E1#FB1F98B997900900
(1.562000) can0 2E5#00000D320000DD00
(1.563000) can0 224#0408004019011008
(1.564000) can0 118#1268950000C83400
(1.565000) can0 252#634B007B00FC0F00
(1.565000) can0 292#27F2F7E28A010000
(1.566000) can0 2D2#F32EAD4E8813E822
(1.567000) can0 3F5#0000C838830C0000
(1.570000) can0 1D5#290000000000A09F
(1.572000) can0 400#00E0FBBEEFFB00
(1.572000) can0 132#408E1DFE6D3C
(1.573000) can0 1D8#29F4801D000060F3
(1.574000) can0 257#A24D5C4F02202E01
(1.574000) can0 2B3#00707F7C6B7C687B
(1.575000) can0 45A#FD07F8FF03000747
(1.576000) can0 7AA#320805FA41082100
(1.577000) can0 2D1#FF01
(1.580000) can0 1D5#290000000000C0BF
(1.580000) can0 38B#FEFE57175E402303
(1.581000) can0 122#01000000003F0000
(1.582000) can0 2E5#00000D320000DD00
(1.582000) can0 1D8#29F4801D00008013
(1.583000) can0 243#00FCCFCC90440D29
(1.584000) can0 129#AF28D55F0020FF3F
(1.587000) can0 261#0522E3C99A42B055
(1.587000) can0 441#CB00B6C35800353A
(1.588000) can0 421#021A0000002000
(1.592000) can0 2C1#0400000000000000
(1.594000) can0 118#546B950000C874FF
(1.596000) can0 129#0E29D45F0020FF3F
(1.599000) can0 3C9#0798000501010000
(1.603000) can0 261#00100C00FF4FC020
(1.605000) can0 2AA#575053
(1.610000) can0 6A1#0000000000
(1.610000) can0 2F9#BCFB070800000000
(1.611000) can0 448#20001010000010
(1.612000) can0 281#1F00FF1F0001
(1.612000) can0 372#0D3200D01E5B2E8E
(1.613000) can0 118#476D950000C86400
(1.614000) can0 1E5#286C0400000060DE
(1.615000) can0 257#AC4F5C4F02282E01
(1.615000) can0 393#0380610000000000
(1.618000) can0 4E2#04D6200D19780100
(1.620000) can0 1D5#290000000000403F
(1.622000) can0 3A1#884C0FCA0018E267
(1.623000) can0 132#408E1BFE6F3C
(1.624000) can0 243#02FC9B0D05D50000
(1.625000) can0 21D#0400B50000000000
(1.625000) can0 266#2000113311008701
(1.626000) can0 339#02F1FE008007800F
(1.627000) can0 420#2801404B00000001
(1.627000) can0 552#000000000000C017
(1.628000) can0 75D#0500000000007E04
(1.629000) can0 1D5#290000000000605F
(1.632000) can0 422#700010000000
(1.632000) can0 132#458E1AFE6B3C
(1.633000) can0 1D8#29F6801D000020B5
(1.634000) can0 266#2000113311008701
(1.634000) can0 1E5#286C04000000209E
(1.636000) can0 128#0000EC0A02
(1.637000) can0 2B6#000300
(1.637000) can0 397#032080741C180000
(1.638000) can0 2C2#5563A80680C11AAA
(1.639000) can0 682#0000004004115085
(1.640000) can0 201#0138980000000000
(1.640000) can0 3C3#5555550100000000
(1.641000) can0 3CC#03210319000E0900
(1.642000) can0 2E5#00000D320000DD00
(1.643000) can0 1D8#29F6801D000040D5
(1.643000) can0 243#0300000028442500
(1.644000) can0 129#8D2ED45F0020FF3F
(1.645000) can0 439#0000000000185A04
(1.646000) can0 553#00000000000050A8
(1.647000) can0 7D5#3200000000000000
(1.650000) can0 1D5#290000000000A09F
(1.652000) can0 25B#D38000056A86E083
(1.654000) can0 118#AA61950000C8D4FF
(1.656000) can0 257#AE515C4F02282E01
(1.658000) can0 7AA#23FDF93C0810001C
(1.660000) can0 1D5#290000000000C0BF
(1.662000) can0 379#02000948333F2100
(1.664000) can0 132#478E18FE663C
(1.666000) can0 129#9920D45F0020FF3F
(1.668000) can0 2C3#555BA9B682C112AA
(1.670000) can0 1D5#290000000000E0DF
(1.671000) can0 3A1#C1FFFF493D00F0F5
(1.672000) can0 2E5#00000D320000DD00
(1.673000) can0 372#0E00000C067D0000
(1.674000) can0 129#8E21D45F0020FF3F
(1.675000) can0 249#D3040000
(1.675000) can0 45A#FD07F8FF03000747
(1.676000) can0 39B#0314DF80B00811DD
(1.677000) can0 2D1#FF01
(1.680000) can0 1D5#29000000000000FF
(1.682000) can0 261#0522E4C99A4210B6
(1.684000) can0 1D8#29F6C01D0000C095
(1.684000) can0 129#3322D55F0020FF3F
(1.685000) can0 283#000000004000
(1.688000) can0 545#010000000010C01B
(1.690000) can0 272#0380610000000000
(1.692000) can0 3FD#0000003C20000180
(1.699000) can0 718#00000000000000
(1.703000) can0 381#300000C000000000
(1.703000) can0 2AA#576063
(1.704000) can0 129#A224D55F0020FF3F
(1.705000) can0 43B#007F00FF00000000
(1.706000) can0 2E1#1021040010000004
(1.710000) can0 6A1#0000000000
(1.710000) can0 3A3#16C00000380DFC01
(1.711000) can0 281#1F00FF1F0001
(1.712000) can0 2E5#00000D320000DD00
(1.712000) can0 118#D067950000C8F4FF
(1.713000) can0 266#2000113311008601
(1.714000) can0 261#3140000095493A7F
(1.715000) can0 263#89E6D1AFAF4F5F1F
(1.715000) can0 393#080002C107B00304
(1.717000) can0 4E2#65018E13022F0000
(1.720000) can0 1D5#290000000000807F
(1.720000) can0 3A2#6025F3B31C00426F
(1.721000) can0 2E1#398D2AFF0F000000
(1.722000) can0 2E5#00000D320000DD00
(1.722000) can0 195#000000000A002706
(1.723000) can0 27A#B7B50C01B0056202
(1.724000) can0 118#E268950000C80400
(1.725000) can0 229#430400
(1.725000) can0 31E#0100000000000000
(1.726000) can0 420#2801404B00008001
(1.727000) can0 45A#A4BFBEC05F304639
(1.728000) can0 2A8#010100000600E092
(1.730000) can0 1D5#290000000000A09F
(1.731000) can0 422#700010000000
(1.732000) can0 2E5#00000D320000DD00
(1.733000) can0 757#3200000000000000
(1.733000) can0 266#2000113311008601
(1.734000) can0 108#279407C203811825
(1.735000) can0 128#0000EC0A02
(1.735000) can0 23E#00003AC002FFEF2A
(1.736000) can0 340#0B40000000000000
(1.737000) can0 207#0000000000000000
(1.738000) can0 39D#2569F52700
(1.738000) can0 381#1100000000000000
(1.739000) can0 682#0000004004116095
(1.740000) can0 3C3#0000000000A50000
(1.741000) can0 3AE#F23F00080000A1DB
(1.742000) can0 2E5#00000D320000DD00
(1.743000) can0 3FD#01000A0000080280
(1.745000) can0 1D8#29F0801D0000800F
(1.746000) can0 318#1A06090D102721A9
(1.747000) can0 7D5#2B696FFF00000000
(1.747000) can0 3C2#2955000000000000
(1.748000) can0 7E8#1303000000000000
(1.749000) can0 1D5#290000000000E0DF
