(0.000000) can0 45A#FD07F8FF03001600
(0.005000) can0 78A#01000400E1069D00
(0.009000) can0 4E3#0200000000002800
(0.011000) can0 343#0092708E95000000
(0.013000) can0 788#01000000FFA1B812
(0.015000) can0 122#01000000003F0000
(0.017000) can0 3E9#0088020000000076
(0.019000) can0 201#0138980000000000
(0.022000) can0 1D5#290000000000807F
(0.023000) can0 241#3D3C560F8F5500
(0.025000) can0 3A2#0110200000000000
(0.025000) can0 1E5#286C0400000060DE
(0.026000) can0 383#A71820006FC0A328
(0.027000) can0 282#74D4410718240324
(0.029000) can0 2A8#010100000600E092
(0.029000) can0 3C2#0055555500006A05
(0.030000) can0 448#20001010000010
(0.031000) can0 23E#00003AC002FF3F7A
(0.034000) can0 2E5#00001D320000B400
(0.034000) can0 221#605555155451F1D8
(0.035000) can0 1E5#286C04000000007E
(0.036000) can0 118#936A950000C8B4FF
(0.036000) can0 2D2#F82EAC4EB710E822
(0.037000) can0 3B2#1C01A14B5F22990F
(0.038000) can0 712#0400000000000000
(0.041000) can0 113#019701
(0.043000) can0 2E5#00001D320000B400
(0.043000) can0 261#8A292902805CC272
(0.044000) can0 132#428D2DFF803E
(0.046000) can0 118#356B950000C85400
(0.046000) can0 401#1B2A279324932B93
(0.049000) can0 2C1#0304900000000000
(0.049000) can0 1D5#290000000000E0DF
(0.052000) can0 247#2E0EFF0D00CB0100
(0.052000) can0 2C4#12BA00210E405502
(0.053000) can0 2B4#3905220E6001
(0.054000) can0 2E1#026D66021D810000
(0.054000) can0 344#0000000000002067
(0.055000) can0 554#D08403051ED000
(0.056000) can0 1E5#286C0400000040BE
(0.057000) can0 6D4#0B001C4B00000000
(0.057000) can0 266#0B0014411300EA00
(0.058000) can0 384#0000000000000000
(0.060000) can0 243#00FCCF4C97240E29
(0.060000) can0 25D#3741012A04F08803
(0.063000) can0 3FD#0000003C20000180
(0.065000) can0 333#0410590700
(0.065000) can0 1D8#293A40070000E063
(0.066000) can0 441#E500B6C358003D5C
(0.067000) can0 257#67377D790A983E01
(0.067000) can0 509#E0FFFFFF07
(0.068000) can0 2E1#FB1F8CB996800900
(0.069000) can0 2C2#20408064010080CB
(0.070000) can0 234#2DE0022CB104008B
(0.070000) can0 23E#00003AC002FF4F8A
(0.071000) can0 718#04000000000000
(0.072000) can0 2E5#00001D320000B400
(0.073000) can0 129#252D00600020FF3F
(0.076000) can0 1D8#293A400700000083
(0.078000) can0 2E2#E211294949490900
(0.078000) can0 123#00001392D2000000
(0.081000) can0 1D5#290000000000403F
(0.083000) can0 2E5#00001D320000B400
(0.085000) can0 129#FA2E00600020FF3F
(0.087000) can0 1D8#293A000700002063
(0.089000) can0 1D6#020800000A078E08
(0.091000) can0 2B3#C24F2B84305F3E00
(0.093000) can0 261#0522B4C99A42F066
(0.095000) can0 139#00
(0.098000) can0 3C8#0500000000000000
(0.098000) can0 45A#24BEBE3D40383746
(0.100000) can0 1D5#290000000000807F
(0.103000) can0 420#2801404B00008005
(0.103000) can0 2AA#577073
(0.104000) can0 320#0300000000000000
(0.105000) can0 401#1E2A23931F932793
(0.105000) can0 266#0A0014411300EA00
(0.106000) can0 102#22B3880494FAA009
(0.109000) can0 359#3400000000000000
(0.109000) can0 1D5#290000000000A09F
(0.112000) can0 23E#00003AC002FF5F9A
(0.112000) can0 2E5#00001E320000B500
(0.113000) can0 122#00001392D2000000
(0.114000) can0 249#5E070000
(0.114000) can0 3FD#01000A0000080280
(0.117000) can0 3C3#0000000000A50000
(0.120000) can0 243#03000000314D2E00
(0.120000) can0 2E8#0101000006001002
(0.123000) can0 39A#3DFFFDFDFD01000A
(0.123000) can0 22B#FFFFFF1F0000F0FF
(0.124000) can0 401#1F2A209314932793
(0.125000) can0 1D8#293800070000A0E1
(0.125000) can0 257#723A7D790AA03E01
(0.126000) can0 383#A71820006FC0A328
(0.129000) can0 207#00160E0711000000
(0.129000) can0 1D5#290000000000E0DF
(0.132000) can0 2E1#398D2AFF0F000000
(0.132000) can0 423#00001000000000
(0.133000) can0 129#A72300600020FF3F
(0.135000) can0 1F8#3A000000
(0.135000) can0 212#5904000081FF7731
(0.136000) can0 2D2#F82EAC4EC110E822
(0.137000) can0 2F9#BCFB070800000000
(0.137000) can0 392#0111A467000A0300
(0.138000) can0 712#0500000000000000
(0.139000) can0 113#019701
(0.140000) can0 7F4#01
(0.140000) can0 458#00002000000000
(0.143000) can0 2E5#00001E320000B500
(0.143000) can0 7AA#C0E38E3C00088C29
(0.144000) can0 132#4F8D35FF9E3E
(0.145000) can0 1D8#2938C0060000E0E0
(0.145000) can0 1E5#286C0400000060DE
(0.146000) can0 3F5#0000C838830C0000
(0.148000) can0 78A#0100060003000000
(0.148000) can0 263#0400000070140000
(0.149000) can0 310#0B00040204001100
(0.150000) can0 3A1#C1FFFF5D3D001029
(0.151000) can0 3AE#0A4000080000D124
(0.152000) can0 2C4#13A3000D0E2E0502
(0.152000) can0 247#2F0EFF0D00CC0100
(0.153000) can0 224#0408004019011008
(0.154000) can0 2E5#00001D320000B500
(0.155000) can0 225#5555FA00
(0.155000) can0 1E5#286C04000000007E
(0.156000) can0 261#434C0A0000403504
(0.157000) can0 3A2#82A9FFFF03000000
(0.160000) can0 243#00FCCF4C97240E29
(0.161000) can0 283#070600004100
(0.164000) can0 3FD#02005A0000000090
(0.166000) can0 2E5#00001D320000B500
(0.166000) can0 1E5#286C04000000209E
(0.167000) can0 421#021A0000002000
(0.168000) can0 201#0300000000000000
(0.168000) can0 263#700ED29FA74F1F00
(0.169000) can0 545#40045DF098844940
(0.170000) can0 6A1#0000000000
(0.173000) can0 261#D413684B00404414
(0.173000) can0 22B#FFFFFF1F000080FF
(0.176000) can0 1D8#29368006000040FE
(0.178000) can0 307#000000000000003B
(0.178000) can0 123#01000000003F0000
(0.180000) can0 1D5#290000000000807F
(0.183000) can0 2E5#00001D320000B500
(0.183000) can0 129#F728FF5FFF1FFF3F
(0.184000) can0 221#610555550107205B
(0.185000) can0 3A3#14D00000380DFC01
(0.185000) can0 266#0A0014411300EA00
(0.186000) can0 257#854D7D790AA03E01
(0.187000) can0 20E#150500
(0.188000) can0 279#27BCFC01A8056502
(0.188000) can0 2C1#68307E00008A0200
(0.189000) can0 397#030080C81C060000
(0.190000) can0 55A#0500000000000000
(0.191000) can0 1D5#290000000000A09F
(0.191000) can0 400#00E0FBBEEFFB00
(0.192000) can0 3AE#094000080000E133
(0.194000) can0 757#2C3F3E0000000000
(0.194000) can0 1D8#293680060000803E
(0.195000) can0 3C8#0600000000000000
(0.196000) can0 266#0A0014411300EA00
(0.197000) can0 2EC#57B0F5
(0.197000) can0 7D5#3200000000000000
(0.198000) can0 243#02FC3B0F06210000
(0.199000) can0 360#0900000000000000
(0.200000) can0 3A1#884C0FCA001422A3
(0.200000) can0 39D#065EE12700
(0.203000) can0 420#2801404B00000006
(0.203000) can0 2AA#578083
(0.204000) can0 132#558D3BFFB53E
(0.205000) can0 118#E56B950000C80400
(0.206000) can0 1E5#286C04000000209E
(0.209000) can0 359#B63F000009000012
(0.209000) can0 1D5#290000000000E0DF
(0.212000) can0 788#B4CCB1830000AA00
(0.212000) can0 340#0900000000000000
(0.213000) can0 129#E52BFF5F0020FF3F
(0.214000) can0 61D#02C178228E15010C
(0.214000) can0 387#707C636163634045
(0.215000) can0 3C3#5555550100000000
(0.216000) can0 441#37858900320008E8
(0.219000) can0 201#0138980000000000
(0.219000) can0 234#2CE10380430034A2
(0.220000) can0 272#0380610000000000
(0.221000) can0 382#3917210000
(0.222000) can0 39A#1C17F37E230FC77E
(0.223000) can0 129#EC2CFF5FFF1FFF3F
(0.224000) can0 132#4C8D3CFFA43E
(0.224000) can0 118#466D950000C864FF
(0.225000) can0 1E5#286C0400000060DE
(0.228000) can0 383#A71820006FC0A328
(0.228000) can0 3C2#0055555500006A05
(0.229000) can0 448#20001010000010
(0.230000) can0 34A#0207000000000090
(0.230000) can0 23E#00003AC002FF8FCA
(0.233000) can0 2E5#00001D320000B400
(0.233000) can0 2F1#0AB1010000000000
(0.234000) can0 132#508D3DFFAA3E
(0.235000) can0 1D8#29368006000000BE
(0.236000) can0 252#5B405F7600FC0F00
(0.237000) can0 2F9#BCFB07100D1A8B84
(0.240000) can0 2C3#0000C04B010040CB
(0.240000) can0 7FF#0191494642041601
(0.243000) can0 2E5#00001D320000B400
(0.243000) can0 2E1#026D66021D820000
(0.244000) can0 132#478D38FFB33E
(0.245000) can0 118#D96F950000C8F400
(0.245000) can0 1E5#286C04000000209E
(0.246000) can0 2E3#0100003F020B00
(0.249000) can0 2C1#0304900000000000
(0.249000) can0 78A#010000001C13050D
(0.250000) can0 3A1#C1FFFF653D003051
(0.256000) can0 2C4#1400000000000000
(0.261000) can0 1F9#0000000000000000
(0.263000) can0 7E8#0D4D672AB4000000
(0.265000) can0 119#00000000
(0.267000) can0 266#0A0014411300EA00
(0.269000) can0 737#00000000E0F080
(0.271000) can0 234#2EE0022CB10440CC
(0.273000) can0 718#00000000000000
(0.276000) can0 22B#FFFFFF1F0E0000FE
(0.278000) can0 2E2#F7D34F4001000000
(0.278000) can0 123#00001392D2000000
(0.281000) can0 1D5#290000000000C0BF
(0.283000) can0 2E5#00001D320000B400
(0.285000) can0 27A#B8BE0C01A8056202
(0.287000) can0 1D8#293480060000A05C
(0.290000) can0 268#73148A01FF
(0.292000) can0 281#1B00FF1F0001
(0.294000) can0 757#2C3F3E0000000000
(0.296000) can0 1D8#293480060000C07C
(0.298000) can0 7D5#2BB8AFFD00000000
(0.299000) can0 243#02FC330F06210000
(0.300000) can0 37A#D10D000000000000
(0.303000) can0 420#2801404B00008006
(0.303000) can0 2AA#579093
(0.304000) can0 320#0400000000000000
(0.305000) can0 1D8#293480060000E09C
(0.305000) can0 1E5#286C0400000060DE
(0.308000) can0 359#3700000000000000
(0.308000) can0 343#0092643E95000000
(0.309000) can0 3AE#0A40000800002174
(0.311000) can0 23E#00003AC002FFAFEA
(0.311000) can0 788#01000000FFA1B812
(0.312000) can0 340#0A00002000000000
(0.313000) can0 286#E59E5A1931
(0.313000) can0 129#362500600020FF3F
(0.314000) can0 132#578D3CFFB33E
(0.315000) can0 1E5#286C04000000007E
(0.316000) can0 261#314008008849DA1A
(0.316000) can0 381#0E00000000E0FF00
(0.319000) can0 201#0138980000000000
(0.319000) can0 234#2DE10380430054C3
(0.320000) can0 272#080002D107B00304
(0.321000) can0 553#00000000000080D8
(0.321000) can0 39A#3DFFFDFDFD01000A
(0.323000) can0 241#3C3C160F8F5500
(0.324000) can0 132#4D8D3EFFB73E
(0.324000) can0 118#6167950000C88400
(0.325000) can0 1E5#286C04000000209E
(0.328000) can0 383#A7182000C3C24329
(0.328000) can0 3E2#040000410FCF00
(0.329000) can0 448#20001010000010
(0.330000) can0 719#0D00000000000000
(0.333000) can0 261#8A292902805CE292
(0.335000) can0 2F1#2B76008500000000
(0.337000) can0 212#5904000081FF7731
(0.339000) can0 428#20001010000010
(0.341000) can0 113#019701
(0.343000) can0 2E5#00001D320000B400
(0.347000) can0 132#568D42FFBA3E
(0.348000) can0 261#434C0A000040F5C4
(0.349000) can0 263#0400000070140000
(0.349000) can0 1D5#290000000000A09F
(0.352000) can0 23E#00003AC002FFBFFA
(0.352000) can0 247#300EFF0D00D10100
(0.353000) can0 2E5#00001D320000B400
(0.354000) can0 2B4#3605250E5B01
(0.354000) can0 225#5555FA00
(0.355000) can0 1E5#286C04000000007E
(0.356000) can0 118#146A950000C83400
(0.357000) can0 2E1#FB1F8CD996810900
(0.359000) can0 3AE#0940000800004193
(0.359000) can0 21D#0400B50000000000
(0.360000) can0 39D#FA52E12700
(0.361000) can0 422#700010000000
(0.364000) can0 355#800C00FF940000
(0.364000) can0 249#3A0C0000
(0.365000) can0 1D8#293440060000A01C
(0.366000) can0 266#090014411300EA00
(0.366000) can0 3C0#0000000000000000
(0.367000) can0 545#90045DA09880A99C
(0.368000) can0 201#0300000000000000
(0.369000) can0 263#700ED29FA74F1F00
(0.369000) can0 1D5#290000000000E0DF
(0.370000) can0 439#0000000000185A04
(0.373000) can0 2E1#0400000000102000
(0.373000) can0 129#572B00600020FF3F
(0.376000) can0 1D8#293440060000C03C
(0.379000) can0 3A8#0103000700020100
(0.379000) can0 1D5#29000000000000FF
(0.380000) can0 211#C11D710F1001
(0.383000) can0 2E5#00001E320000B400
(0.383000) can0 129#852CFF5F0020FF3F
(0.384000) can0 132#588D3FFFBB3E
(0.385000) can0 118#776D950000C89400
(0.385000) can0 266#090014411300EA00
(0.386000) can0 257#7F477D790AA03E01
(0.387000) can0 20E#170700
(0.388000) can0 2E1#65800800A23D316A
(0.388000) can0 381#306400C000000000
(0.389000) can0 395#0119194E0E000A7D
(0.390000) can0 281#1B00FF1F0001
(0.391000) can0 393#0380610000000000
(0.392000) can0 2E5#00001E320000B500
(0.393000) can0 757#3200000000000000
(0.394000) can0 132#5C8D40FFC13E
(0.396000) can0 1D8#293440060000007C
(0.396000) can0 266#090013411300EB00
(0.397000) can0 7D5#2C3E3F0000000000
(0.400000) can0 3AE#09400008000051A3
(0.400000) can0 37A#B20D000000000000
(0.403000) can0 420#2801404B00000007
(0.403000) can0 2AA#57A0A3
(0.404000) can0 132#608D43FFC53E
(0.405000) can0 118#986F950000C8B4FF
(0.405000) can0 1E5#286C04000000209E
(0.408000) can0 359#38040000FC6A1300
(0.409000) can0 343#00926C5E95000000
(0.412000) can0 788#0240CA0700030000
(0.412000) can0 293#020C55905514FFF0
(0.413000) can0 340#0B40000000000000
(0.414000) can0 122#01000000003F0000
(0.414000) can0 132#578D47FFC83E
(0.415000) can0 3C3#5555550100000000
(0.416000) can0 266#090013411300EB00
(0.419000) can0 201#0138980000000000
(0.419000) can0 234#2CE10380430074E2
(0.420000) can0 272#0380610000000000
(0.421000) can0 3A2#0110200000000000
(0.424000) can0 2E5#00001E320000B500
(0.424000) can0 118#DB61950000C80400
(0.426000) can0 266#090013411300EB00
(0.427000) can0 282#7CD4410718240324
(0.427000) can0 2A8#01010000060020D2
(0.428000) can0 2C1#0219060000D00200
(0.429000) can0 40A#09100000000080A7
(0.430000) can0 1D5#290000000000A09F
(0.432000) can0 23E#00003AC002FFDF1A
(0.432000) can0 423#00001000000000
(0.433000) can0 129#7B21FE5FFE1FFF3F
(0.434000) can0 1F8#3A000000
(0.434000) can0 1D8#29324006000080FA
(0.435000) can0 212#5904000081FF7731
(0.436000) can0 266#090014411300EB00
(0.437000) can0 2E1#026D66021D820000
(0.438000) can0 3AE#09400008000061B3
(0.439000) can0 1D5#290000000000C0BF
(0.440000) can0 348#16000187CB070110
(0.441000) can0 414#1233585646544756
(0.441000) can0 55A#0100000000000000
(0.442000) can0 318#1A06130C100C299F
(0.443000) can0 3F9#0400000000000000
(0.444000) can0 129#3222FE5FFE1FFF3F
(0.444000) can0 118#9C63950000C8C4FF
(0.445000) can0 1D8#293240060000A01A
(0.446000) can0 1E5#286C04000000209E
(0.447000) can0 2E3#02000057020B00
(0.447000) can0 2C1#0304900000000000
(0.448000) can0 78A#0100020060066006
(0.450000) can0 45A#FD07F8FF03008C00
(0.452000) can0 682#00000040041180B5
(0.452000) can0 247#300EFF0D00D10100
(0.453000) can0 2B4#3A05230E6101
(0.454000) can0 2E5#00001E320000B500
(0.454000) can0 132#5A8D45FFD23E
(0.455000) can0 1E5#286C0400000040BE
(0.456000) can0 118#8D64950000C8B4FF
(0.459000) can0 243#00FCCF4C97240E29
(0.459000) can0 37D#D4FED1FEF9FF8F7F
(0.460000) can0 381#120000000000AC02
(0.461000) can0 25D#3741012A04F08803
(0.461000) can0 422#700010000000
(0.464000) can0 129#A324FE5FFE1FFF3F
(0.465000) can0 54F#0000000000000000
(0.466000) can0 441#E500B6C358001D3C
(0.467000) can0 421#021A0000002000
(0.467000) can0 301#1303000000000000
(0.468000) can0 2C1#0400000000000000
(0.469000) can0 082#0F7FFF27FF034604
(0.470000) can0 285#2445605872000000
(0.470000) can0 1D5#290000000000201F
(0.471000) can0 439#0000000000185A04
(0.474000) can0 2E5#00001D320000B500
(0.476000) can0 1D8#293200060000003A
(0.478000) can0 22B#FFFFFF1F0E000080
(0.478000) can0 123#00001392D2000000
(0.481000) can0 1D5#290000000000403F
(0.483000) can0 2E5#00001D320000B500
(0.485000) can0 129#6E26FE5FFE1FFF3F
(0.487000) can0 1D8#293200060000205A
(0.489000) can0 1D6#020800000A078E08
(0.491000) can0 397#030080C81C060000
(0.493000) can0 261#00100800FF4F80DC
(0.495000) can0 139#00
(0.497000) can0 3C8#0200000000000000
(0.499000) can0 7D5#3200000000000000
(0.500000) can0 3A1#884C0FCA00148203
(0.502000) can0 45A#24BEBE3D40383745
(0.506000) can0 302#125C0AD0266F00AE
(0.508000) can0 401#002A4C9344934093
(0.510000) can0 343#0092583E95000000
(0.513000) can0 23E#00003AC002FFFF3A
(0.515000) can0 249#CE0F0000
(0.517000) can0 2E1#398D2AFF0F000000
(0.521000) can0 201#0138980000000000
(0.523000) can0 39A#3DFFFDFDFD01000A
(0.525000) can0 261#8A292902805CA252
(0.527000) can0 1E5#286C04000000209E
(0.529000) can0 2A8#01010000060030E2
(0.531000) can0 1D5#290000000000E0DF
(0.533000) can0 2E1#026D66021D810000
(0.535000) can0 2F1#0D00000000000000
(0.537000) can0 2F9#BCFB072800000000
(0.538000) can0 292#0F8A77E184010000
(0.539000) can0 243#04FC53F8057EFFFF
(0.540000) can0 1D5#29000000000000FF
(0.541000) can0 289#CE0C06439D003D0F
(0.544000) can0 2E5#00001D320000B400
(0.544000) can0 401#022A459349933C93
(0.545000) can0 266#090013411300EA00
(0.546000) can0 3F5#0000C838820C0000
(0.549000) can0 24A#03
(0.549000) can0 1D5#290000000000201F
(0.550000) can0 3A1#C1FFFF633D0090AF
(0.551000) can0 23E#00003AC002FF0F4A
(0.551000) can0 2C4#9781001004006000
(0.552000) can0 3A2#82A9FFFF03000000
(0.553000) can0 247#300EFF0E00D10100
(0.554000) can0 25B#D38000056A86C063
(0.555000) can0 364#3C827C1F
(0.556000) can0 118#686E950000C88400
(0.557000) can0 1F9#0000000000000000
(0.559000) can0 243#00FCCF4C97240E29
(0.559000) can0 1D5#290000000000403F
(0.560000) can0 39D#FF57E12700
(0.563000) can0 422#700010000000
(0.563000) can0 3FD#0000003C20000180
(0.565000) can0 129#BC2EFE5F0020FF3F
(0.566000) can0 1E5#286C04000000209E
(0.567000) can0 257#78407D790AA03E01
(0.567000) can0 545#400458A0988309AA
(0.568000) can0 2C1#0400000000000000
(0.569000) can0 2C2#5563A80680C11AAA
(0.570000) can0 234#2DE0022CB104A02B
(0.571000) can0 54F#0000000000000000
(0.572000) can0 2E5#00001D320000B400
(0.575000) can0 129#4D2FFE5F0020FF3F
(0.575000) can0 3CC#0321831B000E0900
(0.576000) can0 266#090014411300EA00
(0.579000) can0 3A8#2A80E1F51F00FFBF
(0.579000) can0 1D5#290000000000807F
(0.580000) can0 211#C31F710F1001
(0.581000) can0 31A#200100000000D00E
(0.584000) can0 2E5#00001D320000B400
(0.584000) can0 401#042A4B934D934893
(0.585000) can0 118#DB61950000C80400
(0.586000) can0 1E5#286C0400000060DE
(0.586000) can0 126#16383004A9
(0.588000) can0 1D6#020800000A078E08
(0.589000) can0 395#0119194E0E000A7D
(0.589000) can0 3A2#602573AD1C804172
(0.590000) can0 281#1B00FF1F0001
(0.591000) can0 23E#00003AC002FF1F5A
(0.592000) can0 242#55558600
(0.592000) can0 757#2C3F3E0000000000
(0.593000) can0 757#3200000000000000
(0.594000) can0 132#558D44FFCE3E
(0.595000) can0 1D8#29344006000080FC
(0.595000) can0 3C8#0300000000000000
(0.596000) can0 2E1#1021040010000004
(0.597000) can0 7D5#2BBAAFFD00000000
(0.598000) can0 7D7#3231000000000000
(0.599000) can0 243#02FC330F06D20000
(0.602000) can0 37A#A00C000000000000
(0.602000) can0 2E5#00001D320000B400
(0.603000) can0 129#F622FE5F0020FF3F
(0.604000) can0 261#3140ECFF8A49FA1F
(0.604000) can0 401#052A489345934C93
(0.605000) can0 266#090014411300EB00
(0.606000) can0 102#22B3880494FAA009
(0.609000) can0 359#3A00000000000000
(0.609000) can0 1D5#290000000000E0DF
(0.612000) can0 788#01000000FFA1B812
(0.612000) can0 2E5#00001D320000B400
(0.613000) can0 122#01000000003F0000
(0.614000) can0 132#628D42FFC63E
(0.615000) can0 3C3#5555550100000000
(0.616000) can0 2F3#0B0B0B0400600002
(0.617000) can0 3FD#01000A0000080280
(0.619000) can0 201#0138980000000000
(0.620000) can0 234#2CE103804300B422
(0.620000) can0 288#0106184C0060F146
(0.623000) can0 39A#2013F37E1F03C37E
(0.625000) can0 132#6A8D41FFC43E
(0.625000) can0 1E5#286C0400000060DE
(0.628000) can0 383#A7182000C3C24329
(0.628000) can0 3C2#0055555500006A05
(0.629000) can0 2B3#0B43DEFEFF01C018
(0.630000) can0 448#20001010000010
(0.630000) can0 545#020002000000206E
(0.632000) can0 2E5#00001D320000B400
(0.633000) can0 129#7025FE5F0020FF3F
(0.634000) can0 2F1#2E00402104012004
(0.634000) can0 221#605555155451B198
(0.635000) can0 212#5904000081FF7731
(0.636000) can0 261#434C0A00004015E4
(0.637000) can0 2D2#F82EAC4EC010E822
(0.637000) can0 312#F07C68445A691714
(0.638000) can0 428#20001010000010
(0.639000) can0 2C3#0000C04B010040CB
(0.640000) can0 113#019701
(0.640000) can0 458#00002000000000
(0.641000) can0 289#CE0C068390003D0F
(0.644000) can0 2E5#00001E320000B400
(0.645000) can0 401#072A2E9353935193
(0.646000) can0 1E5#286C04000000209E
(0.647000) can0 2E3#03000065020B00
(0.647000) can0 2C1#0304900000000000
(0.648000) can0 78A#01000400E1069D00
(0.651000) can0 1D5#290000000000605F
(0.651000) can0 2C4#19C27C030D1C2003
(0.652000) can0 264#3C000000A000
(0.653000) can0 227#F6031A0053000081
(0.653000) can0 129#D427FE5FFF1FFF3F
(0.654000) can0 225#5555FA00
(0.655000) can0 1E5#286C0400000040BE
(0.656000) can0 118#5168950000C874FF
(0.656000) can0 1F9#0000000000000000
(0.660000) can0 243#00FCCF4C97240E29
(0.660000) can0 283#070500004100
(0.663000) can0 422#700010000000
(0.665000) can0 119#00000000
(0.667000) can0 1D8#29344006000060DC
(0.669000) can0 3FD#02005A0000000090
(0.673000) can0 724#000000
(0.675000) can0 129#5629FE5FFF1FFF3F
(0.677000) can0 2E1#65800800A33D316A
(0.679000) can0 22B#FFFFFF1F0E000000
(0.680000) can0 211#B410710F1001
(0.683000) can0 7AA#0748FF46FFCCFE48
(0.685000) can0 129#242AFE5FFE1FFF3F
(0.687000) can0 1D8#293440060000A01C
(0.689000) can0 1D6#020800000A078E08
(0.692000) can0 263#892ED2A79F2F9F00
(0.694000) can0 401#092A4A9352935093
(0.696000) can0 132#5C8D40FFB13E
(0.698000) can0 7D5#2BBCAFFD00000000
(0.699000) can0 1D5#29000000000000FF
(0.700000) can0 3A1#884C0FCA0014C243
(0.703000) can0 420#2801404B00008000
(0.703000) can0 2AA#57D0D3
(0.704000) can0 320#0100000800000000
(0.705000) can0 118#B76D950000C8D400
(0.705000) can0 1E5#286C0400000060DE
(0.708000) can0 359#C23F00000B00001C
(0.708000) can0 343#009260DE94000000
(0.709000) can0 1D5#290000000000201F
(0.711000) can0 23E#00003AC002FF4F8A
(0.711000) can0 788#0240CA0700030000
(0.712000) can0 238#8839F6343E00A80B
(0.713000) can0 381#1900000000000000
(0.714000) can0 3AE#074000080000F141
(0.714000) can0 132#618D3DFFA43E
(0.715000) can0 1E5#286C04000000007E
(0.716000) can0 118#086E950000C82400
(0.719000) can0 3A2#0110200000000000
(0.719000) can0 234#2CE103804300D442
(0.720000) can0 272#080002D107B00304
(0.721000) can0 553#000000000000C018
(0.722000) can0 39A#3DFFFDFDFD01000A
(0.722000) can0 241#3C3C160F8F5500
(0.724000) can0 129#782EFE5FFE1FFF3F
(0.725000) can0 207#00160A0705000000
(0.725000) can0 266#0A0014411300EB00
(0.726000) can0 383#A7182000C3C24329
(0.727000) can0 282#74D4410718240324
(0.728000) can0 2A8#0101000006005002
(0.728000) can0 3E2#040000310FCF00
(0.729000) can0 448#20001010000010
(0.730000) can0 43B#027F00FF00000000
(0.733000) can0 261#434C0A0000407544
(0.733000) can0 2F1#0F52A99599433900
(0.734000) can0 132#578D39FFB53E
(0.735000) can0 1D8#29368006000040FE
(0.735000) can0 252#3F40607600FC0F00
(0.737000) can0 266#0A0014411300EB00
(0.740000) can0 2C3#555BA9B682C112AA
(0.740000) can0 318#1A06130C100C2FA5
(0.743000) can0 2E5#00001D320000B500
(0.745000) can0 132#618D39FFAD3E
(0.745000) can0 3F5#0000C838820C0000
(0.746000) can0 3F5#0000C838830C0000
(0.749000) can0 261#D413604B0040844C
(0.749000) can0 4E2#013B0E0000002800
(0.750000) can0 339#02F1FE008007800F
(0.754000) can0 677#0100000000000000
(0.757000) can0 1D8#293680060000803E
(0.759000) can0 3AE#0740000800001060
(0.761000) can0 1D5#290000000000C0BF
(0.764000) can0 422#700010000000
(0.766000) can0 132#668D35FFA83E
(0.768000) can0 54F#0000000000000000
(0.770000) can0 6A1#0000000000
(0.772000) can0 439#0000000000185A04
(0.775000) can0 3FD#0000003C20000180
(0.777000) can0 333#0410590700
(0.778000) can0 3A8#0300000000000000
(0.778000) can0 123#01000000003F0000
(0.779000) can0 1D5#29000000000000FF
(0.780000) can0 719#EE895B00505F0014
(0.783000) can0 2E5#00001D320000B500
(0.783000) can0 129#CA24FE5F0120FF3F
(0.784000) can0 381#A0C006F8D900BF10
(0.785000) can0 118#4F65950000C87400
(0.786000) can0 266#0A0014411300EB00
(0.787000) can0 1D6#020800000A078E08
(0.788000) can0 279#1DB2FC01A8056502
(0.789000) can0 2E1#1021040010000004
(0.789000) can0 397#030080C81C060000
(0.790000) can0 3E8#0300000000000000
(0.791000) can0 38D#5676AAAAAA244902
(0.791000) can0 401#0E2A409340934393
(0.792000) can0 2E5#00001D320000B400
(0.793000) can0 757#3200000000000000
(0.794000) can0 132#548D36FF9E3E
(0.794000) can0 1D8#2938C00600000000
(0.795000) can0 3C8#0500000000000000
(0.796000) can0 261#31402C008749BA1D
(0.797000) can0 2EC#571055
(0.798000) can0 3AE#0740000800002070
(0.799000) can0 45A#24BEBE3D40383746
(0.800000) can0 3A1#884C0FCA0014E263
(0.800000) can0 37A#B20D000000000000
(0.801000) can0 420#2801404B00000001
(0.802000) can0 2E5#00001D320000B400
(0.805000) can0 129#DF26FE5F0220FF3F
(0.805000) can0 266#0A0014411300EA00
(0.806000) can0 102#22B3880494FAA009
(0.809000) can0 359#4300000000000000
(0.809000) can0 1D5#290000000000605F
(0.812000) can0 788#B4CCB1830000AA00
(0.812000) can0 2E5#00001D320000B400
(0.814000) can0 286#E59E5A1931
(0.814000) can0 3C3#5555550100000000
(0.815000) can0 118#8268950000C8A400
(0.816000) can0 3A2#0110200000000000
(0.819000) can0 201#0138980000000000
(0.819000) can0 1D5#290000000000807F
(0.820000) can0 272#0380610000000000
(0.821000) can0 381#81040000898A8A00
(0.821000) can0 39A#2013F3821FFFBE7E
(0.822000) can0 241#3D3C560F8F5500
(0.823000) can0 3FD#01000A0000080280
(0.825000) can0 129#3328FF5F0120FF3F
(0.826000) can0 257#854D7D790AA03E01
(0.826000) can0 282#7CD4410718240324
(0.828000) can0 2A8#0101000006006012
(0.829000) can0 263#0300000000000000
(0.830000) can0 1D5#290000000000A09F
(0.830000) can0 719#0CD90F0053036000
(0.831000) can0 399#000000
(0.834000) can0 2E5#00001D320000B400
(0.834000) can0 221#605555155451F1D8
(0.835000) can0 1E5#286C04000000007E
(0.836000) can0 292#0F8A77E184010000
(0.836000) can0 266#0A0014411300EA00
(0.837000) can0 352#0275057305481039
(0.840000) can0 2C3#0000C04B010040CB
(0.840000) can0 7FF#0720000528000000
(0.843000) can0 2E5#00001D320000B400
(0.844000) can0 261#D413684B0040E4B4
(0.845000) can0 1D8#293AC0060000A0A2
(0.846000) can0 1E5#286C04000000209E
(0.846000) can0 2E3#A4526121890400
(0.847000) can0 78A#0100060003000000
(0.848000) can0 4E2#025D040000002800
(0.849000) can0 45A#FD07F8FF03008C00
(0.849000) can0 287#3D3C3E3FD1020302
(0.852000) can0 2C4#010001D200000000
(0.852000) can0 682#000000400411C0F5
(0.853000) can0 227#F2031A0053000081
(0.854000) can0 247#2F0EFF0D00D50100
(0.854000) can0 132#508D32FF933E
(0.855000) can0 552#00000000000050A7
(0.857000) can0 381#22A2F027F1209001
(0.860000) can0 243#00FCCF4C97240E29
(0.860000) can0 283#070500004100
(0.863000) can0 545#900462B0988499A5
(0.863000) can0 129#282CFF5F0120FF3F
(0.864000) can0 249#4C060000
(0.865000) can0 401#122A5E935C937093
(0.865000) can0 266#0B0014411300EA00
(0.866000) can0 6A2#0000000000
(0.867000) can0 421#021A0000002000
(0.868000) can0 321#531EA9780278E010
(0.868000) can0 2E1#65800800A33D316A
(0.869000) can0 2C2#20408064010080CB
(0.870000) can0 677#0400000000000000
(0.871000) can0 23E#00003AC002FF8FCA
(0.872000) can0 2E5#00001D320000B400
(0.873000) can0 129#3A2DFF5F0120FF3F
(0.874000) can0 3FD#02005A0000000090
(0.875000) can0 132#548D2CFF7F3E
(0.878000) can0 2E2#E211294949490900
(0.878000) can0 22B#FFFFFF1F3E000000
(0.879000) can0 1D5#290000000000403F
(0.880000) can0 211#B612710F1001
(0.884000) can0 3A2#604573AD1C004272
(0.888000) can0 2E1#1021040010000004
(0.892000) can0 2C1#60307E00008A0200
(0.896000) can0 2E5#00001D320000B500
(0.900000) can0 557#5A6E190002
(0.904000) can0 45A#24BEBE3D40383746
(0.907000) can0 102#22B3880494FAA009
(0.908000) can0 2C1#215B1D8C02000000
(0.909000) can0 263#0200804915484F21
(0.909000) can0 1D5#290000000000A09F
(0.910000) can0 23E#00003AC002FF9FDA
(0.913000) can0 788#01000000FFA1B812
(0.913000) can0 129#4B21FF5F0020FF3F
(0.916000) can0 3C3#0000000000A50000
(0.916000) can0 293#020C559055140F00
(0.917000) can0 441#37858900320000E0
(0.920000) can0 243#03000000314D2E00
(0.920000) can0 2E8#0101000006009082
(0.923000) can0 39A#3DFFFDFDFD01000A
(0.924000) can0 261#434C0A0000403504
(0.925000) can0 401#152A50934A935A93
(0.926000) can0 1E5#286C04000000209E
(0.926000) can0 383#A7182000C3C24329
(0.929000) can0 2A8#0101000006007022
(0.929000) can0 3E2#040000310FCF00
(0.930000) can0 545#020003000000B0FF
(0.933000) can0 2E1#FB1F8FD996890900
(0.933000) can0 2F1#113E011201340900
(0.934000) can0 132#518D2AFF873E
(0.935000) can0 1D8#293C40070000C045
(0.935000) can0 252#1D40607600FC0F00
(0.936000) can0 266#0B0014411300EA00
(0.937000) can0 3B2#9F17321E354A3C02
(0.938000) can0 2C3#555BA9B682C112AA
(0.939000) can0 1D5#29000000000000FF
(0.940000) can0 55A#0400000000000000
(0.941000) can0 318#1A06130C100C33A9
(0.941000) can0 7F4#01
(0.944000) can0 201#0200000000000000
(0.944000) can0 401#162A64936D936B93
(0.945000) can0 266#0B0014411300EA00
(0.946000) can0 257#7B437D790AA03E01
(0.949000) can0 2E1#0400000000102000
(0.949000) can0 677#0100000000000000
(0.950000) can0 3A1#C1FFFF7F3D00104B
(0.953000) can0 2C4#020001D200000000
(0.953000) can0 227#F6031A0053000081
(0.955000) can0 132#588D29FF833E
(0.956000) can0 118#8066950000C8A400
(0.956000) can0 266#0B0014411300EA00
(0.959000) can0 524#86730302201001
(0.959000) can0 304#0000000000000000
(0.960000) can0 39D#F951E12700
(0.961000) can0 283#070500004100
(0.961000) can0 422#700010000000
(0.962000) can0 253#0064A6C66490B505
(0.963000) can0 129#C326FE5FFF1FFF3F
(0.964000) can0 229#410500
(0.964000) can0 381#0500000000BD6408
(0.965000) can0 401#172A67936C936D93
(0.966000) can0 266#0B0014411300EA00
(0.967000) can0 3C0#0600000000000000
(0.968000) can0 6A2#0000000000
(0.969000) can0 2C2#5563A80680C11AAA
(0.970000) can0 1D5#290000000000605F
(0.970000) can0 439#0000000000185A04
(0.973000) can0 261#00100800FF4F60BC
(0.973000) can0 319#1100000000000000
(0.976000) can0 1D8#293C4007000040C5
(0.978000) can0 3A8#F4E07F56FD0F0000
(0.978000) can0 123#01000000003F0000
(0.979000) can0 243#010046374A006D6D
(0.980000) can0 2E1#1021040010000004
(0.980000) can0 719#0300000000000000
(0.981000) can0 3A2#6005F3AA04004272
(0.982000) can0 2E5#00001D320000B500
(0.984000) can0 1A5#00101F28FD
(0.984000) can0 132#4E8D25FF7C3E
(0.985000) can0 118#9269950000C8B4FF
(0.986000) can0 1E5#286C0400000060DE
(0.986000) can0 126#16383024C9
(0.987000) can0 20E#150500
(0.988000) can0 379#0400A6C0800D0000
(0.989000) can0 395#0119194E0E000A7D
(0.989000) can0 2B3#007F8B8E7C7B6778
(0.990000) can0 3E8#0500000000000000
(0.991000) can0 400#00E0FBBEEFFB00
(0.992000) can0 677#0200000000000000
(0.992000) can0 757#2C3F3E0000000000
(0.993000) can0 7AA#0B4A002848003600
(0.994000) can0 132#4B8D23FF733E
(0.997000) can0 1D8#293E400700008007
(0.999000) can0 315#01494A00544A0000
(1.001000) can0 3B6#EB20DE0C000020CE
(1.008000) can0 420#2801404B00000002
(1.013000) can0 1D5#290000000000E0DF
(1.015000) can0 249#5E090000
(1.017000) can0 118#C66C950000C8E400
(1.019000) can0 201#0138980000000000
(1.021000) can0 1D5#29000000000000FF
(1.023000) can0 39A#2013F3821FFBBE7E
(1.025000) can0 129#182CFE5FFF1FFF3F
(1.028000) can0 1E5#286C0400000060DE
(1.029000) can0 40A#091000000000B0D7
(1.029000) can0 1D5#290000000000201F
(1.031000) can0 23E#00003AC002FFCF0A
(1.034000) can0 2E5#00001D320000B400
(1.034000) can0 221#6055551554513118
(1.035000) can0 1E5#286C04000000007E
(1.036000) can0 261#D413684B0040A474
(1.036000) can0 2D2#F82EAC4EBA10E822
(1.037000) can0 381#0700000000000000
(1.038000) can0 712#0400000000000000
(1.039000) can0 243#04FC53F8017EFFFF
(1.039000) can0 113#019701
(1.040000) can0 458#00002000000000
(1.041000) can0 289#CE0C060388003D0F
(1.044000) can0 2E5#00001D320000B400
(1.044000) can0 372#0900000000F83F00
(1.046000) can0 3F5#0000C838820C0000
(1.047000) can0 2E3#07944F3E010000
(1.047000) can0 2C1#0304900000000000
(1.048000) can0 287#3D3C3E3FD1020302
(1.049000) can0 263#0400000070140000
(1.050000) can0 1D5#290000000000605F
(1.052000) can0 2C4#03010E40010C8000
(1.052000) can0 2E5#00001D320000B400
(1.053000) can0 2B4#3905210E5A01
(1.054000) can0 227#F4031A0053000081
(1.054000) can0 344#0000000000004087
(1.055000) can0 1D8#293E800700004007
(1.056000) can0 2D1#FF01
(1.057000) can0 118#7A60950000C8A400
(1.058000) can0 386#0000000000000000
(1.059000) can0 31E#0000000000000000
(1.060000) can0 2E1#65800800A33D316A
(1.060000) can0 283#070500004100
(1.063000) can0 3FD#0000003C20000180
(1.064000) can0 333#0410590700
(1.065000) can0 1D8#293E800700006027
(1.066000) can0 1E5#286C0400000060DE
(1.067000) can0 3C0#0700000000000000
(1.067000) can0 261#00100800FF4FC01C
(1.068000) can0 2C1#0400000000000000
(1.069000) can0 677#0400000000000000
(1.070000) can0 1D5#290000000000A09F
(1.070000) can0 23E#00003AC002FFDF1A
(1.072000) can0 381#0800000000000000
(1.075000) can0 129#BF21FE5F0020FF3F
(1.075000) can0 3CC#0321C31B000E0900
(1.076000) can0 2E1#1021040010000004
(1.079000) can0 70A#CCDB013120
(1.079000) can0 70B#F0C7403020FF917D
(1.080000) can0 211#B814710F1001
(1.081000) can0 2D3#D9006F0231152E4C
(1.084000) can0 2E5#00001E320000B400
(1.086000) can0 132#428D20FF833E
(1.088000) can0 1E5#286C04000000209E
(1.090000) can0 2C1#60307E00008A0200
(1.092000) can0 400#00E0FBBEEFFB00
(1.094000) can0 757#2C3F3E0000000000
(1.096000) can0 1D8#2940C0070000C0C9
(1.099000) can0 7D5#2BB79FFD00000000
(1.100000) can0 1D5#29000000000000FF
(1.103000) can0 420#2801404B00008002
(1.103000) can0 2AA#571013
(1.104000) can0 320#0300000000000000
(1.105000) can0 118#DF65950000C80400
(1.105000) can0 1E5#286C0400000060DE
(1.106000) can0 102#22B3880494FAA009
(1.109000) can0 359#4600000000000000
(1.109000) can0 1D5#290000000000201F
(1.112000) can0 23E#00003AC002FFEF2A
(1.112000) can0 2E5#00001E320000B400
(1.113000) can0 3A2#0110200000000000
(1.114000) can0 273#81E13000C8021011
(1.115000) can0 3FD#01000A0000080280
(1.117000) can0 33A#72D4E372FDFF3761
(1.120000) can0 243#03000000314D2E00
(1.120000) can0 39D#FD55E12700
(1.121000) can0 7C8#1100000000000000
(1.122000) can0 3C9#0581F3DE61000000
(1.122000) can0 241#3C3C160F8F5500
(1.123000) can0 129#F026FD5FFF1FFF3F
(1.124000) can0 132#508D1EFF773E
(1.125000) can0 1D8#29408007000020E9
(1.125000) can0 257#844C7D790AA03E01
(1.126000) can0 383#A7182000C3E24629
(1.127000) can0 282#7CD4410718240324
(1.128000) can0 2A8#0101000006009042
(1.129000) can0 3E2#040000411FCF00
(1.132000) can0 261#D413684B004004D4
(1.132000) can0 423#00001000000000
(1.133000) can0 129#4A27FD5FFE1FFF3F
(1.134000) can0 1F8#3A000000
(1.134000) can0 1D8#2940800700004009
(1.135000) can0 212#5904000081FF7731
(1.136000) can0 2D2#F82EAC4EC410E822
(1.137000) can0 2F9#BCFB072800000000
(1.137000) can0 428#20001010000010
(1.138000) can0 2C3#555BA9B682C112AA
(1.141000) can0 1D5#290000000000807F
(1.143000) can0 2E5#00001E320000B400
(1.143000) can0 129#3028FD5FFF1FFF3F
(1.145000) can0 132#4F8D21FF853E
(1.146000) can0 257#854D7D790AA03E01
(1.146000) can0 3F5#0000C838830C0000
(1.149000) can0 287#3D3C3E3FD1020302
(1.149000) can0 78A#0100020062066306
(1.150000) can0 339#02F1FE008007800F
(1.151000) can0 682#000000400411F025
(1.151000) can0 204#010000FF00000010
(1.152000) can0 264#3B000000A000
(1.153000) can0 129#E429FC5FFD1FFF3F
(1.154000) can0 227#F1031A0053000081
(1.154000) can0 132#478D23FF8B3E
(1.155000) can0 1E5#286C04000000007E
(1.156000) can0 2E1#65800800A33D316A
(1.157000) can0 1F9#0000000000000000
(1.158000) can0 243#00FCCF4C97240E29
(1.159000) can0 31E#0100000000000000
(1.160000) can0 25D#3741012A04F08803
(1.163000) can0 422#700010000000
(1.163000) can0 229#F90700
(1.164000) can0 3FD#02005A0000000090
(1.166000) can0 261#00100800FF4F207C
(1.166000) can0 257#864E7D7902A83E01
(1.167000) can0 441#E600B6C358001535
(1.168000) can0 201#0300000000000000
(1.169000) can0 263#700ED29FA74F1F00
(1.169000) can0 6A1#0000000000
(1.170000) can0 6A2#0000000000
(1.173000) can0 2E1#1021040010000004
(1.174000) can0 132#438D20FF7F3E
(1.175000) can0 1E5#286C0400000040BE
(1.176000) can0 118#956C950000C8B4FF
(1.178000) can0 3A8#00FF000000000000
(1.178000) can0 123#01000000003F0000
(1.179000) can0 3AE#024000080000004B
(1.180000) can0 261#3140FEFF8A493A71
(1.180000) can0 719#1700000000000000
(1.183000) can0 2E5#00001E320000B400
(1.183000) can0 129#352CFC5FFB1FFF3F
(1.184000) can0 132#4D8D1EFF6F3E
(1.185000) can0 118#D76D950000C8F400
(1.185000) can0 266#0C0014411300EA00
(1.186000) can0 257#975F7D7902A83E01
(1.188000) can0 1D6#020800000A078E08
(1.188000) can0 379#0600DC98800D0000
(1.189000) can0 395#0119194E0E000A7D
(1.190000) can0 1D5#290000000000201F
(1.191000) can0 55A#0500000000000000
(1.191000) can0 400#00E0FBBEEFFB00
(1.192000) can0 545#010000000010308B
(1.193000) can0 757#2C3F3E0000000000
(1.194000) can0 129#B52DFB5FFB1FFF3F
(1.194000) can0 1D8#293E8007000000C7
(1.195000) can0 3C8#0200000000000000
(1.196000) can0 261#8A292902805C42F2
(1.197000) can0 2EC#575095
(1.197000) can0 7D5#3200000000000000
(1.199000) can0 243#02FC3B0F06D20000
(1.200000) can0 3A1#884C0FCA001462E3
(1.200000) can0 37A#B20D000000000000
(1.201000) can0 420#2801404B00000003
(1.202000) can0 2E5#00001E320000B400
(1.205000) can0 129#6A2EFB5FFB1FFF3F
(1.205000) can0 266#0C0014411300EA00
(1.206000) can0 102#22B3880494FAA009
(1.209000) can0 359#C83F00000C00001C
(1.209000) can0 1D5#290000000000605F
(1.212000) can0 788#01000000FFA1B812
(1.212000) can0 238#8839F6343E00B81B
(1.213000) can0 340#0700000000000000
(1.214000) can0 129#9B2FFB5FFB1FFF3F
(1.215000) can0 3A2#0110200000000000
(1.216000) can0 118#1A60950000C84400
(1.219000) can0 201#0138980000000000
(1.219000) can0 1D5#290000000000807F
(1.220000) can0 288#0106184C006051A6
(1.221000) can0 382#3917210000
(1.221000) can0 39A#2013F3821BF7BE7E
(1.222000) can0 241#3D3C560F8F5500
(1.223000) can0 7AA#01260E230E02002E
(1.224000) can0 132#4B8D23FF813E
(1.224000) can0 118#DB61950000C80400
(1.225000) can0 545#020003000000408F
(1.226000) can0 257#89517D7902A83E01
(1.227000) can0 282#7CD4410718240324
(1.228000) can0 2A8#010100000600A052
(1.229000) can0 40A#091000000000C0E7
(1.230000) can0 34A#0007000000000020
(1.230000) can0 719#0003140F14050E00
(1.233000) can0 2E5#00001D320000B400
(1.233000) can0 2F1#01DA1E8142801200
(1.234000) can0 132#498D21FF853E
(1.235000) can0 1D8#293E800700008047
(1.235000) can0 252#0B40617600FC0F00
(1.236000) can0 292#0F8A77E184010000
(1.237000) can0 2F9#BCFB07030D1A8B84
(1.240000) can0 22B#FFFFFF0FF8000000
(1.240000) can0 458#00002000000000
(1.241000) can0 289#CE0C0683A1003D0F
(1.243000) can0 2E5#00001D320000B400
(1.243000) can0 261#0522B4C99A4270E6
(1.244000) can0 132#488D22FF813E
(1.245000) can0 3F5#0000C838820C0000
(1.245000) can0 266#0B0014411300EA00
(1.246000) can0 3F5#0000C838830C0000
(1.247000) can0 287#3D3C3E3FD1020302
(1.248000) can0 3AA#0000000000000000
(1.248000) can0 263#0400000070140000
(1.249000) can0 1D5#290000000000E0DF
(1.252000) can0 2C4#2522420800000020
(1.253000) can0 25B#D38000056A8630D3
(1.257000) can0 1E5#286C0400000040BE
(1.259000) can0 545#90045DB098845960
(1.262000) can0 31E#0200000000000000
(1.264000) can0 129#2E24FB5FFD1FFF3F
(1.266000) can0 54F#0000000000000000
(1.268000) can0 441#E600B6C358001D3D
(1.271000) can0 2E1#1021040010000004
(1.272000) can0 2E5#00001D320000B400
(1.275000) can0 129#3925FB5FFD1FFF3F
(1.275000) can0 118#7066950000C89400
(1.276000) can0 266#0B0014411300EA00
(1.279000) can0 2E2#000000BA020B0000
(1.279000) can0 1D5#290000000000403F
(1.280000) can0 211#BA16710F1001
(1.283000) can0 2E5#00001D320000B400
(1.285000) can0 129#3B26FB5FFE1FFF3F
(1.288000) can0 1FA#3AC001
(1.290000) can0 2C1#60307E00008A0200
(1.292000) can0 281#1B00FF1F0001
(1.294000) can0 2E5#00001D320000B400
(1.296000) can0 1D8#293E800700004007
(1.298000) can0 7D5#2BB19FFD00000000
(1.299000) can0 360#0900000000000000
(1.300000) can0 3A1#884C0FCA00148203
(1.303000) can0 420#2801404B00008003
(1.303000) can0 2AA#573033
(1.304000) can0 320#0400000000000000
(1.305000) can0 1D8#293E800700006027
(1.305000) can0 257#8D557D7902A83E01
(1.308000) can0 359#4900000000000000
(1.308000) can0 677#0000000000000000
(1.310000) can0 1D5#290000000000A09F
(1.311000) can0 23E#00003AC002FF3F7A
(1.311000) can0 788#0240CA0700030000
(1.312000) can0 285#61018E0308002E00
(1.313000) can0 353#FB0F39801A10FF0C
(1.314000) can0 373#08CF348377E31814
(1.314000) can0 249#CE0F0000
(1.315000) can0 3C3#0000000000A50000
(1.316000) can0 266#0B0014411300EA00
(1.316000) can0 441#3785890032002000
(1.319000) can0 201#0138980000000000
(1.319000) can0 234#2DE1038043009403
(1.320000) can0 272#080002D107B00304
(1.321000) can0 553#0000000000002078
(1.322000) can0 39A#39FFFDFDFD01000A
(1.323000) can0 129#DC2AFB5FFF1FFF3F
(1.324000) can0 381#EFFFFFCD0300A609
(1.325000) can0 118#B56B950000C8D400
(1.325000) can0 1E5#286C04000000209E
(1.326000) can0 383#A7182000C3E2E629
(1.327000) can0 282#74D4510718240324
(1.328000) can0 2A8#010100000600B062
(1.328000) can0 3E2#040000511FCF00
(1.329000) can0 1D5#290000000000E0DF
(1.332000) can0 2E1#0400000000102000
(1.334000) can0 423#00001000000000
(1.336000) can0 221#6055551554519178
(1.338000) can0 266#0B0014411300EA00
(1.341000) can0 2C3#555BA9B682C112AA
(1.343000) can0 2E5#00001E320000B400
(1.345000) can0 3A2#82A9FFFF03000000
(1.348000) can0 266#0B0014411300EA00
(1.348000) can0 677#0100000000000000
(1.349000) can0 45A#FD07F8FF03008D00
(1.350000) can0 3A1#C1FFFF833D0090CF
(1.351000) can0 23E#00003AC002FF4F8A
(1.351000) can0 2C4#0625A38CCAC81500
(1.352000) can0 2E5#00001E320000B400
(1.353000) can0 129#9B2DFB5F0120FF3F
(1.354000) can0 682#0000004004111045
(1.354000) can0 132#458D2AFF923E
(1.356000) can0 1E5#286C04000000007E
(1.357000) can0 545#90045D809881895D
(1.359000) can0 3AE#024000080000509B
(1.359000) can0 21D#0400B50000000000
(1.360000) can0 39D#035BE12700
(1.363000) can0 422#700010000000
(1.363000) can0 129#E92EFB5F0020FF3F
(1.364000) can0 132#4C8D29FF9E3E
(1.365000) can0 54F#0000000000000000
(1.365000) can0 266#0B0014411300EA00
(1.366000) can0 257#90587D7902A83E01
(1.369000) can0 295#1D2C000000000003
(1.369000) can0 234#2FE0022CB104A02D
(1.372000) can0 439#0000000000185A04
(1.372000) can0 103#22B38804A2F02032
(1.374000) can0 7AA#23E2F9080813001C
(1.375000) can0 1D8#293C4007000040C5
(1.375000) can0 118#0B60950000C83401
(1.376000) can0 266#0B0014411300EA00
(1.377000) can0 3A2#602573B01C004272
(1.378000) can0 3A8#0102000700020100
(1.378000) can0 123#01000000003F0000
(1.379000) can0 1D5#290000000000807F
(1.380000) can0 2E1#398D2AFF0F000000
(1.381000) can0 31A#200100000000104E
(1.383000) can0 2E5#00001E320000B400
(1.383000) can0 396#010F0F4B6A78107D
(1.384000) can0 132#478D2DFF9D3E
(1.385000) can0 118#7B61950000C8A400
(1.386000) can0 266#0B0014411300EA00
(1.387000) can0 20E#110100
(1.388000) can0 379#080000000B000C03
(1.388000) can0 395#0119194E0E000A7D
(1.389000) can0 3E8#0200000000000000
(1.390000) can0 281#1B00FF1F0001
(1.391000) can0 393#0380610000000000
(1.391000) can0 242#55558600
(1.392000) can0 2E5#00001E320000B400
(1.393000) can0 201#003C3B000080FF00
(1.394000) can0 132#488D2FFFA83E
(1.396000) can0 1D8#293A400700008003
(1.396000) can0 2E1#026D66021D830000
(1.397000) can0 381#1100000000000000
(1.399000) can0 7D5#3200000000000000
(1.399000) can0 1D5#290000000000C0BF
(1.400000) can0 39D#045CE12700
(1.403000) can0 420#2801404B00000004
(1.403000) can0 2AA#574043
(1.404000) can0 132#428D34FFB33E
(1.405000) can0 1D8#293A00070000A0E3
(1.405000) can0 257#925A7D7902A83E01
(1.408000) can0 359#4A040000D04D0C83
(1.408000) can0 343#0092643E95000000
(1.409000) can0 1D5#290000000000E0DF
(1.410000) can0 3A2#0110200000000000
(1.413000) can0 788#B4CCB1830000AA00
(1.413000) can0 3DF#0000C00002D0001B
(1.414000) can0 129#B423FB5F0020FF3F
(1.416000) can0 132#4A8D31FF9C3E
(1.416000) can0 441#3785890032002808
(1.419000) can0 201#0138980000000000
(1.419000) can0 1D5#29000000000000FF
(1.420000) can0 272#0380610000000000
(1.421000) can0 553#0000000000003088
(1.421000) can0 39A#1C17F7821FFBBE7E
(1.422000) can0 241#3B3CD60E8F5500
(1.423000) can0 129#3224FB5F0020FF3F
(1.424000) can0 132#488D2FFF9F3E
(1.424000) can0 118#2F65950000C85400
(1.425000) can0 1E5#286C0400000060DE
(1.428000) can0 383#A7182000C3E2E629
(1.428000) can0 3C2#0055555500006A05
(1.430000) can0 448#20001010000010
(1.431000) can0 23E#00003AC002FF6FAA
(1.431000) can0 381#120000000000AC02
(1.432000) can0 2E5#00001E320000B400
(1.435000) can0 129#2525FB5F0020FF3F
(1.435000) can0 252#0C40617600FC0F00
(1.436000) can0 266#0B0014411300EA00
(1.437000) can0 2F2#1201
(1.439000) can0 2C3#0000C04B010040CB
(1.439000) can0 1D5#290000000000403F
(1.440000) can0 528#6A313DA4
(1.441000) can0 289#CE0C060388003D0F
(1.442000) can0 666#0000C800
(1.442000) can0 2E5#00001E320000B400
(1.444000) can0 201#0200000000000000
(1.444000) can0 118#0167950000C82400
(1.445000) can0 1E5#286C04000000209E
(1.446000) can0 3F5#0000C838820C0000
(1.447000) can0 3F5#0000C838830C0000
(1.447000) can0 2C1#0304900000000000
(1.448000) can0 78A#010005009D0D0A00
(1.449000) can0 1D5#290000000000605F
(1.450000) can0 3A1#C1FFFF653D00B0D1
(1.453000) can0 2C4#0708BF90810C0007
(1.453000) can0 129#8127FB5FFF1FFF3F
(1.454000) can0 247#2F0EFF0D00D90100
(1.455000) can0 1D8#2938C00600004040
(1.455000) can0 2D1#FF01
(1.457000) can0 266#0A0014411300EA00
(1.460000) can0 243#00FCCF4C97240E29
(1.460000) can0 21D#0400B50000000000
(1.461000) can0 41D#00
(1.462000) can0 422#700010000000
(1.462000) can0 213#F80D
(1.463000) can0 129#5628FB5FFF1FFF3F
(1.464000) can0 229#F60A00
(1.464000) can0 118#3369950000C85400
(1.465000) can0 266#0A0014411300EA00
(1.466000) can0 1E5#286C0400000060DE
(1.467000) can0 3C0#0000000000000000
(1.467000) can0 301#1405005E7B799A00
(1.468000) can0 261#3140F4FF8E495A8B
(1.469000) can0 263#700ED29FA74F1F00
(1.470000) can0 1D5#290000000000A09F
(1.471000) can0 718#01000000000000
(1.472000) can0 2E5#00001E320000B400
(1.475000) can0 129#6A29FB5F0020FF3F
(1.475000) can0 118#736A950000C894FF
(1.476000) can0 2E1#398D2AFF0F000000
(1.479000) can0 2E2#0100003F020B0000
(1.479000) can0 1D5#290000000000C0BF
(1.480000) can0 211#BC18710F1001
(1.483000) can0 2E5#00001E320000B400
(1.485000) can0 129#282AFA5FFF1FFF3F
(1.487000) can0 1FA#3AC001
(1.489000) can0 268#73148A01FF
(1.491000) can0 400#00E0FBBEEFFB00
(1.493000) can0 2E1#026D66021D810000
(1.496000) can0 22B#FFFFFF07F8070000
(1.498000) can0 7D5#2BB6AFFD00000000
(1.499000) can0 360#0000000000000000
(1.500000) can0 261#434C0A0000407544
(1.501000) can0 37A#C10B000000000000
(1.501000) can0 420#2801404B00008004
(1.502000) can0 492#2503FF0F280000
(1.505000) can0 129#B92CFA5FFF1FFF3F
(1.509000) can0 1E5#286C0400000060DE
(1.511000) can0 1D5#290000000000201F
(1.513000) can0 788#01000000FFA1B812
(1.515000) can0 122#00001392D2000000
(1.517000) can0 3C3#0000000000A50000
(1.519000) can0 201#0138980000000000
(1.522000) can0 1D5#290000000000403F
(1.525000) can0 241#3C3C160F8F5500
(1.526000) can0 383#A718200065E0E629
(1.527000) can0 282#7CD4510714240324
(1.528000) can0 2A8#010100000600D082
(1.528000) can0 3E2#040000411FCF00
(1.529000) can0 448#20001010000010
(1.532000) can0 261#0522B4C99A429006
(1.532000) can0 423#00001000000000
(1.533000) can0 129#852FFA5FFF1FFF3F
(1.534000) can0 1F8#3A000000
(1.534000) can0 1D8#29368006000040FE
(1.535000) can0 2F9#BCFB071800000000
(1.536000) can0 266#0A0014411300EA00
(1.538000) can0 2D2#F72EAD4EBA10E822
(1.538000) can0 3B2#21CB0FFDFE0F1515
(1.539000) can0 42E#00E0BFFFFEEFBFFF
(1.540000) can0 318#1A06140C100C3FB6
(1.541000) can0 7FF#0500000120008000
(1.543000) can0 3A2#72A9FFFF03000000
(1.543000) can0 129#6020FA5FFF1FFF3F
(1.544000) can0 132#558D3BFFB93E
(1.545000) can0 1D8#2936C0060000605E
(1.545000) can0 257#A1617D7902B03E01
(1.548000) can0 3F5#0000C838830C0000
(1.548000) can0 4E2#025D04FB0F002800
(1.549000) can0 45A#FD07F8FF03008D00
(1.550000) can0 3A1#C1FFFF813D00D00D
(1.551000) can0 23E#00003AC002FF9FDA
(1.552000) can0 2E5#00001E320000B400
(1.553000) can0 2B4#3605230E4F01
(1.553000) can0 25B#D38000056A866003
(1.554000) can0 132#538D3CFFBB3E
(1.555000) can0 1D8#293680060000803E
(1.556000) can0 118#BC62950000C8E400
(1.556000) can0 545#90045D409989E986
(1.557000) can0 552#000000000000C017
(1.560000) can0 3AE#034000080000C00C
(1.560000) can0 283#000400004100
(1.563000) can0 422#700010000000
(1.563000) can0 129#3E22FA5FFF1FFF3F
(1.564000) can0 261#3140F4FF8E49BAEB
(1.566000) can0 401#032A449340932E93
(1.566000) can0 6A2#0000000000
(1.567000) can0 421#021A0000002000
(1.568000) can0 3F6#00050000B6340001
(1.568000) can0 2C1#0400000000000000
(1.569000) can0 443#750AFF030000
(1.570000) can0 333#0410590700
(1.571000) can0 295#9600A1FF00000007
(1.571000) can0 3FD#0000003C20000180
(1.573000) can0 6A1#0000000000
(1.574000) can0 132#578D3CFFC23E
(1.575000) can0 1D8#293480060000C07C
(1.575000) can0 3CC#03210318000E0900
(1.576000) can0 266#0A0014411300EA00
(1.579000) can0 3A8#2A80E1F51F00FFBF
(1.580000) can0 1D5#29000000000000FF
(1.581000) can0 31A#200100000000205E
(1.584000) can0 2E5#00001E320000B400
(1.584000) can0 401#042A419344934093
(1.585000) can0 1D8#293480060000E09C
(1.586000) can0 108#62AA01D200922525
(1.586000) can0 257#A3637D7902B03E01
(1.587000) can0 268#73148A01FF
(1.588000) can0 2B6#000300
(1.589000) can0 395#0119194E0E000A7D
(1.589000) can0 397#030000C91C060000
(1.590000) can0 281#1B00FF1F0001
(1.591000) can0 23E#00003AC002FFAFEA
(1.592000) can0 242#55558600
(1.594000) can0 757#2C3F3E0000000000
(1.595000) can0 1E5#286C04000000007E
(1.596000) can0 3C8#0600000000000000
(1.596000) can0 266#090014411300EA00
(1.597000) can0 7D5#2BB8AFFD00000000
(1.598000) can0 7D7#3232000000000000
(1.599000) can0 45A#24BEBE3D40383746
(1.599000) can0 1D5#290000000000403F
(1.602000) can0 37A#C20C000000000000
(1.602000) can0 2E5#00001E320000B400
(1.603000) can0 129#5226FB5F0120FF3F
(1.604000) can0 7A8#0240C507000F0000
(1.604000) can0 118#B067950000C8D4FF
(1.605000) can0 1E5#286C04000000209E
(1.609000) can0 359#4C00000000000000
(1.609000) can0 1D5#290000000000605F
(1.612000) can0 788#0240CA0700030000
(1.612000) can0 2F3#0B0B0B0400600002
(1.613000) can0 122#01000000003F0000
(1.614000) can0 249#83050000
(1.614000) can0 3C3#5555550100000000
(1.615000) can0 118#8268950000C8A400
(1.616000) can0 266#090014411300EA00
(1.619000) can0 201#0138980000000000
(1.619000) can0 1D5#290000000000807F
(1.620000) can0 3FD#01000A0000080280
(1.623000) can0 288#0106184C006091E6
(1.624000) can0 132#5B8D45FFCD3E
(1.625000) can0 401#062A409347934093
(1.628000) can0 383#A718200065E0E629
(1.628000) can0 3C2#0055555500006A05
(1.629000) can0 448#20001010000010
(1.630000) can0 719#150003AD00000000
(1.630000) can0 23E#00003AC002FFBFFA
(1.633000) can0 2E5#00001E320000B400
(1.633000) can0 129#1F29FB5F0220FF3F
(1.634000) can0 132#688D45FFCD3E
(1.635000) can0 1E5#286C04000000007E
(1.635000) can0 118#646A950000C88400
(1.636000) can0 2D2#F72EAD4EC410E822
(1.637000) can0 2F9#BCFB072000000000
(1.638000) can0 352#0000EF0BBF05BD05
(1.639000) can0 712#002A3E0D010D120D
(1.640000) can0 7F4#01
(1.641000) can0 39D#FA52E12700
(1.641000) can0 3A2#72A9FFFF03000000
(1.642000) can0 2E5#00001E320000B400
(1.643000) can0 201#0200000000000000
(1.644000) can0 261#00100700FF4F005B
(1.644000) can0 401#072A24934A934893
(1.645000) can0 266#090014411300EA00
(1.646000) can0 3F5#0000C838820C0000
(1.647000) can0 2E3#02000059020B00
(1.649000) can0 2C1#0304900000000000
(1.649000) can0 1D5#290000000000E0DF
(1.650000) can0 3A1#C1FFFF593D00F005
(1.653000) can0 2C4#49D9052FA694A58A
(1.654000) can0 129#A32BFC5F0220FF3F
(1.655000) can0 1E5#286C0400000040BE
(1.656000) can0 552#000000000000D027
(1.656000) can0 2D1#FF01
(1.659000) can0 243#00FCCF4C97240E29
(1.659000) can0 1D5#29000000000000FF
(1.660000) can0 261#3140E9FF8B491A3D
(1.663000) can0 422#700010000000
(1.665000) can0 229#490C00
(1.667000) can0 266#090014411300EA00
(1.669000) can0 724#010064
(1.671000) can0 3FD#02005A0000000090
(1.677000) can0 3FD#0000003C20000180
(1.679000) can0 6A1#0000000000
(1.680000) can0 39D#FB53E12700
(1.683000) can0 2E5#00001E320000B400
(1.685000) can0 129#A32EFC5F0320FF3F
(1.687000) can0 1FA#3AC001
(1.689000) can0 20E#140400
(1.691000) can0 397#030000C91C060000
(1.693000) can0 400#00E0FBBEEFFB00
(1.695000) can0 201#003D3B000080FF00
(1.698000) can0 3C8#0000000000000000
(1.699000) can0 243#02FC3B0F06D20000
(1.700000) can0 3A1#884C0FCA00140283
(1.701000) can0 37A#CBE0010000000000
(1.701000) can0 420#2801404B00008005
(1.702000) can0 2E5#00001E320000B400
(1.705000) can0 129#1A20FC5F0220FF3F
(1.706000) can0 1E5#286C0400000060DE
(1.707000) can0 3A2#0110200000000000
(1.708000) can0 359#D43F00000E000012
(1.708000) can0 677#0000000000000000
(1.709000) can0 1D5#290000000000A09F
(1.712000) can0 23E#00003AC002FFDF1A
(1.712000) can0 61D#02C178228E15010C
(1.713000) can0 22A#0000A916
(1.714000) can0 3AE#0640000800002170
(1.714000) can0 3C3#0000000000A50000
(1.715000) can0 3E3#04000000
(1.716000) can0 2E1#0400000000102000
(1.719000) can0 201#0138980000000000
(1.719000) can0 1D5#290000000000C0BF
(1.720000) can0 272#080002D107B00304
(1.722000) can0 2E8#0101000006001002
(1.722000) can0 3AE#064000080000307F
(1.723000) can0 3FD#01000A0000080280
(1.725000) can0 295#9600A1FF0000000A
(1.726000) can0 257#AA6A7D7902B03E01
(1.726000) can0 383#A718200065E0E629
(1.729000) can0 2A8#010100000600F0A2
(1.729000) can0 1D5#290000000000E0DF
(1.730000) can0 719#1700000000000000
(1.733000) can0 2E1#65800800A43D316A
(1.735000) can0 2F1#065A1F8142000100
(1.735000) can0 252#FA3F617600FC0F00
(1.736000) can0 118#3E64950000C86400
(1.737000) can0 2F9#BCFB072800000000
(1.738000) can0 2C3#555BA9B682C112AA
(1.739000) can0 1D5#29000000000000FF
(1.740000) can0 318#1A06140C100C239A
(1.741000) can0 7F4#01
(1.743000) can0 2E5#00001E320000B400
(1.745000) can0 132#548D4EFFD93E
(1.745000) can0 1E5#286C0400000060DE
(1.746000) can0 3F5#0000C838820C0000
(1.747000) can0 3F5#0000C838830C0000
(1.747000) can0 2E1#1021040010000004
(1.748000) can0 4E2#04E2208E1BB80100
(1.749000) can0 263#0400000070140000
(1.750000) can0 339#02F1FE008007800F
(1.750000) can0 78A#01000100D05C905D
(1.752000) can0 2C4#6A008117721F0C00
(1.758000) can0 2B4#3605250E5E01
(1.762000) can0 41D#00
(1.764000) can0 453#00000000
(1.766000) can0 2E1#398D2AFF0F000000
(1.768000) can0 54F#0000000000000000
(1.770000) can0 6A1#0000000000
(1.772000) can0 439#0000000000185A04
(1.774000) can0 3FD#02005A0000000090
(1.778000) can0 103#22B38804A2F22032
(1.779000) can0 1D5#290000000000807F
(1.780000) can0 2E1#026D66021D840000
(1.780000) can0 31A#200100000000306E
(1.783000) can0 2E5#00001E320000B400
(1.783000) can0 396#010F0F4B6B78107D
(1.785000) can0 401#0E2A349335933993
(1.786000) can0 1E5#286C0400000060DE
(1.786000) can0 126#16203064F1
(1.787000) can0 20E#150500
(1.788000) can0 379#00000948333F2100
(1.788000) can0 419#00
(1.789000) can0 263#892ED2A79F2F9F00
(1.790000) can0 1D5#290000000000A09F
(1.791000) can0 23E#00003AC002FFFF3A
(1.791000) can0 393#0380610000000000
(1.792000) can0 242#55558600
(1.793000) can0 757#3200000000000000
(1.793000) can0 3AE#07400008000050A0
(1.796000) can0 1D8#29320006000080BA
(1.797000) can0 266#090014411300EA00
(1.798000) can0 7D7#3232000000000000
(1.799000) can0 45A#24BEBE3D40383746
(1.799000) can0 1D5#290000000000C0BF
(1.800000) can0 39D#FE56E12700
(1.803000) can0 420#2801404B00000006
(1.803000) can0 2AA#578083
(1.804000) can0 7A8#01000000FFA1A812
(1.805000) can0 118#156B950000C83400
(1.805000) can0 1E5#286C04000000209E
(1.806000) can0 3A2#0110200000000000
(1.809000) can0 359#5500000000000000
(1.809000) can0 1D5#290000000000E0DF
(1.812000) can0 788#01000000FFA1B812
(1.812000) can0 2E5#00001E320000B400
(1.814000) can0 22A#0000A916
(1.814000) can0 3C3#5555550100000000
(1.815000) can0 118#366C950000C85400
(1.816000) can0 266#090014411300EA00
(1.819000) can0 201#0138980000000000
(1.819000) can0 1D5#29000000000000FF
(1.820000) can0 207#0000060003000000
(1.821000) can0 2E8#0101000006002012
(1.821000) can0 39A#1C13F3821F03C37E
(1.822000) can0 241#3C3C160F8F5500
(1.823000) can0 129#B62CFC5F0020FF3F
(1.826000) can0 132#658D4DFFD93E
(1.826000) can0 383#A718200065E0E629
(1.829000) can0 2A8#01010000060000B2
(1.830000) can0 1D5#290000000000201F
(1.831000) can0 719#0100040000000000
(1.834000) can0 2E5#00001E320000B400
(1.834000) can0 221#6055551554513118
(1.835000) can0 1E5#286C04000000007E
(1.836000) can0 252#0040627600FC0F00
(1.836000) can0 292#0F8A77E184010000
(1.837000) can0 2F9#BCFB07030D1A8B84
(1.838000) can0 712#020A080D6A0D0000
(1.839000) can0 243#04FC53F8017EFFFF
(1.839000) can0 113#019701
(1.840000) can0 458#00002000000000
(1.841000) can0 289#CE0C060382003D0F
(1.844000) can0 2E5#00001E320000B400
(1.845000) can0 287#3D3C3E3FD1020001
(1.846000) can0 3F5#0000C838820C0000
(1.847000) can0 2E3#0300005B020B00
(1.849000) can0 2C1#0304900000000000
(1.849000) can0 1D5#290000000000605F
(1.852000) can0 2C4#6B400180100D0C00
(1.852000) can0 224#0408004019011008
(1.853000) can0 2B4#3705240E5C01
(1.854000) can0 25B#D38000056A869033
(1.854000) can0 227#F3031A0053000081
(1.855000) can0 1E5#286C0400000040BE
(1.856000) can0 118#9960950000C8C4FF
(1.859000) can0 243#00FCCF4C97240E29
(1.859000) can0 1D5#290000000000807F
(1.861000) can0 2E1#398D2AFF0F000000
(1.862000) can0 422#700010000000
(1.864000) can0 285#02A800000000B200
(1.864000) can0 249#E20A0000
(1.865000) can0 266#090014411300EA00
(1.866000) can0 372#06178B1A3DCBD903
(1.866000) can0 441#E200B6C358000D29
(1.867000) can0 54F#0000000000000000
(1.868000) can0 201#0300000000000000
(1.869000) can0 263#700ED29FA74F1F00
(1.869000) can0 1D5#290000000000A09F
(1.870000) can0 23E#00003AC002FF1F5A
(1.873000) can0 3A2#602573AF1C804172
(1.875000) can0 132#678D4CFFD23E
(1.876000) can0 118#4B62950000C874FF
(1.879000) can0 2E2#F713504001000000
(1.879000) can0 1D5#290000000000C0BF
(1.880000) can0 211#C01C710F1001
(1.884000) can0 2E5#00001E320000B400
(1.888000) can0 132#688D4BFFD23E
(1.892000) can0 2C1#60307E00008A0200
(1.896000) can0 376#10514A4B504A9F7D
(1.900000) can0 118#3F64950000C86401
(1.907000) can0 261#D413604B004004CC
(1.908000) can0 359#56040000F0BA77EC
(1.908000) can0 677#0000000000000000
(1.909000) can0 1D5#290000000000201F
(1.912000) can0 23E#00003AC002FF2F6A
(1.913000) can0 293#020C559055142F20
(1.914000) can0 249#280B0000
(1.914000) can0 727#0500
(1.915000) can0 1E5#286C04000000007E
(1.916000) can0 261#0522B4C99A421086
(1.917000) can0 441#37858900320010F0
(1.917000) can0 201#0138980000000000
(1.918000) can0 243#03000000314D2E00
(1.919000) can0 207#0000060003000000
(1.920000) can0 288#0106184C0060C116
(1.920000) can0 39D#0159E12700
(1.923000) can0 39A#41FFFDFDFD01000A
(1.923000) can0 2E1#65800800A43D316A
(1.924000) can0 372#0700000000000000
(1.925000) can0 1D8#293200060000205A
(1.926000) can0 257#AC647D7902B83E01
(1.929000) can0 2A8#01010000060010C2
(1.929000) can0 1D5#290000000000605F
(1.932000) can0 261#00100700FF4F207B
(1.932000) can0 423#00001000000000
(1.933000) can0 129#0E27FF5F0520FF3F
(1.934000) can0 1F8#3A000000
(1.934000) can0 1D8#293200060000407A
(1.935000) can0 2D2#F82EAD4EB210E822
(1.936000) can0 118#1268950000C83400
(1.937000) can0 2F9#BCFB070800000000
(1.937000) can0 712#0300000000000000
(1.938000) can0 2C3#555BA9B682C112AA
(1.939000) can0 1D5#290000000000807F
(1.940000) can0 2E1#1021040010000004
(1.941000) can0 289#CE0C06439D003D0F
(1.942000) can0 2E5#00001E320000B400
(1.943000) can0 3F9#0100000000000000
(1.946000) can0 287#3D3C3E3FD1020001
(1.946000) can0 3F5#0000C838830C0000
(1.949000) can0 261#3140F1FF8B493A65
(1.949000) can0 1D5#290000000000A09F
(1.950000) can0 3A1#C1FFFF793D005085
(1.951000) can0 545#900458F09884A9EB
(1.952000) can0 682#00000040041170A5
(1.952000) can0 2E5#00001E320000B400
(1.953000) can0 129#5429FF5F0620FF3F
(1.954000) can0 708#2A1F0A0000
(1.955000) can0 1D8#29320006000080BA
(1.956000) can0 266#090014411300EA00
(1.957000) can0 1F9#0000000000000000
(1.960000) can0 524#86730302201001
(1.960000) can0 41D#00
(1.963000) can0 422#700010000000
(1.963000) can0 129#8B2AFF5F0620FF3F
(1.964000) can0 229#3B0F00
(1.965000) can0 401#172A5D9362936493
(1.965000) can0 1D8#293200060000A0DA
(1.966000) can0 257#A6667D7902B03E01
(1.967000) can0 421#021A0000002000
(1.968000) can0 6A2#0000000000
(1.968000) can0 2C1#0400000000000000
(1.969000) can0 2C2#5563A80680C11AAA
(1.971000) can0 439#0000000000185A04
(1.971000) can0 2E1#026D66021D830000
(1.972000) can0 2E5#00001E320000B400
(1.973000) can0 129#0F2BFF5F0420FF3F
(1.974000) can0 132#688D4CFFD03E
(1.974000) can0 1D8#293200060000C0FA
(1.977000) can0 118#B56C950000C8D4FF
(1.979000) can0 3A8#F4E07F4AFD0F0000
(1.979000) can0 1D5#29000000000000FF
(1.980000) can0 211#C11D710F1001
(1.981000) can0 717#000700E2FF2600
(1.984000) can0 2E5#00001E320000B400
(1.984000) can0 132#6C8D4CFFCE3E
(1.985000) can0 1D8#293240060000E05A
(1.987000) can0 1E5#286C0400000060DE
(1.987000) can0 379#02000948333F2100
(1.988000) can0 2C1#60307E00008A0200
(1.989000) can0 395#0119194E0E000A7D
(1.989000) can0 3E8#0100000000000000
(1.990000) can0 281#1B00FF1F0001
(1.991000) can0 23E#00003AC002FF4F8A
(1.992000) can0 242#55558600
(1.992000) can0 757#3200000000000000
(1.993000) can0 7AA#0B4E00284B004100
(1.994000) can0 132#608D4AFFD43E
(1.995000) can0 1D8#293200060000003A
(1.995000) can0 3C8#0300000000000000
(1.996000) can0 261#D413604B0040642C
(1.999000) can0 315#18534960504AC980
(2.001000) can0 1D5#290000000000403F
(2.003000) can0 5D7#506E0D0002
(2.010000) can0 3AE#0B4000080000D024
(2.015000) can0 261#0522B4C99A4270E6
(2.017000) can0 118#5A60950000C88400
(2.019000) can0 201#0138980000000000
(2.021000) can0 1D5#290000000000807F
(2.023000) can0 39A#1C13F7822307C37E
(2.025000) can0 132#608D4EFFD83E
(2.027000) can0 1E5#286C0400000060DE
(2.029000) can0 2A8#01010000060020D2
(2.031000) can0 1D5#290000000000A09F
(2.032000) can0 2E5#00001E320000B400
(2.035000) can0 129#E621FF5F0120FF3F
(2.036000) can0 212#5904000081FF7731
(2.037000) can0 2F2#1201
(2.037000) can0 428#20001010000010
(2.038000) can0 2C3#0000C04B010040CB
(2.039000) can0 243#04FC53F8017EFFFF
(2.040000) can0 7F4#01
(2.040000) can0 458#00002000000000
(2.043000) can0 2E5#00001E320000B400
(2.043000) can0 129#0222FF5F0020FF3F
(2.044000) can0 381#0800000000000000
(2.045000) can0 118#ED63950000C81400
(2.045000) can0 1E5#286C04000000209E
(2.046000) can0 401#1B2A3F933C934293
(2.049000) can0 2C1#0304900000000000
(2.050000) can0 1D5#290000000000E0DF
(2.053000) can0 2C4#4D80000200000000
(2.053000) can0 129#1523FF5F0020FF3F
(2.054000) can0 7B5#010000
(2.055000) can0 7B5#030000
(2.055000) can0 225#5555FA00
(2.056000) can0 1E5#286C0400000040BE
(2.057000) can0 386#0000000000000000
(2.058000) can0 1F9#0000000000000000
(2.058000) can0 380#0000000000000000
(2.059000) can0 75D#8000000000000000
(2.060000) can0 261#8A292902805CA252
(2.060000) can0 283#000400004100
(2.063000) can0 3FD#0000003C20000180
(2.064000) can0 422#700010000000
(2.066000) can0 1D8#293240060000E05A
(2.067000) can0 257#CB7B7D790AB83E01
(2.067000) can0 2E1#026D66021D830000
(2.068000) can0 2C1#0400000000000000
(2.069000) can0 2B3#017E7C857B7B7D7E
(2.070000) can0 234#2DE0022DB5048010
(2.070000) can0 718#04000000000000
(2.073000) can0 262#0B00AAB300B09010
(2.073000) can0 129#8425FF5F0020FF3F
(2.076000) can0 1D8#293200060000003A
(2.080000) can0 2E2#000000BA020B0000
(2.080000) can0 39D#055DE12700
(2.083000) can0 2E5#00001E320000B400
(2.085000) can0 129#5E26FF5F0020FF3F
(2.088000) can0 1FA#3AC001
(2.090000) can0 2B6#000300
(2.092000) can0 281#1B00FF1F0001
(2.094000) can0 2E5#00001E320000B400
(2.096000) can0 1D8#293200060000407A
(2.099000) can0 748#2A1F0A0000
(2.099000) can0 1D5#290000000000807F
(2.102000) can0 37A#CBE0010000000000
(2.102000) can0 4E3#0200000000002800
(2.103000) can0 129#45280060FF1FFF3F
(2.104000) can0 7A8#01000000FFA1A812
(2.104000) can0 118#6269950000C884FF
(2.105000) can0 372#0A104B06010000AA
(2.106000) can0 401#1E2A3B9336933E93
(2.109000) can0 359#5800000000000000
(2.110000) can0 1D5#290000000000A09F
(2.113000) can0 788#01000000FFA1B812
(2.113000) can0 129#792900600020FF3F
(2.114000) can0 132#558D4CFFD33E
(2.115000) can0 3FD#01000A0000080280
(2.117000) can0 3C3#0000000000A50000
(2.117000) can0 545#020002000000F03E
(2.118000) can0 207#00000A0004000000
(2.121000) can0 1D5#290000000000C0BF
(2.121000) can0 39A#41FFFDFDFD01000A
(2.122000) can0 2E5#00001E320000B400
(2.125000) can0 129#142AFF5F0020FF3F
(2.125000) can0 1E5#286C04000000209E
(2.128000) can0 383#A718200065E0E629
(2.129000) can0 3E2#040000411FCF00
(2.132000) can0 2E1#1021040010000004
(2.132000) can0 423#00001000000000
(2.133000) can0 129#572B00600020FF3F
(2.134000) can0 1F8#3A000000
(2.134000) can0 1D8#293200060000C0FA
(2.135000) can0 2D2#F72EAD4EC610E822
(2.136000) can0 252#4640627600FC0F00
(2.137000) can0 2F9#BCFB071800000000
(2.137000) can0 3A2#82A9FFFF03000000
(2.138000) can0 712#0500000000000000
(2.139000) can0 2C3#555BA9B682C112AA
(2.140000) can0 261#3140E7FF8C49FA1C
(2.140000) can0 709#190000008F040000
(2.142000) can0 2E5#00001E320000B400
(2.143000) can0 201#0200000000000000
(2.143000) can0 7AA#C0E38E3C00088C29
(2.144000) can0 132#638D4DFFD83E
(2.145000) can0 3F5#0000C838820C0000
(2.146000) can0 3F5#0000C838830C0000
(2.148000) can0 2E1#398D2AFF0F000000
(2.148000) can0 677#0100000000000000
(2.149000) can0 545#900458F09888094F
(2.150000) can0 339#02F1FE008007800F
(2.150000) can0 23E#00003AC002FF8FCA
(2.151000) can0 2C4#12BA00210E405502
(2.152000) can0 224#0408004019011008
(2.153000) can0 682#00000040041190C5
(2.154000) can0 25B#D38000056A86C063
(2.155000) can0 227#F1031A0053000081
(2.156000) can0 261#8A292902805C02B2
(2.157000) can0 552#0000000000002077
(2.159000) can0 22B#FFFFFF03F8FF0F00
(2.159000) can0 1D5#290000000000403F
(2.160000) can0 41D#00
(2.163000) can0 294#14C1400040000000
(2.163000) can0 129#A32E01600120FF3F
(2.164000) can0 229#440100
(2.165000) can0 3FD#02005A0000000090
(2.167000) can0 118#E96F950000C80400
(2.167000) can0 421#021A0000002000
(2.168000) can0 2BF#00000000000001
(2.170000) can0 307#000000000000003B
(2.170000) can0 54F#0000000000000000
(2.173000) can0 261#434C0A00004015E4
(2.173000) can0 129#522F01600120FF3F
(2.176000) can0 1D8#293200060000407A
(2.180000) can0 3A8#00FF000000000000
(2.180000) can0 31A#200100000000508E
(2.183000) can0 545#010000000010106B
(2.183000) can0 129#B72001600120FF3F
(2.184000) can0 132#6B8D50FFE13E
(2.185000) can0 1D8#2930000600006098
(2.185000) can0 3A3#16C00000380DFC01
(2.186000) can0 257#C1717D790AB83E01
(2.187000) can0 1D6#020800000A078E08
(2.188000) can0 279#1BB0FC01A8056502
(2.189000) can0 395#0119194E0E000A7D
(2.190000) can0 414#1000000000434956
(2.191000) can0 281#1B00FF1F0001
(2.192000) can0 400#00E0FBBEEFFB00
(2.192000) can0 242#55558600
(2.193000) can0 345#0E00000000000000
(2.194000) can0 139#00
(2.194000) can0 1D8#29320006000080BA
(2.197000) can0 118#EC62950000C81400
(2.197000) can0 7D5#2C3E3F0000000000
(2.200000) can0 243#02FC3B0F06D20000
(2.200000) can0 39D#1950012800
(2.203000) can0 420#2801404B00000000
(2.203000) can0 129#E92201600120FF3F
(2.205000) can0 7A8#0240C507000F0000
(2.206000) can0 1E5#286C04000000209E
(2.206000) can0 387#707C636163630040
(2.209000) can0 359#DA3FDF118F51010C
(2.209000) can0 1D5#290000000000E0DF
(2.212000) can0 788#0240CA0700030000
(2.212000) can0 2E5#00001E320000B400
(2.213000) can0 340#0500000000000000
(2.214000) can0 129#FE2301600120FF3F
(2.214000) can0 3C3#5555550100000000
(2.215000) can0 545#020002000000206E
(2.216000) can0 441#3785890032002808
(2.219000) can0 207#00000A0003000000
(2.219000) can0 1D5#29000000000000FF
(2.221000) can0 272#0380610000000000
(2.222000) can0 2E5#00001E320000B400
(2.222000) can0 241#3B3CD60E8F5500
(2.223000) can0 129#782401600120FF3F
(2.224000) can0 132#668D55FFE23E
(2.225000) can0 1D8#2930C0050000E0D7
(2.225000) can0 257#C3737D790AB83E01
(2.228000) can0 383#A718200065E0E629
(2.228000) can0 3C2#0055555500006A05
(2.229000) can0 40A#0910000000001037
(2.230000) can0 34A#0207000000000090
(2.230000) can0 23E#00003AC002FFAFEA
(2.233000) can0 2E5#00001E320000B400
(2.235000) can0 2F1#2B6F008500000000
(2.236000) can0 212#5904000081FF7731
(2.237000) can0 2D2#F82EAD4EBE10E822
(2.238000) can0 428#20001010000010
(2.238000) can0 2C3#0000C04B010040CB
(2.239000) can0 1D5#290000000000403F
(2.240000) can0 7FF#0301082861428001
(2.241000) can0 39D#F951E12700
(2.243000) can0 2E5#00001E320000B400
(2.243000) can0 129#B52601600120FF3F
(2.244000) can0 132#6A8D54FFE13E
(2.245000) can0 1D8#2930C00500002017
(2.245000) can0 1E5#286C04000000209E
(2.246000) can0 2E3#F7D34F3F010000
(2.249000) can0 3AA#0000000000000000
(2.250000) can0 1D5#290000000000605F
(2.253000) can0 2C4#13A3000D0E2E0502
(2.254000) can0 132#698D53FFDE3E
(2.258000) can0 266#080013411300EA00
(2.260000) can0 243#00FCCF4C97240E29
(2.262000) can0 381#0E00000000E0FF00
(2.264000) can0 422#700010000000
(2.266000) can0 249#2A020000
(2.268000) can0 3C0#0800000000000000
(2.271000) can0 2C1#0400000000000000
(2.272000) can0 2E5#00001E320000B400
(2.275000) can0 129#202901600120FF3F
(2.275000) can0 118#146A950000C83400
(2.276000) can0 2E1#FB1F89D996810900
(2.278000) can0 2E2#0100003D020B0000
(2.278000) can0 123#00001392D2000000
(2.279000) can0 1D5#290000000000C0BF
(2.280000) can0 211#B410710F1001
(2.281000) can0 545#010000000010409B
(2.283000) can0 2E5#00001E320000B400
(2.285000) can0 129#A62A00600020FF3F
(2.287000) can0 419#00
(2.289000) can0 20E#120200
(2.291000) can0 397#030000C91C040000
(2.293000) can0 2E1#0400000000102000
(2.295000) can0 129#A32B01600020FF3F
(2.298000) can0 118#266C950000C84400
(2.299000) can0 360#0800000000000000
(2.300000) can0 3A1#884C0FCA0014C243
(2.301000) can0 37A#C10B000000000000
(2.302000) can0 2E5#00001E320000B400
(2.305000) can0 129#C32C01600020FF3F
(2.305000) can0 1E5#286C0400000060DE
(2.308000) can0 359#5B00000000000000
(2.308000) can0 677#0000000000000000
(2.309000) can0 2B3#0500000079807C00
(2.312000) can0 23E#00003AC002FFCF0A
(2.312000) can0 340#0600000000000000
(2.313000) can0 122#00001392D2000000
(2.314000) can0 353#FB0F39801A10FF0C
(2.314000) can0 373#071E359377E31814
(2.315000) can0 1D8#292E8005000000B5
(2.316000) can0 118#B86E950000C8D400
(2.318000) can0 441#3785890032003010
(2.318000) can0 243#03000000314D2E00
(2.319000) can0 1D5#290000000000403F
(2.320000) can0 288#0106184C00600156
(2.320000) can0 553#000000000000C018
(2.321000) can0 39A#41FFFDFDFD01000A
(2.322000) can0 2E5#00001E320000B400
(2.325000) can0 129#932E0060FF1FFF3F
(2.325000) can0 1E5#286C04000000209E
(2.328000) can0 383#A718200065E0662A
(2.330000) can0 3E2#040000511FCF00
(2.332000) can0 261#314009008C49BAFF
(2.334000) can0 423#00001000000000
(2.336000) can0 221#605555155451D1B8
(2.339000) can0 266#070013401300EA00
(2.341000) can0 1D5#290000000000807F
(2.344000) can0 2E5#00001E320000B400
(2.345000) can0 1D8#292C4005000060D3
(2.346000) can0 257#E2897D7A0AC03E01
(2.346000) can0 3F5#0000C838830C0000
(2.349000) can0 261#8A292902805CC272
(2.349000) can0 1D5#290000000000A09F
(2.352000) can0 23E#00003AC002FFDF1A
(2.352000) can0 264#3B000000A000
(2.353000) can0 129#F92100600020FF3F
(2.356000) can0 132#6C8D60FFF43E
(2.356000) can0 2D1#FF01
(2.359000) can0 243#00FCCF4C97240E29
(2.360000) can0 1D5#290000000000C0BF
(2.363000) can0 355#800C00FF940000
(2.363000) can0 129#D9220060FF1FFF3F
(2.364000) can0 132#668D5DFFFC3E
(2.365000) can0 261#434C0A000040D5A4
(2.365000) can0 266#070013411300EA00
(2.366000) can0 6A2#0000000000
(2.367000) can0 3A2#602573AB1C004272
(2.368000) can0 2C1#0400000000000000
(2.368000) can0 381#1100000000000000
(2.369000) can0 2C2#5563A80680C11AAA
(2.370000) can0 234#2FE0022CB104E06D
(2.373000) can0 2E1#FB1F8AD996840900
(2.373000) can0 129#CE230060FF1FFF3F
(2.375000) can0 1D8#292A40050000C031
(2.376000) can0 118#0E64950000C83400
(2.380000) can0 3A8#0103000700020100
(2.380000) can0 545#01000000001070CB
(2.383000) can0 2E5#00001E320000B400
(2.383000) can0 396#010F0F4B6A78107D
(2.384000) can0 132#628D64FF093F
(2.385000) can0 1D8#292A40050000E051
(2.385000) can0 1FA#3AC001
(2.386000) can0 3A3#14D00000380DFC01
(2.387000) can0 20E#130300
(2.388000) can0 379#06001202000D0000
(2.388000) can0 2C1#60307E00008A0200
(2.389000) can0 397#030000C91C040000
(2.390000) can0 400#00E0FBBEEFFB00
(2.391000) can0 677#0200000000000000
(2.392000) can0 2E5#00001E320000B400
(2.393000) can0 201#003C3C000080FF00
(2.396000) can0 132#758D6AFF163F
(2.396000) can0 3C8#0000000000000000
(2.397000) can0 7D5#2BC0BFFD00000000
(2.398000) can0 7D7#3231000000000000
(2.398000) can0 243#02FC3B0F061D0000
(2.399000) can0 39B#0318DF80B088F040
(2.400000) can0 3A2#0110200000000000
(2.403000) can0 420#2801404B00000001
(2.403000) can0 129#85260060FF1FFF3F
(2.404000) can0 381#120000000000AC02
(2.405000) can0 1D8#292800050000204F
(2.406000) can0 257#E58C7D7A0AC03E01
(2.409000) can0 359#5C0400000D1A8B84
(2.409000) can0 1D5#290000000000605F
(2.412000) can0 788#01000000FFA1B812
(2.412000) can0 2E5#00001E320000B400
(2.413000) can0 545#02000200000080CE
(2.414000) can0 3DF#0000C00002D0001B
(2.414000) can0 3AE#0B4000080000D024
(2.415000) can0 132#748D6AFF063F
(2.416000) can0 323#3B141F0204
(2.417000) can0 266#070013401300EA00
(2.417000) can0 201#0138980000000000
(2.418000) can0 243#03000000314D2E00
(2.419000) can0 1D5#290000000000807F
(2.420000) can0 288#0106184C00601166
(2.423000) can0 39A#1C13F782230BBF7E
(2.423000) can0 129#45280060FF1FFF3F
(2.426000) can0 118#F369950000C81400
(2.426000) can0 383#A71820006590612A
(2.429000) can0 2A8#0101000006006012
(2.429000) can0 1D5#290000000000A09F
(2.430000) can0 6E8#247C00F412200C00
(2.433000) can0 2E5#00001E320000B400
(2.433000) can0 129#0F29FF5FFE1FFF3F
(2.434000) can0 132#728D6BFF0B3F
(2.435000) can0 1E5#286C04000000007E
(2.435000) can0 118#F46A950000C81400
(2.436000) can0 292#0F8A77E184010000
(2.438000) can0 2F9#BCFB07030D1A8B84
(2.438000) can0 2C3#0000C04B010040CB
(2.439000) can0 1D5#290000000000C0BF
(2.440000) can0 381#130000000020FCFF
(2.441000) can0 666#0000C800
(2.441000) can0 318#1A06150C100C31A9
(2.442000) can0 405#113345374542334B
(2.443000) can0 55A#0100000000000000
(2.444000) can0 129#A62A00600020FF3F
(2.444000) can0 132#7B8D6BFF113F
(2.445000) can0 266#060013401400EA00
(2.446000) can0 3F5#0000C838820C0000
(2.447000) can0 3F5#0000C838830C0000
(2.447000) can0 2C1#0304900000000000
(2.449000) can0 4E2#04E6200E1BB80100
(2.450000) can0 339#02F1FE008007800F
(2.452000) can0 2C4#550001081000FF00
(2.452000) can0 2E5#00001E320000B400
(2.453000) can0 709#9A3EC02E00922200
(2.454000) can0 7AA#04000FC000260000
(2.454000) can0 225#5555FA00
(2.455000) can0 552#00000000000050A7
(2.456000) can0 227#F2031A0053000081
(2.457000) can0 1F9#0000000000000000
(2.460000) can0 243#00FCCF4C97240E29
(2.460000) can0 21D#0400B50000000000
(2.461000) can0 75D#5245AE000000B04A
(2.462000) can0 422#700010000000
(2.463000) can0 082#0F7FFF27FF034604
(2.464000) can0 285#2445605872000000
(2.465000) can0 118#A66D950000C8C4FF
(2.466000) can0 441#DA00B6C358003D51
(2.466000) can0 257#E88F7D7A0AC03E01
(2.467000) can0 54F#0000000000000000
(2.468000) can0 201#0300000000000000
(2.469000) can0 263#700ED29FA74F1F00
(2.469000) can0 1D5#290000000000201F
(2.470000) can0 718#01000000000000
(2.473000) can0 2E5#00001E320000B400
(2.473000) can0 129#972DFF5F0020FF3F
(2.476000) can0 1D8#29268004000000AC
(2.476000) can0 381#5410C006000000FE
(2.478000) can0 2E2#E211294949490900
(2.479000) can0 123#00001392D2000000
(2.479000) can0 1D5#290000000000403F
(2.480000) can0 211#B612710F1001
(2.483000) can0 2E5#00001E320000B400
(2.485000) can0 129#212EFF5FFF1FFF3F
(2.487000) can0 266#060013401400EA00
(2.489000) can0 279#1EB3FC01A8056502
(2.491000) can0 3E8#0600000000000000
(2.493000) can0 261#0522B4C99A4250C6
(2.495000) can0 139#00
(2.498000) can0 118#6A60950000C89400
(2.499000) can0 300#1278CEA87F02F3C3
(2.499000) can0 1D5#290000000000807F
(2.501000) can0 3A1#884C0FCA00140283
(2.502000) can0 420#2801404B00008001
(2.502000) can0 2E5#00001E320000B400
(2.503000) can0 129#3520FF5FFF1FFF3F
(2.507000) can0 132#7D8D73FF213F
(2.512000) can0 261#00100600FF4F60BA
(2.514000) can0 324#7BCF58D09E010000
(2.516000) can0 129#2221FF5FFF1FFF3F
(2.518000) can0 266#050013401400EA00
(2.520000) can0 22B#FFFFFF03F8FFFFFF
(2.522000) can0 272#080002E107B00304
(2.524000) can0 241#3D3C560F8F5500
(2.527000) can0 118#ED63950000C81400
(2.528000) can0 2C1#0219060000D00200
(2.529000) can0 263#0300000000000000
(2.532000) can0 2E1#398D2AFF0F000000
(2.532000) can0 423#00001000000000
(2.533000) can0 129#7C23FF5FFF1FFF3F
(2.534000) can0 1F8#3A000000
(2.534000) can0 1D8#292240040000C028
(2.535000) can0 118#AD64950000C8D4FF
(2.536000) can0 2F9#BCFB070800000000
(2.539000) can0 2D2#F82EAD4EBC10E822
(2.539000) can0 1D5#29000000000000FF
(2.540000) can0 318#1A06150C100C33AB
(2.541000) can0 289#CE0C064386003D0F
(2.544000) can0 2E5#00001E320000B400
(2.544000) can0 118#CE65950000C8F4FF
(2.546000) can0 266#060013401400EA00
(2.549000) can0 24A#03
(2.549000) can0 45A#FD07F8FF03001400
(2.550000) can0 339#02F1FE008007800F
(2.551000) can0 23E#00003AC002FF2F6A
(2.551000) can0 2C4#1682370700000001
(2.552000) can0 224#0408004019011008
(2.553000) can0 2A4#BC9F3DEE9FEF7D4A
(2.554000) can0 364#3C82781F
(2.554000) can0 225#5555FA00
(2.555000) can0 552#00000000000060B7
(2.556000) can0 227#F3031A0053000081
(2.557000) can0 1F9#0000000000000000
(2.559000) can0 243#00FCCF4C97240E29
(2.559000) can0 1D5#290000000000403F
(2.561000) can0 39D#0159E12700
(2.561000) can0 422#700010000000
(2.562000) can0 2E5#00001E320000B400
(2.563000) can0 3FD#0000003C20000180
(2.565000) can0 129#3726FF5FFF1FFF3F
(2.566000) can0 3A2#6025F3AE1C004272
(2.566000) can0 257#F5947D7A0AC83E01
(2.567000) can0 401#032A689364935293
(2.568000) can0 201#0300000000000000
(2.569000) can0 3AE#0A40000800001164
(2.569000) can0 234#2FE0022DB50420B2
(2.570000) can0 3F6#00050000B6340001
(2.571000) can0 672#0200000000000000
(2.572000) can0 261#D413604B0040A46C
(2.573000) can0 103#22B38804A2F02032
(2.574000) can0 132#748D7CFF3C3F
(2.575000) can0 1D8#29204004000040A6
(2.575000) can0 3CC#03218318000E0900
(2.578000) can0 2D3#D9006E0231152E4C
(2.578000) can0 3C2#2955000000000000
(2.579000) can0 1D5#290000000000807F
(2.580000) can0 2E1#0400000000102000
(2.580000) can0 31A#20010000000070AE
(2.583000) can0 2E5#00001E320000B400
(2.583000) can0 396#010F104B6B78107D
(2.584000) can0 221#610555550107205B
(2.585000) can0 118#B369950000C8D400
(2.585000) can0 266#050013401400EA00
(2.587000) can0 108#7F04016A00BD2525
(2.588000) can0 2B6#000300
(2.588000) can0 379#080000000B000C03
(2.589000) can0 397#03E07FC91C040000
(2.590000) can0 400#00E0FBBEEFFB00
(2.591000) can0 393#0380610000000000
(2.591000) can0 242#55558600
(2.592000) can0 757#2C3F3E0000000000
(2.593000) can0 201#003B3B000080FF00
(2.594000) can0 31F#77497D487B487B48
(2.594000) can0 1D8#29200004000080A6
(2.597000) can0 118#636A950000C884FF
(2.597000) can0 7D5#3200000000000000
(2.598000) can0 3A2#0110200000000000
(2.599000) can0 45A#24BEBE3D40373746
(2.600000) can0 3A1#884C0FCA001422A3
(2.603000) can0 420#2801404B00000002
(2.603000) can0 129#142AFF5F0020FF3F
(2.604000) can0 7A8#B4CCB18300008200
(2.605000) can0 1D8#292000040000A0C6
(2.605000) can0 257#F7967D7A0AC83E01
(2.608000) can0 359#5E69414BFC9DF5F5
(2.608000) can0 343#009270AE95000000
(2.609000) can0 3AE#0A40000800002174
(2.612000) can0 545#020002000000E02E
(2.612000) can0 2F3#0B0B0B0400600002
(2.613000) can0 3FD#01000A0000080280
(2.615000) can0 340#0900000000000000
(2.616000) can0 118#C66C950000C8E400
(2.619000) can0 201#0138980000000000
(2.619000) can0 1D5#29000000000000FF
(2.620000) can0 272#0380610000000000
(2.621000) can0 553#000000000000F048
(2.621000) can0 39A#2017F7822307BF7E
(2.624000) can0 241#3B3CD60E8F5500
(2.624000) can0 401#062A639368936393
(2.625000) can0 1D8#291E00040000E004
(2.628000) can0 383#A71820006590612A
(2.628000) can0 3C2#0055555500006A05
(2.629000) can0 38B#FEFE470FC8C02503
(2.630000) can0 448#20001010000010
(2.630000) can0 23E#00003AC002FF4F8A
(2.632000) can0 2E5#00001E320000B400
(2.635000) can0 129#972DFF5F0020FF3F
(2.635000) can0 212#5904000081FF7731
(2.636000) can0 261#8A292902805CE292
(2.637000) can0 2F2#1201
(2.637000) can0 392#000B000000000000
(2.638000) can0 2C3#0000C04B010040CB
(2.639000) can0 1D5#290000000000403F
(2.640000) can0 7FF#0720000528000000
(2.640000) can0 39D#276BF52700
(2.643000) can0 2E5#00001E320000B400
(2.643000) can0 129#482EFF5F0020FF3F
(2.644000) can0 132#7D8D86FF503F
(2.645000) can0 1D8#291EC00300002003
(2.645000) can0 257#F1987D7A0AC03E01
(2.647000) can0 3F5#0000C838830C0000
(2.648000) can0 4E2#0600000000000000
(2.649000) can0 45A#FD07F8FF03001400
(2.649000) can0 339#02F1FE008007800F
(2.652000) can0 3D8#2E002C00
(2.652000) can0 2E5#00001E320000B400
(2.653000) can0 2B4#3505290E5401
(2.654000) can0 682#000000400411E015
(2.654000) can0 1D8#291EC00300004023
(2.655000) can0 552#00000000000070C7
(2.656000) can0 266#040013401400EA00
(2.657000) can0 1F9#0000000000000000
(2.659000) can0 243#00FCCF4C97240E29
(2.659000) can0 1D5#290000000000807F
(2.662000) can0 41D#00
(2.664000) can0 3FD#02005A0000000090
(2.670000) can0 2E5#00001E320000B400
(2.672000) can0 6A1#0000000000
(2.674000) can0 103#22B38804A2F02032
(2.676000) can0 1D8#291EC00300008063
(2.678000) can0 545#010000000010005B
(2.679000) can0 1D5#290000000000C0BF
(2.680000) can0 211#B814710F1001
(2.683000) can0 2E5#00001E320000B400
(2.685000) can0 129#6B22FF5FFF1FFF3F
(2.687000) can0 372#0310075000010000
(2.689000) can0 1D6#020800000A078E08
(2.691000) can0 3A3#14D00000380DFC01
(2.694000) can0 400#00E0FBBEEFFB00
(2.696000) can0 1D8#291CC0030000C0A1
(2.698000) can0 7D5#2BCDCFFD00000000
(2.699000) can0 360#0100000000000000
(2.700000) can0 261#00100600FF4F207A
(2.700000) can0 37A#B10D000000000000
(2.701000) can0 420#2801404B00008002
(2.704000) can0 4E3#01D8050000002800
(2.704000) can0 320#0100000800000000
(2.705000) can0 266#040013401400EA00
(2.706000) can0 257#E48B7D7A0AC03E01
(2.709000) can0 359#803F000000000000
(2.711000) can0 545#020002000000105E
(2.711000) can0 788#01000000FFA1B812
(2.713000) can0 228#0106184C00601106
(2.714000) can0 129#ED25FF5FFF1FFF3F
(2.714000) can0 3C3#0000000000A50000
(2.715000) can0 1E5#286C04000000007E
(2.716000) can0 207#00040A0104000000
(2.719000) can0 201#0138980000000000
(2.719000) can0 234#2CE10380430054C2
(2.720000) can0 39D#296DF52700
(2.723000) can0 39A#45FFFDFDFD01000A
(2.723000) can0 129#3726FF5FFF1FFF3F
(2.724000) can0 401#0B2A5A9368935F93
(2.725000) can0 1D8#291C8003000020C1
(2.725000) can0 257#ED8C7D7A0AC83E01
(2.726000) can0 383#A71820006590612A
(2.728000) can0 282#7CD4510718240324
(2.729000) can0 263#0300000000000000
(2.729000) can0 1D5#290000000000605F
(2.730000) can0 34A#0300000000000000
(2.731000) can0 719#150003AD00000000
(2.732000) can0 261#8A292902805C42F2
(2.732000) can0 423#00001000000000
(2.733000) can0 129#2027FF5FFF1FFF3F
(2.734000) can0 221#6055551554515138
(2.735000) can0 1D8#291C8003000040E1
(2.735000) can0 212#5904000081FF7731
(2.736000) can0 266#040013401400EA00
(2.737000) can0 2F9#BCFB071800000000
(2.740000) can0 2C3#555BA9B682C112AA
(2.741000) can0 287#3D3C3E3FD2020002
(2.742000) can0 2E5#00001E320000B400
(2.743000) can0 3F9#0000000000000000
(2.743000) can0 129#F728FF5FFF1FFF3F
(2.744000) can0 132#888D86FF3E3F
(2.745000) can0 266#040013401400EA00
(2.745000) can0 372#0400000000009011
(2.746000) can0 3F5#0000C838830C0000
(2.749000) can0 261#434C0A0000405524
(2.749000) can0 677#0100000000000000
(2.750000) can0 339#02F1FE008007800F
(2.751000) can0 23E#00003AC002FF7FBA
(2.751000) can0 2C4#19C27C030D1C2003
(2.752000) can0 682#000000400411F025
(2.754000) can0 129#CB29FF5F0020FF3F
(2.763000) can0 1E5#286C04000000007E
(2.767000) can0 129#142AFF5F0020FF3F
(2.769000) can0 441#D800B6C358001527
(2.771000) can0 263#700ED29FA74F1F00
(2.773000) can0 3FD#0000003C20000180
(2.779000) can0 333#0410590700
(2.781000) can0 719#161A002779020000
(2.783000) can0 2E5#00001E320000B400
(2.783000) can0 221#610555550107609B
(2.784000) can0 401#0E2A59935A935C93
(2.785000) can0 266#040013401400EA00
(2.786000) can0 108#50E6007200A52525
(2.786000) can0 128#0000EC0A02
(2.788000) can0 268#72148A01FF
(2.789000) can0 395#0119194E0E000A7D
(2.789000) can0 397#03E0FFC91C040000
(2.790000) can0 281#1A00FF1F0001
(2.791000) can0 23E#00003AC002FF8FCA
(2.792000) can0 2E5#00001E320000B400
(2.792000) can0 757#3200000000000000
(2.793000) can0 129#3A2DFF5F0120FF3F
(2.794000) can0 132#7A8D88FF433F
(2.795000) can0 1E5#286C04000000007E
(2.795000) can0 118#D76E950000C8F4FF
(2.796000) can0 2EC#575095
(2.797000) can0 3C8#0400000000000000
(2.798000) can0 7D5#3200000000000000
(2.798000) can0 243#02FC430F061D0000
(2.800000) can0 360#0200000000000000
(2.801000) can0 37A#B20D000000000000
(2.801000) can0 420#2801404B00000003
(2.804000) can0 4E3#0200000000002800
(2.804000) can0 132#7F8D87FF3F3F
(2.805000) can0 1D8#291C8003000020C1
(2.806000) can0 1E5#286C04000000209E
(2.809000) can0 359#0100000000000000
(2.809000) can0 1D5#290000000000605F
(2.812000) can0 788#0240CA0700030000
(2.812000) can0 261#31400E008F499AE7
(2.813000) can0 340#0B40000000000000
(2.814000) can0 249#130D0000
(2.814000) can0 3C3#5555550100000000
(2.816000) can0 207#00040A0105000000
(2.819000) can0 201#0138980000000000
(2.819000) can0 1D5#290000000000807F
(2.820000) can0 272#0380610000000000
(2.823000) can0 3FD#01000A0000080280
(2.825000) can0 39A#2017F7822307BF7E
(2.825000) can0 1E5#286C0400000060DE
(2.828000) can0 383#A71820006590612A
(2.828000) can0 3C2#0055555500006A05
(2.829000) can0 3A2#82A9FFFF03000000
(2.830000) can0 677#0300000000000000
(2.830000) can0 23E#00003AC002FF9FDA
(2.831000) can0 399#000000
(2.832000) can0 2E5#00001E320000B400
(2.833000) can0 129#E621FF5F0120FF3F
(2.834000) can0 221#6055551554517158
(2.835000) can0 1E5#286C04000000007E
(2.836000) can0 118#0C62950000C83400
(2.836000) can0 2D2#F82EAD4EAE10E822
(2.837000) can0 352#0275057305481039
(2.838000) can0 712#020A0C0D6B0D0000
(2.839000) can0 243#04FC53F8017EFFFF
(2.839000) can0 113#019701
(2.840000) can0 458#00002000000000
(2.841000) can0 289#CE0C060388003D0F
(2.842000) can0 545#900458B098815958
(2.842000) can0 3F9#0100000000000000
(2.843000) can0 129#AF22FF5F0120FF3F
(2.845000) can0 132#818D8EFF463F
(2.845000) can0 257#E3827D7A0AC83E01
(2.846000) can0 3F5#0000C838830C0000
(2.849000) can0 2C1#0304900000000000
(2.849000) can0 1D5#290000000000E0DF
(2.852000) can0 2C4#20C000D200000000
(2.852000) can0 224#0408004019011008
(2.853000) can0 2E5#00001E320000B400
(2.854000) can0 132#818D8BFF443F
(2.854000) can0 1D8#291C80030000C061
(2.855000) can0 552#00000000000090E7
(2.856000) can0 266#040013401400EA00
(2.857000) can0 247#340EFF0D00DB0100
(2.860000) can0 243#00FCCF4C97240E29
(2.861000) can0 283#020500004100
(2.862000) can0 422#700010000000
(2.862000) can0 2E5#00001E320000B400
(2.863000) can0 129#9324FF5F0020FF3F
(2.864000) can0 132#8A8D8CFF463F
(2.865000) can0 1D8#291C80030000E081
(2.865000) can0 401#122A789376938993
(2.866000) can0 54F#0000000000000000
(2.869000) can0 321#531EA97802780030
(2.869000) can0 2C2#20408064010080CB
(2.870000) can0 677#0400000000000000
(2.871000) can0 23E#00003AC002FFAFEA
(2.871000) can0 381#0400000000000000
(2.872000) can0 103#22B38804A2F22032
(2.874000) can0 3FD#02005A0000000090
(2.876000) can0 129#8425FF5F0020FF3F
(2.879000) can0 2E2#000000BC020B0000
(2.879000) can0 719#0003140F14050E00
(2.880000) can0 39D#1D61F52700
(2.884000) can0 2E5#00001E320000B400
(2.888000) can0 401#132A76936C936793
(2.892000) can0 2B6#000300
(2.896000) can0 376#10514A4B504A9F7D
(2.900000) can0 3C8#0500000000000000
(2.907000) can0 3A1#884C0FCA00148203
(2.907000) can0 359#0202000064828624
(2.908000) can0 381#0500000080BE6408
(2.909000) can0 2B3#AF0329BEE17E0300
(2.910000) can0 677#0000000000000000
(2.911000) can0 23E#00003AC002FFBFFA
(2.912000) can0 3DF#0000C00002D0001B
(2.913000) can0 340#0000000000000000
(2.914000) can0 285#034A7D5277000000
(2.914000) can0 727#0600
(2.915000) can0 1D8#291C4003000080E1
(2.916000) can0 118#E46A950000C80400
(2.916000) can0 3E3#04000000
(2.917000) can0 22B#FFFFFF03F8FFFFFF
(2.920000) can0 243#03000000314D2E00
(2.920000) can0 39D#FE62D52700
(2.923000) can0 39A#45FFFDFDFD01000A
(2.923000) can0 129#142AFF5F0020FF3F
(2.924000) can0 372#0700000000000000
(2.926000) can0 1D8#291A40030000A0FF
(2.926000) can0 383#A71820006590612A
(2.929000) can0 2A8#010100000600B062
(2.929000) can0 1D5#290000000000E0DF
(2.932000) can0 2E1#026D66021D830000
(2.932000) can0 423#00001000000000
(2.933000) can0 129#E52BFF5F0020FF3F
(2.934000) can0 3AE#0A4000080000E134
(2.934000) can0 221#6055551554519178
(2.935000) can0 212#5904000081FF7731
(2.936000) can0 266#040013401400EB00
(2.937000) can0 2F9#BCFB072800000000
(2.940000) can0 2C3#555BA9B682C112AA
(2.940000) can0 414#1000000000434956
(2.942000) can0 7F4#01
(2.942000) can0 201#0200000000000000
(2.943000) can0 129#852CFF5F0020FF3F
(2.944000) can0 132#9A8D8CFF453F
(2.945000) can0 401#162A7E9386938493
(2.945000) can0 266#040013401400EB00
(2.946000) can0 3F5#0000C838830C0000
(2.949000) can0 2E1#FB1F87C9967F0900
(2.949000) can0 78A#0100060003000000
(2.950000) can0 3A1#C1FFFF633D0090AF
(2.953000) can0 2C4#010001D200000000
(2.953000) can0 129#972DFF5F0020FF3F
(2.954000) can0 132#8F8D8CFF3C3F
(2.955000) can0 1E5#286C04000000007E
(2.955000) can0 118#F86E950000C81400
(2.957000) can0 247#350EFF0E00DA0100
(2.958000) can0 524#86730302201001
(2.958000) can0 243#00FCCF4C97240E29
(2.959000) can0 1D5#290000000000403F
(2.960000) can0 39D#FF63D52700
(2.961000) can0 3A2#604573AD04004272
(2.964000) can0 422#700010000000
(2.964000) can0 285#2445605872000000
(2.965000) can0 118#D86F950000C8F4FF
(2.966000) can0 1E5#286C04000000209E
(2.966000) can0 441#D800B6C358002537
(2.967000) can0 54F#0000000000000000
(2.968000) can0 201#0300000000000000
(2.969000) can0 263#700ED29FA74F1F00
(2.970000) can0 1D5#290000000000605F
(2.973000) can0 261#0522B4C99A4230A6
(2.973000) can0 129#B92FFF5F0020FF3F
(2.974000) can0 545#01000000001090EB
(2.975000) can0 1E5#286C0400000040BE
(2.975000) can0 118#FA60950000C82400
(2.980000) can0 3A8#F4E07F51FD0F0000
(2.980000) can0 381#0700000000000000
(2.981000) can0 31A#20010000000090CE
(2.982000) can0 2E5#00001E320000B400
(2.982000) can0 1A5#00101F481D
(2.983000) can0 129#5C20FF5F0020FF3F
(2.984000) can0 409#00
(2.985000) can0 118#0B61950000C83400
(2.986000) can0 1E5#286C0400000060DE
(2.987000) can0 1D6#020800000A078E08
(2.988000) can0 279#27B8FC01AC056502
(2.988000) can0 2C1#60307E00008A0200
(2.989000) can0 397#030080C91C040000
(2.990000) can0 3E9#00880200000060D6
(2.991000) can0 23E#00003AC002FFDF1A
(2.991000) can0 677#0200000000000000
(2.992000) can0 242#55558600
(2.993000) can0 201#003C3C000080FF00
(2.994000) can0 139#00
(2.996000) can0 1D8#291A4003000080DF
(2.998000) can0 3C8#0600000000000000
(3.000000) can0 315#632BD02640009004
(3.002000) can0 3B6#2E21DE0C00004032
(3.005000) can0 2E5#00001E320000B400
(3.009000) can0 5F3#F8F020
(3.014000) can0 788#01000000FFA1B812
(3.016000) can0 132#8B8D91FF4C3F
(3.018000) can0 441#3785890032002808
(3.020000) can0 22B#FFFFFF03F8FFFFFF
(3.022000) can0 2E8#010100000600E0D2
(3.024000) can0 241#3C3C160F8F5500
(3.026000) can0 118#9E65950000C8C4FF
(3.028000) can0 383#A71820006590612A
(3.030000) can0 3C2#0055555500006A05
(3.033000) can0 2E5#00001E320000B400
(3.033000) can0 129#ED25FF5FFF1FFF3F
(3.034000) can0 132#818D93FF4A3F
(3.036000) can0 1E5#286C04000000007E
(3.036000) can0 266#040013401400EA00
(3.037000) can0 3B2#268820820800007D
(3.038000) can0 712#0400000000000000
(3.038000) can0 2C3#0000C04B010040CB
(3.039000) can0 1D5#290000000000403F
(3.040000) can0 545#900458809881B988
(3.041000) can0 289#CE0C060399003D0F
(3.044000) can0 2E5#00001E320000B400
(3.044000) can0 118#D067950000C8F4FF
(3.045000) can0 372#0900000000F83F00
(3.046000) can0 3F5#0000C838820C0000
(3.046000) can0 2E3#03000059020B00
(3.049000) can0 2C1#0304900000000000
(3.050000) can0 339#02F1FE008007800F
(3.053000) can0 2C4#020001D200000000
(3.053000) can0 7B5#000000
(3.054000) can0 344#0000000000000047
(3.055000) can0 132#8C8D90FF433F
(3.055000) can0 1D8#291A40030000409F
(3.056000) can0 384#0000000000000000
(3.057000) can0 380#0000000000000000
(3.058000) can0 227#ED031A0053000081
(3.058000) can0 243#00FCCF4C97240E29
(3.059000) can0 1D5#290000000000807F
(3.060000) can0 21D#0400B50000000000
(3.061000) can0 283#020600004100
(3.063000) can0 3FD#0000003C20000180
(3.066000) can0 2E5#00001E320000B400
(3.067000) can0 421#021A0000002000
(3.068000) can0 261#0522B4C99A429006
(3.068000) can0 2C1#0400000000000000
(3.069000) can0 263#700ED29FA74F1F00
(3.070000) can0 234#2FE0022DB504C052
(3.070000) can0 23E#00003AC002FFFF3A
(3.073000) can0 2E5#00001E320000B400
(3.073000) can0 129#A229FF5FFF1FFF3F
(3.074000) can0 132#8D8D93FF4F3F
(3.075000) can0 1E5#286C04000000007E
(3.075000) can0 118#346A950000C85400
(3.076000) can0 2E1#65800800A53D316A
(3.079000) can0 2E2#0100003D020B0000
(3.080000) can0 1D5#290000000000C0BF
(3.083000) can0 2E5#00001E320000B400
(3.085000) can0 129#7D2AFF5FFF1FFF3F
(3.087000) can0 1E5#286C04000000209E
(3.089000) can0 279#28B9FC01AC056502
(3.091000) can0 2B3#017E7C857B7B7D7E
(3.093000) can0 2E1#1021040010000004
(3.095000) can0 129#782BFE5FFF1FFF3F
(3.098000) can0 118#756C950000C894FF
(3.099000) can0 360#0500040000000000
(3.100000) can0 261#31400A008849BAFC
(3.100000) can0 37A#B10D000000000000
(3.103000) can0 420#2801404B00008004
(3.103000) can0 129#852CFF5F0020FF3F
(3.105000) can0 132#888D91FF463F
(3.106000) can0 257#089F7D7A0AD03E01
(3.106000) can0 545#020001000000D01D
(3.109000) can0 359#0400000000000000
(3.111000) can0 23E#00003AC002FF0F4A
(3.111000) can0 788#0240CA0700030000
(3.112000) can0 2E5#00001E320000B400
(3.113000) can0 22A#0000B916
(3.113000) can0 273#81E13000C8021011
(3.114000) can0 207#00040E0205000000
(3.115000) can0 3FD#01000A0000080280
(3.117000) can0 132#8F8D91FF453F
(3.118000) can0 22B#FFFFFF03F8FFFFFF
(3.118000) can0 243#03000000314D2E00
(3.120000) can0 1D5#290000000000403F
(3.121000) can0 7C8#1303000000000000
(3.121000) can0 39A#45FFFDFDFD01000A
(3.122000) can0 2E5#00001E320000B400
(3.123000) can0 129#BC2EFE5F0020FF3F
(3.124000) can0 2E1#026D66021D830000
(3.124000) can0 401#1F2A5C934E936093
(3.125000) can0 266#030013401400EA00
(3.126000) can0 3A2#82A9FFFF03000000
(3.127000) can0 282#7CD4410718240324
(3.127000) can0 2A8#010100000600D082
(3.128000) can0 3C2#0055555500006A05
(3.129000) can0 263#0300000000000000
(3.130000) can0 719#3302600000000000
(3.133000) can0 261#434C0A000040D5A4
(3.133000) can0 129#242FFE5FFF1FFF3F
(3.134000) can0 132#938D93FF473F
(3.135000) can0 1D8#291800030000405D
(3.135000) can0 118#9A60950000C8C400
(3.136000) can0 292#0F8A77E184010000
(3.137000) can0 2F9#BCFB070800000000
(3.138000) can0 428#20001010000010
(3.138000) can0 243#04FC53F8017EFFFF
(3.139000) can0 1D5#290000000000807F
(3.140000) can0 318#1A06150C100C3FB7
(3.141000) can0 289#CE0C064394003D0F
(3.143000) can0 2E5#00001E320000B400
(3.143000) can0 129#A820FE5F0020FF3F
(3.145000) can0 132#998D95FF563F
(3.146000) can0 3F5#0000C838820C0000
(3.146000) can0 3F5#0000C838830C0000
(3.147000) can0 78A#01000100DC5C9C5D
(3.148000) can0 2C1#0304900000000000
(3.148000) can0 677#0100000000000000
(3.149000) can0 45A#FD07F8FF03001400
(3.150000) can0 339#02F1FE008007800F
(3.153000) can0 2C4#03010E40010C8000
(3.153000) can0 129#D621FE5FFF1FFF3F
(3.154000) can0 132#948D95FF4F3F
(3.155000) can0 1E5#286C04000000007E
(3.155000) can0 118#FB62950000C824FF
(3.158000) can0 1F9#0000000000000000
(3.159000) can0 243#00FCCF4C97240E29
(3.160000) can0 25D#3741012A04F08803
(3.161000) can0 283#030600004100
(3.163000) can0 2E5#00001E320000B400
(3.163000) can0 3FD#02005A0000000090
(3.165000) can0 129#9F22FE5FFF1FFF3F
(3.166000) can0 1E5#286C04000000209E
(3.167000) can0 372#0B39FF0000481500
(3.168000) can0 421#021A0000002000
(3.168000) can0 2BF#00000000000001
(3.169000) can0 361#2C0E190200
(3.170000) can0 234#2EE0022DB504E071
(3.170000) can0 439#0000000000185A04
(3.173000) can0 2E1#65800800A53D316A
(3.174000) can0 129#8823FE5FFF1FFF3F
(3.175000) can0 1E5#286C0400000040BE
(3.176000) can0 266#030013401400EA00
(3.180000) can0 3A8#00FF000000000000
(3.180000) can0 31A#200100000000A0DE
(3.183000) can0 2E5#00001E320000B400
(3.183000) can0 129#0E24FE5FFF1FFF3F
(3.184000) can0 132#8D8D94FF553F
(3.185000) can0 1D8#2916C0020000E0BA
(3.185000) can0 1E5#286C0400000060DE
(3.186000) can0 126#19E82F54AB
(3.187000) can0 268#72148A01FF
(3.188000) can0 379#02000948333F2100
(3.188000) can0 2E1#1021040010000004
(3.189000) can0 397#03E0FFC91C040000
(3.191000) can0 1D5#290000000000201F
(3.191000) can0 666#0000C800
(3.192000) can0 2E5#00001E320000B400
(3.193000) can0 201#003C3B000080FF00
(3.194000) can0 129#1925FE5FFF1FFF3F
(3.194000) can0 1D8#2916C002000000DA
(3.195000) can0 118#A066950000C8C400
(3.196000) can0 261#31400D0089491A60
(3.197000) can0 3C8#0100000000000000
(3.197000) can0 7D5#2C3E3F0000000000
(3.200000) can0 243#02FC3B0F061D0000
(3.200000) can0 37A#B20D000000000000
(3.203000) can0 420#2801404B00000005
(3.203000) can0 129#C326FE5FFF1FFF3F
(3.205000) can0 7A8#B4CCB18300008200
(3.206000) can0 401#2300000000000000
(3.209000) can0 359#863F000001000002
(3.209000) can0 1D5#290000000000605F
(3.212000) can0 788#B4CCB1830000AA00
(3.212000) can0 238#8839F6343E00F85B
(3.213000) can0 340#0300000000000000
(3.214000) can0 129#D427FE5FFF1FFF3F
(3.214000) can0 132#948D98FF583F
(3.215000) can0 3C3#5555550100000000
(3.216000) can0 441#3785890032003818
(3.219000) can0 201#0138980000000000
(3.219000) can0 288#0106184C006091E6
(3.220000) can0 272#0380610000000000
(3.222000) can0 553#00000000000050A8
(3.222000) can0 241#3B3CD60E8F5500
(3.223000) can0 129#0328FE5FFF1FFF3F
(3.224000) can0 132#9B8D96FF5A3F
(3.224000) can0 118#5269950000C874FF
(3.225000) can0 1E5#286C0400000060DE
(3.228000) can0 383#A71820006590612A
(3.228000) can0 3C2#0055555500006A05
(3.229000) can0 1D5#290000000000A09F
(3.230000) can0 43B#007F00FF00000000
(3.230000) can0 677#0300000000000000
(3.233000) can0 381#0E00000000E0FF00
(3.233000) can0 129#3F29FE5F0020FF3F
(3.234000) can0 1F8#3A000000
(3.236000) can0 1D8#2916C0020000805A
(3.237000) can0 2F2#1201
(3.237000) can0 545#E004587098801927
(3.238000) can0 2C3#0000C04B010040CB
(3.239000) can0 1D5#290000000000C0BF
(3.240000) can0 318#1A06150C100C2199
(3.240000) can0 39D#066AD52700
(3.243000) can0 2E5#00001E320000B400
(3.243000) can0 129#892AFE5FFF1FFF3F
(3.244000) can0 132#958D99FF533F
(3.245000) can0 1D8#2916C0020000A07A
(3.245000) can0 1E5#286C04000000209E
(3.246000) can0 2E3#A4126120850400
(3.249000) can0 2C1#0304900000000000
(3.250000) can0 78A#010002005F066006
(3.253000) can0 2C4#0400000000C0584D
(3.253000) can0 129#112BFE5F0020FF3F
(3.254000) can0 132#918D98FF5B3F
(3.255000) can0 1D8#2916C0020000C09A
(3.265000) can0 118#866C950000C8A400
(3.269000) can0 266#020013401400EA00
(3.271000) can0 234#30F0022DB50400A3
(3.273000) can0 545#010000000010207B
(3.275000) can0 3AE#08400008000090E1
(3.277000) can0 118#976E950000C8B4FF
(3.279000) can0 2E2#F211194949490900
(3.281000) can0 1D5#290000000000403F
(3.283000) can0 2E5#00001E320000B400
(3.287000) can0 129#482EFF5F0020FF3F
(3.289000) can0 268#72148A01FF
(3.291000) can0 3E8#0000000000000000
(3.293000) can0 3AE#094000080000A0F2
(3.295000) can0 129#4D2FFE5F0020FF3F
(3.297000) can0 118#8A60950000C8B400
(3.299000) can0 7D7#3231000000000000
(3.301000) can0 1D5#290000000000807F
(3.304000) can0 420#2801404B00008005
(3.305000) can0 1D8#29148002000060F8
(3.305000) can0 257#02997D7A0AD03E01
(3.306000) can0 102#22B3880494FAA009
(3.309000) can0 359#0700000000000000
(3.311000) can0 23E#00003AC002FF5F9A
(3.312000) can0 788#01000000FFA1B812
(3.313000) can0 340#0400000000000000
(3.314000) can0 373#078735C977E31814
(3.314000) can0 207#00080E0306000000
(3.315000) can0 1D8#2914800200008018
(3.316000) can0 266#020013401400EA00
(3.317000) can0 441#37858900320000E0
(3.319000) can0 201#0138980000000000
(3.319000) can0 1D5#290000000000C0BF
(3.320000) can0 39D#086CD52700
(3.323000) can0 39A#41FFFDFDFD01000A
(3.323000) can0 129#0222FF5F0020FF3F
(3.324000) can0 3A2#82A9FFFF03000000
(3.325000) can0 266#020013401400EA00
(3.328000) can0 383#A71820006590E12A
(3.330000) can0 3E2#040000310FCF00
(3.332000) can0 3AE#094000080000B002
(3.334000) can0 423#00001000000000
(3.336000) can0 1F8#3A000000
(3.338000) can0 292#0F8A77E184010000
(3.340000) can0 2C3#555BA9B682C112AA
(3.343000) can0 458#00002000000000
(3.344000) can0 132#8A8D9EFF633F
(3.345000) can0 1D8#291480020000E078
(3.345000) can0 1E5#286C0400000060DE
(3.346000) can0 3F5#0000C838830C0000
(3.349000) can0 78A#01000300AE048902
(3.349000) can0 1D5#290000000000201F
(3.352000) can0 23E#00003AC002FF6FAA
(3.353000) can0 2E5#00001E320000B400
(3.354000) can0 132#998D9CFF703F
(3.355000) can0 1D8#2914800200000098
(3.355000) can0 118#6066950000C88400
(3.356000) can0 2D1#FF01
(3.357000) can0 3A2#60E5F2AB1C004272
(3.357000) can0 247#360EFF0D00DE0100
(3.358000) can0 243#00FCCF4C97240E29
(3.359000) can0 1D5#290000000000403F
(3.360000) can0 21D#0400B50000000000
(3.360000) can0 25D#3741012A04F08803
(3.363000) can0 355#800C00FF940000
(3.363000) can0 129#5E26FF5F0020FF3F
(3.364000) can0 132#988D9AFF723F
(3.365000) can0 1D8#29148002000020B8
(3.366000) can0 54F#0000000000000000
(3.369000) can0 2C1#0400000000000000
(3.369000) can0 1D5#290000000000605F
(3.372000) can0 439#0000000000185A04
(3.372000) can0 103#22B38804A2F22032
(3.373000) can0 7AA#23ABF9D90713001C
(3.374000) can0 3AE#094000080000D123
(3.374000) can0 1D8#29148002000040D8
(3.375000) can0 118#E268950000C80400
(3.380000) can0 3A8#0103000700020100
(3.380000) can0 31A#200100000000B0EE
(3.383000) can0 2E5#00001E320000B400
(3.383000) can0 129#9E28FF5F0020FF3F
(3.385000) can0 132#8D8D9BFF743F
(3.386000) can0 257#FE9D7D7A0AC83E01
(3.386000) can0 128#0000EC0A02
(3.387000) can0 279#2BBCFC01AC056502
(3.388000) can0 395#0119194E0E000A7D
(3.388000) can0 2C1#60307E00008A0200
(3.389000) can0 2B3#06C052EFE57DEF1F
(3.390000) can0 400#00E0FBBEEFFB00
(3.391000) can0 23E#00003AC002FF7FBA
(3.392000) can0 677#0200000000000000
(3.392000) can0 757#2C003E0000000000
(3.393000) can0 39B#0318DF80B0881060
(3.394000) can0 132#8F8DA1FF843F
(3.395000) can0 1D8#29144002000080D8
(3.396000) can0 118#A36A950000C8C4FF
(3.397000) can0 20C#37383A1EE900300C
(3.398000) can0 7D7#3231000000000000
