(0.000000) can0 2B3#62550000001E3C00
(0.013000) can0 1D8#29D080180000C02A
(0.018000) can0 78A#01000100B85C845D
(0.020000) can0 2F9#BCFB072800000000
(0.022000) can0 1D5#290000000000201F
(0.024000) can0 2E5#00000F320000DD00
(0.026000) can0 243#0300000033513100
(0.028000) can0 553#000000000000C018
(0.030000) can0 458#00002000000000
(0.032000) can0 1E5#286C04000000209E
(0.033000) can0 279#34B9FC01B8056502
(0.034000) can0 339#02F1FE008007800F
(0.034000) can0 2E5#00000F320000DD00
(0.035000) can0 241#36320C0F8F5500
(0.037000) can0 263#0300000000000000
(0.038000) can0 129#4029E25FFF1FFF3F
(0.038000) can0 1D8#29D080180000C02A
(0.039000) can0 2C1#0219060000D0020A
(0.040000) can0 118#956C950000C8B4FF
(0.041000) can0 266#1D00113110008601
(0.041000) can0 7D5#3200000000000000
(0.044000) can0 261#3140060081493A71
(0.044000) can0 295#3C00A1FF00000001
(0.045000) can0 221#605555155451D1B8
(0.048000) can0 119#00000000
(0.050000) can0 1D8#29D080180000E04A
(0.052000) can0 422#700010000000
(0.054000) can0 2E5#00000F320000DD00
(0.056000) can0 439#0000000000185A04
(0.059000) can0 3F5#0000C838830C0000
(0.062000) can0 2C1#3304900000000000
(0.063000) can0 2E5#00000F320000DD00
(0.066000) can0 243#00FCCF0C97440D29
(0.066000) can0 39B#0310DF80B0883078
(0.067000) can0 283#000000004000
(0.068000) can0 129#0E2CE25FFF1FFF3F
(0.068000) can0 1D8#29D080180000208A
(0.069000) can0 266#1C00113110008601
(0.070000) can0 1D5#290000000000C0BF
(0.073000) can0 207#0000000000000000
(0.073000) can0 132#008F4BFED43C
(0.074000) can0 3E8#0000000000000000
(0.075000) can0 263#700ED29FA74F5F1F
(0.076000) can0 3C8#0200000000000000
(0.079000) can0 414#1233585646544756
(0.079000) can0 1D8#29D040180000406A
(0.080000) can0 201#0300000000000000
(0.081000) can0 266#1D00113110008601
(0.081000) can0 2C1#0400000000000000
(0.082000) can0 6A1#0000000000
(0.083000) can0 132#FC8E4AFECF3C
(0.084000) can0 37A#D20D000025000026
(0.084000) can0 2D2#EC2EAE4E840CE822
(0.085000) can0 243#01FC385136005A5A
(0.086000) can0 312#D9214817408D6800
(0.087000) can0 712#0500000000000000
(0.087000) can0 3E9#0088020000000076
(0.089000) can0 23E#00003AC002FFCF0A
(0.090000) can0 1E5#286C0400000060DE
(0.090000) can0 359#3100000000000000
(0.091000) can0 22B#FFFFFF07000E0000
(0.092000) can0 381#1A00000000000000
(0.093000) can0 3A3#16D00000380DFC01
(0.093000) can0 286#FFFFFFFF31
(0.094000) can0 186#D00B000200FE1925
(0.095000) can0 204#010000FF00000010
(0.096000) can0 263#49FED1A7A72F5F1F
(0.096000) can0 2B4#34054B0E5C01
(0.097000) can0 393#0380610000000000
(0.098000) can0 401#2000000000000000
(0.099000) can0 228#0106184C0060A196
(0.100000) can0 2C1#50407E00008A0200
(0.101000) can0 266#1D00113110008601
(0.104000) can0 20C#6B1838183A010010
(0.106000) can0 39A#181BE76AEFF2B27E
(0.108000) can0 261#052285C99A4270B7
(0.110000) can0 272#0380610000000000
(0.112000) can0 1D5#290000000000403F
(0.114000) can0 43B#007F00FF00000000
(0.116000) can0 448#20001010000010
(0.118000) can0 428#20001010000010
(0.119000) can0 1E5#286C0400000040BE
(0.120000) can0 118#AD64950000C8D4FF
(0.120000) can0 3C3#5555550100000000
(0.123000) can0 1F8#1A000000
(0.124000) can0 261#00101600FF4F80EA
(0.125000) can0 243#0300000033513100
(0.125000) can0 3F9#0400000000000000
(0.128000) can0 553#000000000000D028
(0.128000) can0 229#430400
(0.129000) can0 1D8#29CE40180000E008
(0.130000) can0 7FF#024612289C5181C2
(0.130000) can0 31F#77467A467B447B46
(0.131000) can0 108#EB6A062A03061A25
(0.132000) can0 1D5#290000000000807F
(0.133000) can0 234#30F0022BAD048019
(0.133000) can0 289#D0108984A1003D8F
(0.134000) can0 395#090F104D1009077D
(0.135000) can0 132#0B8F51FED63C
(0.136000) can0 401#2200000000000000
(0.139000) can0 129#AD23E15FFF1FFF3F
(0.139000) can0 2C1#0219060000D0020A
(0.140000) can0 118#1066950000C83400
(0.141000) can0 266#1C00103110008501
(0.141000) can0 7D5#2C3E3F0000000000
(0.144000) can0 2E5#00000F320000DD00
(0.146000) can0 2C3#0000C04B010040CB
(0.146000) can0 119#00000000
(0.149000) can0 129#2B24E15FFF1FFF3F
(0.149000) can0 266#1C00103110008501
(0.150000) can0 1D5#290000000000C0BF
(0.151000) can0 743#22
(0.153000) can0 2E3#800000D1020B00
(0.153000) can0 401#2300000000000000
(0.155000) can0 201#0200000000000000
(0.158000) can0 3F5#0000C838820C0000
(0.158000) can0 1D8#29CC001800004026
(0.159000) can0 2C1#3304900000000000
(0.160000) can0 118#C168950000C8E4FF
(0.160000) can0 266#1C00103110008501
(0.163000) can0 719#150003AD00000000
(0.163000) can0 2E1#026D66021DB80000
(0.166000) can0 243#00FCCF0C97440D29
(0.166000) can0 2E2#E211194949490900
(0.169000) can0 129#E626E15FFF1FFF3F
(0.169000) can0 1E5#286C0400000060DE
(0.170000) can0 1D5#29000000000000FF
(0.171000) can0 261#E34B0A000040B523
(0.172000) can0 39D#2165F52700
(0.173000) can0 2E5#00000F320000DD00
(0.176000) can0 3E8#0100000000000000
(0.178000) can0 441#0C01B6C358003D84
(0.178000) can0 249#83050000
(0.179000) can0 103#22B38804A2EE2032
(0.180000) can0 2C1#0400000000000000
(0.180000) can0 1D5#290000000000201F
(0.181000) can0 677#0400000000000000
(0.182000) can0 737#01000000E0F080
(0.183000) can0 2E5#00000F320000DD00
(0.183000) can0 37A#CBE0010000000000
(0.184000) can0 2D2#ED2EAF4E8E0CE822
(0.185000) can0 243#01FC375136005A5A
(0.186000) can0 2F2#1201
(0.187000) can0 360#0A00000000000000
(0.188000) can0 129#4F28E15F0020FF3F
(0.189000) can0 227#7204260054000081
(0.189000) can0 1D8#29CA00180000A084
(0.190000) can0 1E5#286C04000000209E
(0.191000) can0 3AE#F63F00080000104E
(0.192000) can0 788#0240CD0700030000
(0.194000) can0 2E5#00000F320000DD00
(0.194000) can0 204#010000FF00000010
(0.195000) can0 263#49FED1A7A72F5F1F
(0.196000) can0 27A#C6BC0C01B8056202
(0.196000) can0 2E1#0400000000202000
(0.197000) can0 2D3#CE004C02331F3250
(0.199000) can0 293#020C559055149F90
(0.200000) can0 1D8#29CA00180000C0A4
(0.200000) can0 288#0106184C0060D126
(0.201000) can0 1D5#290000000000605F
(0.202000) can0 122#00001392D2000000
(0.203000) can0 20C#6B1838183A010010
(0.203000) can0 2E5#00000F320000DD00
(0.204000) can0 757#3200000000000000
(0.205000) can0 243#02FC730E03EB0000
(0.208000) can0 2E8#0101000006001002
(0.208000) can0 272#080002D107B00304
(0.209000) can0 23E#00003AC002FFFF3A
(0.210000) can0 257#6F27605402083001
(0.213000) can0 2E1#658008004136316A
(0.214000) can0 3AA#0000000000000000
(0.215000) can0 343#0092743E95000000
(0.216000) can0 428#20001010000010
(0.216000) can0 3E2#040000610FCF00
(0.217000) can0 41D#00
(0.218000) can0 25D#3741012A04F08803
(0.218000) can0 129#342BE15F0020FF3F
(0.219000) can0 1E5#286C04000000007E
(0.220000) can0 118#B76E950000C8D4FF
(0.221000) can0 400#00E0FBBEEFFB00
(0.221000) can0 677#0000000000000000
(0.222000) can0 1F8#1A000000
(0.223000) can0 2E5#00000F320000DD00
(0.224000) can0 3A2#C2ACFFFF03000000
(0.225000) can0 243#0300000033513100
(0.226000) can0 545#020003000000E02F
(0.227000) can0 553#000000000000E038
(0.227000) can0 441#32858900320000DB
(0.228000) can0 318#1A06310B102833E2
(0.229000) can0 118#D86F950000C8F4FF
(0.230000) can0 1D8#29CA001800002004
(0.230000) can0 1E5#286C04000000209E
(0.231000) can0 126#33982F5C7D
(0.232000) can0 1D6#420800004A498308
(0.232000) can0 279#36BBFC01B8056502
(0.233000) can0 2B6#000300
(0.234000) can0 383#BD181600CDC3A947
(0.235000) can0 372#0D3200D01E5B008F
(0.235000) can0 54F#0000000000000000
(0.237000) can0 381#03523D00C0280400
(0.238000) can0 129#462DE15F0020FF3F
(0.238000) can0 1D8#29CA001800004024
(0.239000) can0 423#00001000000000
(0.240000) can0 7D5#2BA85FFE00000000
(0.241000) can0 7D5#2C3E3F0000000000
(0.241000) can0 7D7#321F000000000000
(0.244000) can0 2E5#00000F320000DD00
(0.246000) can0 2C3#555BA9B682C112AA
(0.248000) can0 119#00000000
(0.250000) can0 23E#00003AC002FF0F4A
(0.257000) can0 362#000000
(0.261000) can0 2C1#3304900000000000
(0.263000) can0 3A1#C1FFFF533D00101F
(0.266000) can0 243#00FCCF0C97440D29
(0.268000) can0 3A8#0102000700020100
(0.270000) can0 118#CC63950000C8F4FF
(0.272000) can0 3AE#F63F00080000306E
(0.274000) can0 3C0#0800000000000000
(0.277000) can0 263#700ED29FA74F5F1F
(0.278000) can0 129#9A21E15F0020FF3F
(0.278000) can0 1D8#29CA00180000C0A4
(0.279000) can0 201#0300000000000000
(0.280000) can0 118#7E64950000C8A400
(0.281000) can0 266#1C00103110008501
(0.284000) can0 2EC#573075
(0.284000) can0 2D2#ED2EAF4E950CE822
(0.285000) can0 123#01000000003F0000
(0.286000) can0 292#55BAC86596010000
(0.287000) can0 360#0000000000000000
(0.288000) can0 23E#00003AC002FF1F5A
(0.289000) can0 227#7404270054000081
(0.289000) can0 266#1C00103110008501
(0.290000) can0 1D5#290000000000807F
(0.291000) can0 25B#D38000056A86F093
(0.292000) can0 3A3#16D00000380DFC01
(0.292000) can0 7A8#B0CCB18300008200
(0.293000) can0 3B3#8C8004300100A800
(0.294000) can0 253#0164A6C66490B505
(0.295000) can0 204#010000FF00000010
(0.295000) can0 263#49FED1A7A72F5F1F
(0.296000) can0 2B4#33054B0E6B01
(0.298000) can0 224#0408004019011008
(0.298000) can0 228#0106184C0060C1B6
(0.299000) can0 261#052285C99A423077
(0.300000) can0 266#1C00103110008501
(0.301000) can0 677#0200000000000000
(0.301000) can0 122#01000000003F0000
(0.304000) can0 20C#6A1838183A010010
(0.304000) can0 39A#1C1BEB6AEFF2B67E
(0.305000) can0 45A#A4C4C4C05F2F5137
(0.308000) can0 2E8#0101000006002012
(0.308000) can0 272#0380610000000000
(0.309000) can0 1E5#286C04000000209E
(0.310000) can0 4E3#0200000000002800
(0.313000) can0 3A1#884C0FCA0010229F
(0.314000) can0 78A#01000400E7069F00
(0.315000) can0 343#00926CCE94000000
(0.316000) can0 2B3#08FA00009A820000
(0.316000) can0 40A#0910000000003057
(0.317000) can0 682#000000400411D005
(0.318000) can0 37D#01700F6F00000000
(0.319000) can0 1D8#29CC001800004026
(0.319000) can0 25D#3741012A04F08803
(0.320000) can0 266#1C00103110008501
(0.321000) can0 400#00E0FBBEEFFB00
(0.321000) can0 407#1005000000000000
(0.322000) can0 1F8#1A000000
(0.323000) can0 132#0C8F50FED73C
(0.326000) can0 243#0300000033513100
(0.327000) can0 553#000000000000F048
(0.328000) can0 129#8F26E15F0020FF3F
(0.329000) can0 348#160001806A070110
(0.329000) can0 405#100000000035594A
(0.330000) can0 54F#0000000000000000
(0.331000) can0 55A#0100000000000000
(0.332000) can0 7F4#01
(0.332000) can0 266#1C00103110008501
(0.333000) can0 39D#2569F52700
(0.334000) can0 257#651D605402083001
(0.334000) can0 1D6#420800004A498308
(0.335000) can0 268#63109001E5
(0.336000) can0 2B6#000300
(0.336000) can0 132#0F8F4FFECE3C
(0.337000) can0 395#090F104D1009077D
(0.339000) can0 709#1000000000000000
(0.339000) can0 2E1#398D2AFF0F000000
(0.340000) can0 1D5#290000000000201F
(0.341000) can0 677#0300000000000000
(0.342000) can0 7D5#2C3E3F0000000000
(0.345000) can0 3FD#0000003C20000180
(0.346000) can0 2E5#00000F320000DD00
(0.349000) can0 129#E228E15F0120FF3F
(0.349000) can0 1E5#286C04000000209E
(0.350000) can0 1D5#290000000000403F
(0.353000) can0 2E3#01000055020B00
(0.353000) can0 439#0000000000185A04
(0.356000) can0 263#0400000070140000
(0.356000) can0 3F5#0000C838830C0000
(0.363000) can0 2C2#2040C04B010080CB
(0.364000) can0 719#0100040000000000
(0.364000) can0 243#00FCCF0C97440D29
(0.367000) can0 2E2#F7D34F3F01000000
(0.369000) can0 129#C52AE15F0020FF3F
(0.369000) can0 1E5#286C0400000060DE
(0.370000) can0 1D5#290000000000807F
(0.371000) can0 3AE#F63F00080000619F
(0.374000) can0 39D#266AF52700
(0.374000) can0 3E8#0300000000000000
(0.375000) can0 2B3#6900F02F0000BD1E
(0.378000) can0 139#00
(0.378000) can0 249#5E090000
(0.379000) can0 1E5#286C04000000007E
(0.380000) can0 261#3413184B00408464
(0.381000) can0 242#55558600
(0.382000) can0 677#0400000000000000
(0.383000) can0 2EC#574085
(0.383000) can0 2AA#571013
(0.386000) can0 2D2#ED2EAE4E8B0CE822
(0.388000) can0 2E1#0400000000202000
(0.388000) can0 3A2#0110200000000000
(0.389000) can0 227#7504270054000081
(0.390000) can0 1E5#286C04000000209E
(0.390000) can0 7A8#01000000FFA19812
(0.391000) can0 25B#D38000056A8600A3
(0.392000) can0 302#0A010C000B002300
(0.393000) can0 2E5#00000F320000DD00
(0.393000) can0 273#81E13000C8021011
(0.395000) can0 3FD#01000A0000080280
(0.397000) can0 1A5#00101F7045
(0.398000) can0 224#0408004019011008
(0.398000) can0 396#091E1E4C4441127D
(0.399000) can0 1D8#29D040180000406A
(0.400000) can0 288#0106184C0060F146
(0.401000) can0 266#1D00113111008501
(0.401000) can0 122#00001392D2000000
(0.404000) can0 20C#6C1838183A010010
(0.404000) can0 201#00334E000080FF00
(0.405000) can0 376#0200FFFFFFFF0000
(0.406000) can0 757#3200000000000000
(0.406000) can0 2E8#0101000006003022
(0.407000) can0 295#C800ABFF00000008
(0.409000) can0 656#1001CE18DC21FF00
(0.410000) can0 118#BA61950000C8E4FF
(0.410000) can0 266#1D00113111008501
(0.411000) can0 35A#0000000000000000
(0.412000) can0 3A1#884C0FCA001042BF
(0.412000) can0 39D#276BF52700
(0.413000) can0 78A#010005009D0D0A00
(0.414000) can0 448#20001010000010
(0.415000) can0 343#009260DE94000000
(0.415000) can0 381#0800000000000000
(0.416000) can0 3E2#040000610FCF00
(0.417000) can0 21D#0400B50000000000
(0.418000) can0 682#000000400411E015
(0.418000) can0 2F9#BCFB071800000000
(0.420000) can0 2C1#212B0D0A02000000
(0.421000) can0 3C3#0000000000A50000
(0.422000) can0 3A2#C2ACFFFF03000000
(0.424000) can0 2E5#00000F320000DD00
(0.426000) can0 243#0300000033513100
(0.428000) can0 553#0000000000000058
(0.428000) can0 318#1A06320B102837E7
(0.432000) can0 201#0148980001000000
(0.434000) can0 279#38BDFC01B8056502
(0.436000) can0 397#0300007E1C160000
(0.438000) can0 4E2#025D040000002800
(0.440000) can0 1D8#29D2C0180000C06C
(0.442000) can0 1D5#290000000000605F
(0.444000) can0 2E5#00000F320000DD00
(0.447000) can0 3FD#0200000000000090
(0.453000) can0 294#14C1400040000000
(0.455000) can0 320#0000000000000000
(0.457000) can0 3F5#0000C838820C0000
(0.459000) can0 2C2#555BA90680C112AA
(0.462000) can0 2C1#3304900000000000
(0.462000) can0 211#C01C710F1001
(0.463000) can0 132#048F3FFEB23C
(0.466000) can0 243#00FCCF0C97440D29
(0.468000) can0 3A8#2A80E1F51F00FFBF
(0.470000) can0 118#5167950000C87400
(0.472000) can0 1D5#290000000000C0BF
(0.474000) can0 3C0#0A00000000000000
(0.476000) can0 3E8#0400000000000000
(0.479000) can0 441#0C01B6C35800155C
(0.481000) can0 1E5#286C0400000040BE
(0.482000) can0 6A1#0000000000
(0.483000) can0 2E5#00000F320000DD00
(0.483000) can0 2E1#0400000000202000
(0.486000) can0 123#01000000003F0000
(0.486000) can0 2D2#ED2EAF4E810CE822
(0.487000) can0 292#55BAC86596010000
(0.488000) can0 360#0200000000000000
(0.488000) can0 381#0A00000000000000
(0.489000) can0 118#1369950000C83400
(0.490000) can0 247#580EFF1300BE0200
(0.491000) can0 1D5#29000000000000FF
(0.491000) can0 359#B63F000009000012
(0.493000) can0 42E#00E0BFFFFEEFBFFF
(0.494000) can0 186#D20F000200FC1925
(0.494000) can0 204#010000FF00000010
(0.495000) can0 238#8831F61C3E00D81B
(0.496000) can0 221#610555550107609B
(0.497000) can0 287#32343032D9020000
(0.497000) can0 2B4#3305490E6901
(0.498000) can0 401#022AEE94F594F694
(0.499000) can0 228#0106184C0060E1D6
(0.500000) can0 2C1#50407E00008A0200
(0.510000) can0 1D5#290000000000201F
(0.514000) can0 1D5#290000000000403F
(0.516000) can0 343#00926CAE94000000
(0.518000) can0 40A#0910000000004067
(0.521000) can0 20E#170700
(0.523000) can0 1F8#1A000000
(0.525000) can0 261#314011007E491A59
(0.527000) can0 3F9#0800000000000000
(0.529000) can0 113#019701
(0.530000) can0 1E5#286C0400000060DE
(0.531000) can0 266#1E00113111008501
(0.532000) can0 257#6F27605402083001
(0.532000) can0 1D6#420800004A498308
(0.533000) can0 268#63119001E5
(0.534000) can0 2B6#000300
(0.535000) can0 2E5#00000F320000DD00
(0.535000) can0 395#090F104D1109077D
(0.536000) can0 3AE#F63F00080000B1EF
(0.537000) can0 263#0300000000000000
(0.538000) can0 129#342BE15F0020FF3F
(0.539000) can0 261#52293E02805C22AF
(0.540000) can0 118#876E950000C8A4FF
(0.541000) can0 266#1E00113111008501
(0.541000) can0 7D5#2B9F5FFE00000000
(0.542000) can0 315#0200041700000000
(0.543000) can0 7D7#3220000000000000
(0.544000) can0 284#300000004008302E
(0.544000) can0 3B6#74C3DD0C00003009
(0.545000) can0 243#04FC33ECF17AFFFF
(0.546000) can0 2C3#0000C04B010040CB
(0.547000) can0 7D5#42F8008500002700
(0.547000) can0 7D5#43A0AC937E3F0000
(0.548000) can0 7D5#4497515D5D44004D
(0.550000) can0 3C5#0000000000000000
(0.550000) can0 368#0000000000000000
(0.551000) can0 257#7828605402103001
(0.552000) can0 36E#0000000000000000
(0.553000) can0 238#8831F61C3E00E82B
(0.553000) can0 132#FA8E3DFEB33C
(0.554000) can0 201#0200000000000000
(0.555000) can0 263#0400000070140000
(0.555000) can0 45A#FD07F8FF03009F00
(0.556000) can0 545#2006620098758968
(0.557000) can0 2C2#2040C04B010080CB
(0.558000) can0 129#462DE15F0020FF3F
(0.558000) can0 1D8#29D400190000402F
(0.559000) can0 381#0C00000000000000
(0.561000) can0 266#1D00113111008501
(0.564000) can0 39B#0310DF80B0884088
(0.566000) can0 243#00FCCF0C97440D29
(0.566000) can0 2E2#1000001A030B0000
(0.569000) can0 129#F02EE15FFF1FFF3F
(0.569000) can0 1E5#286C0400000060DE
(0.570000) can0 257#6119605402083001
(0.571000) can0 7AA#E6E55FCEA053A129
(0.574000) can0 39D#2B6FF52700
(0.574000) can0 3E8#0500000000000000
(0.575000) can0 3C8#0000000000000000
(0.576000) can0 3AE#F63F00080000C1FF
(0.579000) can0 441#0D01B6C358001D65
(0.579000) can0 1D8#29D400190000806F
(0.581000) can0 201#0300000000000000
(0.582000) can0 2E1#0400000000202000
(0.582000) can0 677#0400000000000000
(0.583000) can0 2E5#00000F320000DD00
(0.584000) can0 6A1#0000000000
(0.584000) can0 2D2#ED2EAE4E8B0CE822
(0.585000) can0 243#01FC375136005A5A
(0.586000) can0 312#F4E4664458A11614
(0.587000) can0 392#000B000000000000
(0.587000) can0 712#002A710C330C4A0C
(0.588000) can0 20A#F61509821801
(0.589000) can0 1E5#286C04000000209E
(0.590000) can0 247#580EFF1300BD0200
(0.590000) can0 545#01000000001090EB
(0.592000) can0 25B#D38000056A8620C3
(0.593000) can0 2E5#00000F320000DD00
(0.593000) can0 286#FFFFFFFF31
(0.594000) can0 195#400000000A002706
(0.595000) can0 3D8#1B001800
(0.596000) can0 102#22B3880494FAA009
(0.596000) can0 221#61055555010780BB
(0.597000) can0 2B4#32054D0E6701
(0.598000) can0 7B5#020000
(0.598000) can0 344#00000000000060A7
(0.599000) can0 228#0106184C0060F1E6
(0.600000) can0 1E5#286C0400000040BE
(0.601000) can0 118#0E64950000C83400
(0.601000) can0 266#1D00113111008501
(0.602000) can0 401#072AE4940295F394
(0.604000) can0 386#0000000000000000
(0.604000) can0 201#00324E000080FF00
(0.605000) can0 380#0000000000000000
(0.606000) can0 45A#A4C4C4C05F2F5137
(0.609000) can0 2A8#01010000060030E2
(0.609000) can0 1E5#286C0400000060DE
(0.610000) can0 257#7B2B605402103001
(0.611000) can0 2E1#1021040010000004
(0.614000) can0 39D#1C60F52700
(0.614000) can0 448#20001010000010
(0.615000) can0 263#020080060D353521
(0.616000) can0 428#20001010000010
(0.616000) can0 419#00
(0.617000) can0 25D#3741012A04F08803
(0.619000) can0 129#C423E15F0020FF3F
(0.619000) can0 2C1#212B0D0A02000000
(0.620000) can0 1D5#290000000000A09F
(0.621000) can0 3C3#0000000000A50000
(0.622000) can0 545#020002000000A0EE
(0.624000) can0 2E5#00000F320000DD00
(0.626000) can0 243#0300000033513100
(0.628000) can0 553#0000000000002078
(0.628000) can0 229#A50900
(0.629000) can0 1D8#29D2C018000020CC
(0.630000) can0 1E5#286C04000000209E
(0.630000) can0 108#2A9F064A03F11925
(0.631000) can0 128#0000EC0A02
(0.632000) can0 234#30F0022BAD0420B9
(0.633000) can0 279#3ABFFC01B8056502
(0.634000) can0 132#0B8F42FEBA3C
(0.635000) can0 397#0300007E1C160000
(0.636000) can0 54F#0000000000000000
(0.636000) can0 261#52293E02805C820F
(0.639000) can0 129#5525E15F0020FF3F
(0.639000) can0 423#00001000000000
(0.640000) can0 7D5#2BA35FFE00000000
(0.641000) can0 7D5#2C3E3F0000000000
(0.644000) can0 2E5#00000F320000DD00
(0.644000) can0 552#000000000000A0F7
(0.645000) can0 2C3#555BA9B682C112AA
(0.646000) can0 2F1#2B7A008400000000
(0.649000) can0 7AA#0748FE43FE20FD48
(0.652000) can0 1E5#286C0400000060DE
(0.654000) can0 3A2#6005F3A61C804175
(0.656000) can0 201#0200000000000000
(0.658000) can0 3F5#0000C838830C0000
(0.660000) can0 1D8#29D200190000806D
(0.662000) can0 1D5#290000000000201F
(0.664000) can0 211#C21E710F1001
(0.667000) can0 3A8#0300000000000000
(0.667000) can0 381#EFFFFFCD0300A609
(0.668000) can0 118#356B950000C85400
(0.669000) can0 266#1D00113111008601
(0.669000) can0 379#00000948333F2100
(0.674000) can0 3C0#0100000000000000
(0.674000) can0 3E8#0600000000000000
(0.676000) can0 2B3#CE2B5E01401D1900
(0.679000) can0 441#0E01B6C35800256E
(0.679000) can0 201#0300000000000000
(0.680000) can0 1D5#290000000000605F
(0.681000) can0 2C1#0400000000000000
(0.684000) can0 2EC#5770B5
(0.684000) can0 2D2#ED2EAE4E950CE822
(0.685000) can0 123#01000000003F0000
(0.686000) can0 2F2#1201
(0.688000) can0 31A#20010000000090CE
(0.688000) can0 545#010000000010C01B
(0.689000) can0 1E5#286C0400000060DE
(0.690000) can0 247#590EFF1400BC0200
(0.690000) can0 257#7F2F605402103001
(0.691000) can0 2E1#658008004236316A
(0.693000) can0 39D#1E62F52700
(0.693000) can0 293#020C55905514AFA0
(0.694000) can0 285#034A7D5277000000
(0.695000) can0 264#3C000000A000
(0.696000) can0 27A#AAB1FC00B8056202
(0.696000) can0 2B4#35054A0E6601
(0.697000) can0 224#0408004019011008
(0.698000) can0 372#0400000000009011
(0.699000) can0 3A4#0100000000000000
(0.699000) can0 1D8#29D2C018000000AC
(0.700000) can0 118#E86E950000C80400
(0.701000) can0 288#0106184C00602176
(0.702000) can0 122#01000000003F0000
(0.704000) can0 20C#6C1838183A010010
(0.705000) can0 201#00324E000080FF00
(0.708000) can0 2E8#0101000006006052
(0.708000) can0 272#0380610000000000
(0.709000) can0 4E3#0600000000000000
(0.710000) can0 257#7020605402103001
(0.713000) can0 3A1#884C0FCA0010A21F
(0.713000) can0 3AA#0100000000000000
(0.714000) can0 448#20001010000010
(0.715000) can0 343#0092682E95000000
(0.715000) can0 282#A474D20918540324
(0.716000) can0 78A#01000100C45C905D
(0.717000) can0 682#0000004004111045
(0.718000) can0 75D#0682000000000000
(0.718000) can0 3A2#C2ACFFFF03000000
(0.720000) can0 1E5#286C0400000040BE
(0.721000) can0 400#00E0FBBEEFFB00
(0.721000) can0 545#020002000000D01E
(0.722000) can0 1F8#1A000000
(0.723000) can0 132#FD8E43FEC23C
(0.726000) can0 243#0300000033513100
(0.728000) can0 553#0000000000003088
(0.728000) can0 318#1A06320B10283DED
(0.729000) can0 458#00002000000000
(0.730000) can0 7FF#0800000100000000
(0.730000) can0 1E5#286C0400000060DE
(0.731000) can0 126#34482F04D6
(0.732000) can0 1D6#420800004A498308
(0.733000) can0 279#2BB0FC01B8056502
(0.734000) can0 2B6#000300
(0.735000) can0 3AE#F63F00080000114F
(0.736000) can0 401#0E2AEF94F294FA94
(0.736000) can0 2B3#AF03292CE10E1005
(0.737000) can0 4E2#65018F13022F0000
(0.738000) can0 129#682FE15F0020FF3F
(0.739000) can0 1E5#286C04000000007E
(0.739000) can0 1F9#0000000000000000
(0.740000) can0 118#BC62950000C8E400
(0.741000) can0 677#0300000000000000
(0.742000) can0 7D5#2C3E3F0000000000
(0.744000) can0 2E5#00000F320000DD00
(0.744000) can0 213#E8FD
(0.745000) can0 285#2445605872000000
(0.746000) can0 22B#FFFFFF0700000000
(0.747000) can0 119#00000000
(0.748000) can0 129#8D20E15F0020FF3F
(0.749000) can0 266#1D00113111008501
(0.751000) can0 1D5#290000000000403F
(0.752000) can0 2E3#03000085020B00
(0.756000) can0 201#0200000000000000
(0.758000) can0 3F5#0000C838830C0000
(0.760000) can0 1D8#29D2C0180000C06C
(0.762000) can0 225#5555FA00
(0.764000) can0 719#161A002779010000
(0.766000) can0 243#00FCCF0C97440D29
(0.769000) can0 2E2#01000055020B0000
(0.770000) can0 379#01000948333F2100
(0.771000) can0 2E1#0400000000202000
(0.774000) can0 39D#2064F52700
(0.776000) can0 3E8#0000000000000000
(0.778000) can0 441#0E01B6C358002D76
(0.780000) can0 249#E8010000
(0.782000) can0 242#55558600
(0.784000) can0 2EC#5780C5
(0.786000) can0 2D2#ED2EAE4E8D0CE822
(0.789000) can0 712#020A460CA40C0000
(0.789000) can0 257#7424605402103001
(0.790000) can0 1D5#290000000000C0BF
(0.791000) can0 359#3900000000000000
(0.794000) can0 2E5#00000F320000DD00
(0.794000) can0 195#400000000A002706
(0.795000) can0 204#010000FF00000010
(0.796000) can0 102#22B3880494FAA009
(0.797000) can0 221#610555550107C0FB
(0.798000) can0 393#080002B907B00304
(0.799000) can0 401#112A0F9508951895
(0.800000) can0 1D8#29D4C018000040EE
(0.800000) can0 288#0106184C00603186
(0.801000) can0 266#1D00113111008501
(0.802000) can0 122#00001392D2000000
(0.802000) can0 20C#6D1838183A010010
(0.803000) can0 132#FA8E3FFEB23C
(0.804000) can0 757#3200000000000000
(0.805000) can0 243#02FC6B0E03EB0000
(0.808000) can0 2E8#0101000006007062
(0.808000) can0 272#080002D107B00304
(0.809000) can0 118#8269950000C8A4FF
(0.811000) can0 257#7525605402103001
(0.811000) can0 3A1#884C0FCA0010C23F
(0.812000) can0 39D#2165F52700
(0.813000) can0 2E5#00000F320000DD00
(0.813000) can0 401#122A089508951E95
(0.814000) can0 448#20001010000010
(0.815000) can0 263#020080060D353521
(0.816000) can0 409#00
(0.816000) can0 3C2#0055555500006A05
(0.817000) can0 21D#0400B50000000000
(0.818000) can0 129#9827E15F0020FF3F
(0.819000) can0 1D8#29D400190000806F
(0.819000) can0 2E1#398D2AFF0F000000
(0.820000) can0 118#D36A950000C8F4FF
(0.822000) can0 545#020002000000004E
(0.824000) can0 2E5#00000F320000DD00
(0.826000) can0 243#0300000033513100
(0.828000) can0 553#0000000000004098
(0.828000) can0 113#019701
(0.829000) can0 405#1246333638353739
(0.830000) can0 266#1E00113111008501
(0.830000) can0 201#0148980001000000
(0.831000) can0 7FF#09EF000010000000
(0.832000) can0 128#0000EC0A02
(0.833000) can0 268#63119001E5
(0.833000) can0 279#2CB1FC01B8056502
(0.834000) can0 395#090F124D1109087D
(0.835000) can0 132#088F3AFEAC3C
(0.836000) can0 383#BD181600CDC3A947
(0.837000) can0 54F#0000000000000000
(0.838000) can0 129#1A29E15F0020FF3F
(0.839000) can0 1D8#29D440190000C0EF
(0.839000) can0 423#00001000000000
(0.840000) can0 7D5#2BA65FFE00000000
(0.841000) can0 7D5#2C3E3F0000000000
(0.844000) can0 2E5#00000F320000DD00
(0.844000) can0 3FD#0000003C20000180
(0.846000) can0 334#3F3F1408FF01E2B3
(0.847000) can0 381#5410C004000000FE
(0.848000) can0 129#C52AE15F0020FF3F
(0.849000) can0 1D8#29D640190000E011
(0.849000) can0 266#1E00113111008401
(0.850000) can0 1D5#290000000000807F
(0.853000) can0 2E1#FB1F812996790900
(0.855000) can0 320#0200000000000000
(0.857000) can0 45A#FD07F8FF03009F00
(0.859000) can0 2C2#555BA90680C112AA
(0.861000) can0 2C1#3304900000000000
(0.863000) can0 211#B410710F1001
(0.865000) can0 2E5#00000F320000DD00
(0.868000) can0 3A8#F4E07F13FF0F0000
(0.869000) can0 1E5#286C04000000209E
(0.870000) can0 379#02000A48333F2100
(0.873000) can0 3C0#0300000000000000
(0.873000) can0 132#038F3AFEB23C
(0.874000) can0 3E8#0100000000000000
(0.875000) can0 263#700ED29FA74F5F1F
(0.876000) can0 3C8#0300000000000000
(0.879000) can0 129#EB2DE15F0120FF3F
(0.879000) can0 201#0300000000000000
(0.880000) can0 118#0A60950000C83400
(0.881000) can0 2C1#0400000000000000
(0.881000) can0 234#2BE10380430074E1
(0.884000) can0 2E5#00000F320000DD00
(0.884000) can0 212#5904000081FF7731
(0.885000) can0 243#01FC375136005A5A
(0.886000) can0 2F2#1201
(0.888000) can0 31A#200100000000A0DE
(0.888000) can0 118#3B61950000C86400
(0.889000) can0 266#1E00113111008401
(0.890000) can0 247#570EFF1400C20200
(0.891000) can0 359#3A00000000000000
(0.894000) can0 2E5#00000F320000DD00
(0.894000) can0 33A#86D463B3FDFF3761
(0.895000) can0 3FD#01000A0000080280
(0.897000) can0 204#010000FF00000010
(0.898000) can0 396#091E1E4C4343127D
(0.899000) can0 129#682FE15F0020FF3F
(0.899000) can0 1E5#286C04000000007E
(0.900000) can0 3AE#F73F0008000061A0
(0.901000) can0 1D5#290000000000201F
(0.901000) can0 281#2800FF1F0001
(0.904000) can0 20C#6D1838183A010010
(0.904000) can0 39A#1C1BEB6AEFF6B27E
(0.905000) can0 45A#A4C4C4C05F2F5137
(0.907000) can0 2E8#0101000006008072
(0.907000) can0 6A2#0000000000
(0.908000) can0 272#0380610000000000
(0.909000) can0 118#7C63950000C8A4FF
(0.909000) can0 266#1E00113111008401
(0.910000) can0 1D5#290000000000403F
(0.911000) can0 3A1#884C0FCA0010E25F
(0.914000) can0 719#0100040000000000
(0.914000) can0 448#20001010000010
(0.915000) can0 263#020080060D353521
(0.916000) can0 2E1#398D2AFF0F000000
(0.916000) can0 3A2#B2ACFFFF03000000
(0.917000) can0 40A#0910000000006087
(0.918000) can0 31E#0000000000000000
(0.919000) can0 1D8#29D640190000C0F1
(0.920000) can0 1D5#290000000000605F
(0.921000) can0 381#16000400007F0000
(0.922000) can0 682#0000004004113065
(0.922000) can0 2E5#00000F320000DD00
(0.923000) can0 261#52293E02805CA22F
(0.926000) can0 243#0300000033513100
(0.928000) can0 553#00000000000050A8
(0.928000) can0 229#490C00
(0.929000) can0 1D8#29D640190000E011
(0.930000) can0 54F#0000000000000000
(0.930000) can0 201#0148980001000000
(0.931000) can0 108#61B2065A03041A25
(0.932000) can0 39D#2468F52700
(0.933000) can0 234#2EF0022BAD048017
(0.934000) can0 339#02F1FE008007800F
(0.935000) can0 372#0800000000000000
(0.936000) can0 241#37324C0F8F5500
(0.936000) can0 263#0300000000000000
(0.939000) can0 129#C423E15F0020FF3F
(0.939000) can0 2C1#0219060000D0020A
(0.940000) can0 118#7F66950000C8A4FF
(0.941000) can0 677#0300000000000000
(0.941000) can0 7D5#2C3E3F0000000000
(0.944000) can0 2E5#00000F320000DD00
(0.946000) can0 3FD#0200000000000090
(0.947000) can0 2C3#0000C04B010040CB
(0.950000) can0 1D8#29D6401900002051
(0.951000) can0 422#700010000000
(0.952000) can0 545#80055D0098754982
(0.953000) can0 2E3#84126120850400
(0.953000) can0 132#F68E3EFEB83C
(0.954000) can0 201#0200000000000000
(0.955000) can0 263#0400000070140000
(0.955000) can0 45A#FD07F8FF03009F00
(0.956000) can0 3F5#0000C838820C0000
(0.957000) can0 3F5#0000C838830C0000
(0.958000) can0 129#5525E15F0020FF3F
(0.958000) can0 1D8#29D6401900004071
(0.959000) can0 7AA#0B5000284E003700
(0.960000) can0 266#1D00113111008401
(0.961000) can0 262#0B00A8B200B09010
(0.962000) can0 211#B511710F1001
(0.963000) can0 132#068F3EFEB73C
(0.966000) can0 243#00FCCF0C97440D29
(0.966000) can0 2E2#E211294949490900
(0.967000) can0 2D1#FF01
(0.968000) can0 129#8F26E15F0020FF3F
(0.968000) can0 207#0000000000000000
(0.969000) can0 118#D269950000C8F4FF
(0.970000) can0 257#7D2D605402103001
(0.971000) can0 261#052285C99A42D017
(0.973000) can0 39D#2569F52700
(0.973000) can0 2E5#00000F320000DD00
(0.974000) can0 3E8#0200000000000000
(0.975000) can0 263#700ED29FA74F5F1F
(0.978000) can0 139#00
(0.979000) can0 249#83050000
(0.980000) can0 2C1#0400000000000000
(0.980000) can0 1D5#290000000000201F
(0.981000) can0 2E1#658008004236316A
(0.982000) can0 677#0400000000000000
(0.983000) can0 3A2#0110200000000000
(0.983000) can0 132#F78E3DFEB13C
(0.984000) can0 2D2#ED2EAE4E850CE822
(0.985000) can0 252#3330347800FC0F00
(0.986000) can0 292#55BAC86596010000
(0.986000) can0 712#0400000000000000
(0.987000) can0 360#0700000000000000
(0.988000) can0 129#4F28E15F0020FF3F
(0.989000) can0 1D8#29D600190000A091
(0.990000) can0 247#570EFF1400C40200
(0.991000) can0 359#C23F00000B00001C
(0.992000) can0 788#01000000FFA19812
(0.994000) can0 2E5#00000F320000DD00
(0.994000) can0 204#010000FF00000010
(0.995000) can0 263#49FED1A7A72F5F1F
(0.996000) can0 2B4#34054B0E6101
(0.996000) can0 224#0408004019011008
(0.997000) can0 393#080002B107B00304
(0.998000) can0 228#0106184C00603126
(0.999000) can0 1E5#286C0400000040BE
(0.999000) can0 7C8#125C0AD0266F00AE
(1.000000) can0 1D5#290000000000605F
(1.001000) can0 3AE#F73F0008000090CF
(1.004000) can0 20C#6C1838183A010010
(1.006000) can0 39A#35FFFDFDFD01000A
(1.008000) can0 2E8#0101000006009082
(1.010000) can0 272#080002D107B00304
(1.012000) can0 1D5#290000000000807F
(1.014000) can0 719#0C890F0050006000
(1.016000) can0 343#009260DE93000000
(1.018000) can0 3E2#040000610FCF00
(1.023000) can0 20E#140400
(1.025000) can0 340#0500000000000000
(1.027000) can0 3F9#0400000000000000
(1.029000) can0 381#1900000000000000
(1.031000) can0 458#00002000000000
(1.033000) can0 257#7020605402103001
(1.036000) can0 2B6#000300
(1.038000) can0 4E2#01400E0000002800
(1.039000) can0 423#00001000000000
(1.040000) can0 3AE#F73F00080000A0DF
(1.041000) can0 266#1E00113111008601
(1.041000) can0 7D7#3220000000000000
(1.044000) can0 2E5#00000F320000DD00
(1.046000) can0 2C3#555BA9B682C112AA
(1.048000) can0 119#00000000
(1.050000) can0 118#FB61950000C82400
(1.052000) can0 422#700010000000
(1.054000) can0 2E5#00000F320000DD00
(1.056000) can0 201#0200000000000000
(1.058000) can0 3F5#0000C838830C0000
(1.061000) can0 1D8#29D84019000080B3
(1.063000) can0 211#B612710F1001
(1.066000) can0 243#00FCCF0C97440D29
(1.066000) can0 3A8#00FF000000000000
(1.067000) can0 261#052285C99A423077
(1.068000) can0 129#8D20E15F0020FF3F
(1.068000) can0 1D8#29D840190000A0D3
(1.069000) can0 266#1E00113111008601
(1.070000) can0 1D5#290000000000403F
(1.073000) can0 2E5#00000F320000DD00
(1.073000) can0 3C0#0500010000000000
(1.074000) can0 3E8#0300000000000000
(1.075000) can0 263#700ED29FA74F5F1F
(1.078000) can0 3E9#F088022100001097
(1.078000) can0 666#0000C800
(1.080000) can0 405#100000000035594A
(1.080000) can0 2BF#00000000000001
(1.081000) can0 1D5#290000000000605F
(1.082000) can0 2C1#0400000000000000
(1.083000) can0 6A1#0000000000
(1.083000) can0 132#FB8E34FEA33C
(1.084000) can0 37A#D00C000021000021
(1.085000) can0 252#5B30347800FC0F00
(1.086000) can0 292#55BAC86596010000
(1.086000) can0 392#0111A467000A0300
(1.087000) can0 31A#200100000000B0EE
(1.088000) can0 129#D322E15F0020FF3F
(1.089000) can0 118#AE65950000C8D4FF
(1.089000) can0 266#1E00113111008601
(1.091000) can0 1D5#290000000000807F
(1.092000) can0 788#0240CE0700030000
(1.092000) can0 287#32343032D9020000
(1.093000) can0 285#61018E0308002E00
(1.094000) can0 132#FA8E32FE9D3C
(1.095000) can0 264#3D000000A000
(1.095000) can0 221#610555550107205B
(1.096000) can0 2B4#33054C0E6501
(1.097000) can0 224#0408004019011008
(1.100000) can0 129#6923E15F0120FF3F
(1.102000) can0 1D5#290000000000A09F
(1.104000) can0 20C#6C1838183A010010
(1.106000) can0 39A#1C1BEB6AEBF2AE7E
(1.108000) can0 2E8#010100000600A092
(1.111000) can0 272#0380610000000000
(1.113000) can0 3A1#884C0FCA0010229F
(1.115000) can0 232#8A008C0EC9040000
(1.117000) can0 261#52293E02805C62EF
(1.117000) can0 31E#0200000000000000
(1.118000) can0 20E#150500
(1.119000) can0 1E5#286C0400000040BE
(1.120000) can0 41D#00
(1.120000) can0 1D5#290000000000E0DF
(1.121000) can0 400#00E0FBBEEFFB00
(1.124000) can0 1F8#1A000000
(1.126000) can0 243#0300000033513100
(1.128000) can0 553#00000000000070C8
(1.128000) can0 318#1A06320B102825D5
(1.129000) can0 1D8#29DE001A0000605A
(1.131000) can0 229#310E00
(1.131000) can0 257#7525605402103001
(1.132000) can0 39D#296DF52700
(1.133000) can0 234#2DF0022BAD04C056
(1.133000) can0 279#2FB4FC01B8056502
(1.134000) can0 132#F58E2BFE8C3C
(1.135000) can0 395#090F104D1109077D
(1.136000) can0 401#2200000000000000
(1.136000) can0 54F#0000000000000000
(1.139000) can0 129#9827E15F0020FF3F
(1.139000) can0 2C1#0219060000D0020A
(1.140000) can0 3AE#F73F00080000D110
(1.141000) can0 266#1F00113111008501
(1.141000) can0 7D5#2C3E3F0000000000
(1.143000) can0 2E5#00000F320000DD00
(1.144000) can0 285#02A800000000B200
(1.145000) can0 2C3#0000C04B010040CB
(1.145000) can0 243#04FC33ECF17AFFFF
(1.146000) can0 119#00000000
(1.147000) can0 261#3413184B00408464
(1.150000) can0 129#4F28E15F0020FF3F
(1.150000) can0 1D5#290000000000403F
(1.153000) can0 2E3#07944F3E010000
(1.153000) can0 132#F28E23FE7D3C
(1.154000) can0 201#0200000000000000
(1.155000) can0 263#0400000070140000
(1.155000) can0 45A#FD07F8FF03009F00
(1.156000) can0 3F5#0000C838830C0000
(1.157000) can0 2C2#2040C04B010080CB
(1.158000) can0 129#1A29E15F0020FF3F
(1.161000) can0 118#C56C950000C8E4FF
(1.163000) can0 211#B713710F1001
(1.163000) can0 261#052285C99A4290D7
(1.166000) can0 243#00FCCF0C97440D29
(1.166000) can0 2E2#F713504001000000
(1.167000) can0 2D1#FF01
(1.168000) can0 207#0000000000000000
(1.168000) can0 23E#00003AC002FF7FBA
(1.169000) can0 266#2000113211008501
(1.170000) can0 257#7727605402103001
(1.171000) can0 2E1#658008004236316A
(1.173000) can0 39D#2A6EF52700
(1.173000) can0 372#0C0000FF0F000000
(1.175000) can0 3E8#0400000000000000
(1.178000) can0 139#00
(1.178000) can0 249#5E090000
(1.179000) can0 103#22B38804A2EE2032
(1.180000) can0 261#00101500FF4FA009
(1.180000) can0 1D5#290000000000A09F
(1.181000) can0 2C1#0400000000000000
(1.182000) can0 677#0400000000000000
(1.183000) can0 737#02000000E0F080
(1.183000) can0 132#ED8E14FE523C
(1.184000) can0 2D2#ED2EAE4E940CE822
(1.185000) can0 252#4030347800FC0F00
(1.185000) can0 292#55BAC86596010000
(1.188000) can0 2E1#1021040010000004
(1.188000) can0 118#0A6F950000C82401
(1.190000) can0 1E5#286C04000000209E
(1.191000) can0 7A8#B0CCB18300008200
(1.191000) can0 359#440400008AAB72AE
(1.192000) can0 287#32343032D9020000
(1.193000) can0 2E5#00000F320000DD00
(1.194000) can0 195#400000000A002706
(1.194000) can0 264#3D000000A000
(1.195000) can0 261#3140EEFF7D49BAD4
(1.196000) can0 285#034A7D5277000000
(1.196000) can0 3DF#0000C00002D0001B
(1.197000) can0 393#080001C107B00304
(1.198000) can0 228#0106184C00605146
(1.199000) can0 1E5#286C0400000040BE
(1.199000) can0 118#4A60950000C87400
(1.201000) can0 1D5#290000000000E0DF
(1.204000) can0 20C#6C1838183A010010
(1.204000) can0 201#00324E000080FF00
(1.205000) can0 45A#A4C4C4C05F2F5138
(1.208000) can0 2E8#010100000600B0A2
(1.208000) can0 272#080002D107B00304
(1.209000) can0 118#0B61950000C83400
(1.210000) can0 266#2100113211008501
(1.213000) can0 22B#FFFFFF0300000000
(1.213000) can0 3AA#0000000000000000
(1.214000) can0 448#20001010000010
(1.215000) can0 343#00926C8E94000000
(1.215000) can0 282#A474D20918540324
(1.216000) can0 545#020003000000C00F
(1.218000) can0 682#0000004004116095
(1.219000) can0 129#682FE15F0020FF3F
(1.219000) can0 1E5#286C04000000007E
(1.220000) can0 2E1#026D66021DB80000
(1.221000) can0 1D5#290000000000201F
(1.221000) can0 3E3#04000000
(1.222000) can0 1F8#1A000000
(1.223000) can0 340#0700000000000000
(1.226000) can0 243#0300000033513100
(1.228000) can0 553#00000000000080D8
(1.228000) can0 229#3B0F00
(1.229000) can0 318#1A06320B102827D7
(1.230000) can0 249#E20A0000
(1.230000) can0 1E5#286C04000000209E
(1.232000) can0 126#37E82F2CA1
(1.233000) can0 279#30B5FC01B8056502
(1.233000) can0 395#090F114D1109087D
(1.234000) can0 2E5#00000F320000DD00
(1.235000) can0 54F#0000000000000000
(1.236000) can0 2E1#FB1F8039967C0900
(1.236000) can0 4E2#03B0010000002800
(1.239000) can0 129#9A21E15F0020FF3F
(1.239000) can0 423#00001000000000
(1.240000) can0 3AE#F73F00080000003F
(1.241000) can0 266#2200123211008301
(1.241000) can0 7D7#3220000000000000
(1.244000) can0 2E5#00000F320000DD00
(1.244000) can0 552#0000000000000057
(1.247000) can0 221#6055551554515138
(1.249000) can0 129#D322E15F0020FF3F
(1.251000) can0 257#7B2B605402103001
(1.258000) can0 39D#1C60F52700
(1.263000) can0 7AA#120814F860062100
(1.265000) can0 243#00FCCF0C97440D29
(1.267000) can0 3A8#0103000700020100
(1.269000) can0 2E1#658008004236316A
(1.271000) can0 257#7C2C605402103001
(1.273000) can0 2E5#00000F320000DD00
(1.275000) can0 132#CF8EECFD0B3C
(1.278000) can0 2B3#07C875AA00000000
(1.279000) can0 103#22B38804A2EE2032
(1.280000) can0 2BF#00000000000001
(1.280000) can0 266#2300123212008301
(1.282000) can0 381#0500000000CE6408
(1.283000) can0 2E5#00000F320000DD00
(1.283000) can0 37A#D20D000025000026
(1.284000) can0 212#5904000081FF7731
(1.285000) can0 123#01000000003F0000
(1.288000) can0 31A#200100000000C0FE
(1.288000) can0 118#5369950000C87400
(1.289000) can0 266#2300123212008301
(1.290000) can0 25B#D38000056A869033
(1.290000) can0 7A8#01000000FFA19812
(1.291000) can0 261#3140DAFF7E491A21
(1.292000) can0 287#32343032D8020000
(1.293000) can0 2E5#00000F320000DD00
(1.294000) can0 473#0000030000000000
(1.295000) can0 102#22B3880494FAA009
(1.296000) can0 221#610555550107609B
(1.297000) can0 372#0E00000C067D0000
(1.297000) can0 393#0380610000000000
(1.298000) can0 228#0106184C00606156
(1.299000) can0 1E5#286C04000000007E
(1.299000) can0 288#0106184C006081D6
(1.300000) can0 3AE#F73F000800002160
(1.301000) can0 281#2800FF1F0001
(1.304000) can0 2E5#00000F320000DD00
(1.304000) can0 39A#181BEB6AEBEAAE7E
(1.305000) can0 3AE#F93F000800003172
(1.308000) can0 2E8#010100000600C0B2
(1.309000) can0 272#0380610000000000
(1.310000) can0 257#7E2E605402103001
(1.313000) can0 3A1#884C0FCA001062DF
(1.313000) can0 78A#010000001C130C0D
(1.314000) can0 448#20001010000010
(1.315000) can0 343#009264DE94000000
(1.315000) can0 282#9C74D2091C540324
(1.316000) can0 428#20001010000010
(1.317000) can0 40A#09100000000080A7
(1.318000) can0 682#00000040041170A5
(1.318000) can0 3DD#E2021BD0021E0000
(1.319000) can0 21D#0400B50000000000
(1.320000) can0 118#B66C950000C8D400
(1.321000) can0 2F9#BCFB07030D1A8B84
(1.322000) can0 3C3#5555550100000000
(1.323000) can0 261#E34B0A00004035A3
(1.326000) can0 243#0300000033513100
(1.328000) can0 553#00000000000090E8
(1.328000) can0 229#460000
(1.329000) can0 1D8#2902011E0000E003
(1.330000) can0 3ED#00
(1.330000) can0 1E5#286C0400000060DE
(1.331000) can0 257#7F2F605402103001
(1.332000) can0 666#0000C800
(1.332000) can0 318#1A06330B102829DA
(1.333000) can0 1D6#420800004A498308
(1.334000) can0 234#30F0022BAD040099
(1.335000) can0 7FF#0500000120008000
(1.335000) can0 2E1#FB1F7F39967A0900
(1.337000) can0 132#BB8EE4FD063C
(1.338000) can0 54F#0000000000000000
(1.338000) can0 129#342BE15F0020FF3F
(1.339000) can0 261#3413184B00404424
(1.340000) can0 118#D86E950000C8F400
(1.341000) can0 677#0300000000000000
(1.341000) can0 7D5#2BA05FFE00000000
(1.342000) can0 7D7#3221000000000000
(1.343000) can0 04F#C5059A535F4C150A
(1.344000) can0 3FD#0000003C20000180
(1.346000) can0 334#3F3F1408FF01F2C3
(1.346000) can0 119#00000000
(1.349000) can0 129#672CE25F0020FF3F
(1.349000) can0 266#2500123212008401
(1.351000) can0 1D5#290000000000C0BF
(1.354000) can0 2E5#00000F320000DD00
(1.356000) can0 263#0400000070140000
(1.356000) can0 3F5#0000C838830C0000
(1.357000) can0 2C2#2040C04B010080CB
(1.358000) can0 129#462DE15F0020FF3F
(1.358000) can0 1D8#2908C11E00004029
(1.361000) can0 118#9A60950000C8C400
(1.361000) can0 3A1#C1FFFF593D007085
(1.362000) can0 211#A915710F0001
(1.363000) can0 3DB#0300000000800000
(1.363000) can0 2E5#00000F320000DD00
(1.366000) can0 243#00FCCF0C97440D29
(1.366000) can0 207#0000000000000000
(1.368000) can0 2D1#FF01
(1.368000) can0 1D8#2908011F0000608A
(1.369000) can0 266#2500123212008401
(1.370000) can0 1D5#29000000000000FF
(1.371000) can0 261#00101400FF4F60C8
(1.374000) can0 39D#1F63F52700
(1.374000) can0 3E8#0600000000000000
(1.377000) can0 3C8#0100000000000000
(1.379000) can0 129#F62FE25F0120FF3F
(1.379000) can0 1E5#286C04000000007E
(1.380000) can0 3AE#FA3F000800005193
(1.381000) can0 2C1#0400000000000000
(1.381000) can0 234#2CE1038043001482
(1.382000) can0 677#0400000000000000
(1.384000) can0 2E5#00000F320000DD00
(1.385000) can0 252#2230337800FC0F00
(1.385000) can0 292#55BAC86596010000
(1.388000) can0 261#3140E4FF82497A8F
(1.388000) can0 118#4D63950000C87400
(1.389000) can0 1E5#286C04000000209E
(1.390000) can0 1D5#290000000000403F
(1.390000) can0 359#4600000000000000
(1.391000) can0 25B#D38000056A86A043
(1.392000) can0 788#0240CD0700030000
(1.393000) can0 2E5#00000F320000DD00
(1.393000) can0 3FD#01000A0000080280
(1.395000) can0 273#81E13000C8021011
(1.396000) can0 2B3#6900F02F0000BD1E
(1.398000) can0 2E1#398D2AFF0F000000
(1.398000) can0 1D8#290E411F0000C030
(1.399000) can0 288#0106184C006091E6
(1.400000) can0 266#2500123212008401
(1.401000) can0 281#2800FF1F0001
(1.401000) can0 122#00001392D2000000
(1.404000) can0 2E5#00000F320000DD00
(1.404000) can0 201#00324E000080FF00
(1.405000) can0 243#02FC6B0E03EB0000
(1.406000) can0 376#FBFFFBFFFB0FB004
(1.406000) can0 757#3200000000000000
(1.407000) can0 557#5A6E190002
(1.408000) can0 656#1100000000000000
(1.409000) can0 23E#00003AC002FFDF1A
(1.410000) can0 1E5#286C0400000060DE
(1.411000) can0 4E3#0600000000000000
(1.412000) can0 2E1#026D66021DB90000
(1.412000) can0 3A1#884C0FCA00148203
(1.413000) can0 2E5#00000F320000DD00
(1.414000) can0 545#020003000000206F
(1.415000) can0 343#0092680E95000000
(1.415000) can0 78A#01000100C45C845D
(1.416000) can0 3E2#040000611FCF00
(1.417000) can0 21D#0400B50000000000
(1.418000) can0 129#7623E35F0220FF3F
(1.418000) can0 7AA#04000FC000260000
(1.419000) can0 1E5#286C04000000007E
(1.420000) can0 118#6066950000C88400
(1.421000) can0 400#00E0FBBEEFFB00
(1.422000) can0 1F8#1A000000
(1.423000) can0 340#0900000000000000
(1.426000) can0 243#0300000033513100
(1.428000) can0 553#000000000000A0F8
(1.428000) can0 318#1A06330B10282BDC
(1.432000) can0 201#0148980001000000
(1.434000) can0 279#2EB7FC01B4056502
(1.436000) can0 339#02F1FE008007800F
(1.438000) can0 4E2#65018F13022F0000
(1.440000) can0 1D8#2914012000004077
(1.442000) can0 1D5#290000000000E0DF
(1.444000) can0 3FD#0200000000000090
(1.446000) can0 2E5#00000F320000DD00
(1.449000) can0 119#00000000
(1.451000) can0 1E5#286C0400000060DE
(1.453000) can0 39D#2165F52700
(1.455000) can0 320#0000000000000000
(1.457000) can0 45A#FD07F8FF0300A000
(1.459000) can0 2C2#555BA90680C112AA
(1.461000) can0 2C1#3304900000000000
(1.464000) can0 719#0100040000000000
(1.465000) can0 243#00FCCF0C97440D29
(1.468000) can0 207#0000000000000000
(1.470000) can0 1D8#291801210000A0DC
(1.472000) can0 316#1232A63551A0A09F
(1.474000) can0 2E5#00000F320000DD00
(1.476000) can0 3E8#0000000000000000
(1.478000) can0 139#00
(1.481000) can0 249#CE0F0000
(1.483000) can0 234#2BE10380430034A1
(1.486000) can0 123#01000000003F0000
(1.486000) can0 2D2#ED2EAD4E8A0CE822
(1.487000) can0 292#55BAC86596010000
(1.488000) can0 360#0100000000000000
(1.488000) can0 42E#00E0BFFFFEEFBFFF
(1.489000) can0 1E5#286C0400000060DE
(1.490000) can0 25B#D38000056A86B053
(1.491000) can0 7A8#ACCCB18300008200
(1.491000) can0 287#32343032D8020000
(1.492000) can0 359#C83F00000C00001C
(1.493000) can0 2E5#00000F320000DD00
(1.494000) can0 186#D109000200001A25
(1.495000) can0 1A5#00101F481D
(1.496000) can0 27A#BFB90C01B4056202
(1.497000) can0 381#0B00000000000000
(1.497000) can0 393#0380610000000000
(1.498000) can0 228#0106184C00608176
(1.499000) can0 261#52293E02805CE26F
(1.500000) can0 118#E96E950000C80401
(1.500000) can0 266#2800133313008401
(1.501000) can0 122#01000000003F0000
(1.504000) can0 2E5#00000F320000DD00
(1.508000) can0 243#02FC6B0E03EB0000
(1.510000) can0 272#0380610000000000
(1.512000) can0 3A2#C2ACFFFF03000000
(1.514000) can0 719#6EB701005E020014
(1.517000) can0 448#20001010000010
(1.519000) can0 21D#0400B50000000000
(1.521000) can0 2C1#212B0D0A02000000
(1.523000) can0 1F8#1A000000
(1.525000) can0 340#0A00002000000000
(1.528000) can0 553#000000000000B008
(1.528000) can0 23E#00003AC002FF0F4A
(1.529000) can0 1D8#2922812200006027
(1.530000) can0 1E5#286C0400000060DE
(1.530000) can0 266#2A00133413008401
(1.531000) can0 257#9139605402183001
(1.532000) can0 39D#2367F52700
(1.533000) can0 268#65139001E6
(1.533000) can0 289#D0100984A1003D8F
(1.535000) can0 132#8D8E96FD5C3B
(1.536000) can0 397#0320807E1E1C0000
(1.536000) can0 54F#0000000000000000
(1.539000) can0 129#C62FE35FFF1FFF3F
(1.539000) can0 2C1#0219060000D0020A
(1.540000) can0 118#6C62950000C89400
(1.541000) can0 677#0300000000000000
(1.541000) can0 315#014B4C00514C0000
(1.542000) can0 7D5#3200000000000000
(1.543000) can0 7D7#3222000000000000
(1.544000) can0 132#898E95FD573B
(1.544000) can0 552#0000000000003087
(1.545000) can0 7D5#42F8008500002700
(1.546000) can0 2C3#0000C04B010040CB
(1.547000) can0 3FE#27040410400001CD
(1.548000) can0 129#4A20E35F0020FF3F
(1.549000) can0 3C5#0000000000000000
(1.550000) can0 3E5#0000000000000000
(1.550000) can0 1D5#290000000000403F
(1.551000) can0 39B#0310DF80B08860A8
(1.552000) can0 36E#0000000000000000
(1.553000) can0 7D5#46504F5B4E444E4F
(1.553000) can0 2E5#00000F320000DD00
(1.554000) can0 7D5#485F65000080575C
(1.555000) can0 2E1#658008004336316A
(1.556000) can0 3F5#0000C838820C0000
(1.556000) can0 3F5#0000C838830C0000
(1.557000) can0 2C2#2040C04B010080CB
(1.559000) can0 129#F021E35F0120FF3F
(1.559000) can0 118#AE64950000C8D400
(1.560000) can0 22B#FFFFFF0300000000
(1.561000) can0 3A1#C1FFFF593D00B0C5
(1.564000) can0 211#BB17710F1001
(1.566000) can0 243#00FCCF0C97440D29
(1.566000) can0 2E2#01000055020B0000
(1.567000) can0 2D1#FF01
(1.568000) can0 129#B922E35F0120FF3F
(1.568000) can0 118#7F65950000C8A400
(1.569000) can0 266#2900133313008201
(1.570000) can0 379#090000000A000C03
(1.571000) can0 3E9#00880200000030A6
(1.573000) can0 39D#2468F52700
(1.573000) can0 132#8C8EA0FD6E3B
(1.575000) can0 3E8#0100000000000000
(1.575000) can0 3C8#0300000000000000
(1.576000) can0 3A2#0110200000000000
(1.577000) can0 441#0C01B6C358002D74
(1.578000) can0 414#1233585646544756
(1.578000) can0 421#021A0000002000
(1.579000) can0 1D8#2926C1220000000B
(1.580000) can0 201#0300000000000000
(1.581000) can0 261#314008007F493A71
(1.581000) can0 242#55558600
(1.582000) can0 545#01000000001070CB
(1.583000) can0 2E5#00000F320000DD00
(1.584000) can0 37A#D10C0002C50000C1
(1.584000) can0 724#020064
(1.586000) can0 123#00001392D2000000
(1.587000) can0 392#000B000000000000
(1.587000) can0 360#0200000000000000
(1.588000) can0 20A#F61509821801
(1.589000) can0 1E5#286C04000000209E
(1.592000) can0 1D5#290000000000C0BF
(1.594000) can0 2E5#00000F320000DD00
(1.594000) can0 353#FB0F39801A14FC06
(1.595000) can0 3D8#1B001800
(1.596000) can0 27A#AFBAFC00B4056202
(1.596000) can0 261#52293E02805C42CF
(1.597000) can0 224#0408004019011008
(1.598000) can0 393#080001B907B00304
(1.599000) can0 228#0106184C00609186
(1.600000) can0 1E5#286C0400000040BE
(1.601000) can0 266#2900133313008201
(1.602000) can0 281#2800FF1F0001
(1.602000) can0 384#0000000000000000
(1.603000) can0 20C#6E1838183A010010
(1.604000) can0 381#0E00000000E0FF00
(1.605000) can0 757#3200000000000000
(1.605000) can0 45A#A4C4C4C05F2F5136
(1.606000) can0 2E8#010100000600F0E2
(1.607000) can0 6A2#0000000000
(1.608000) can0 129#3D26E35F0220FF3F
(1.608000) can0 272#080002D107B00304
(1.609000) can0 23E#00003AC002FF2F6A
(1.610000) can0 266#2900133313008201
(1.611000) can0 257#953D605402183001
(1.612000) can0 39D#2569F52700
(1.613000) can0 2E5#00000F320000DD00
(1.614000) can0 401#082AC194B694B194
(1.614000) can0 448#20001010000010
(1.615000) can0 263#020080060D353521
(1.616000) can0 428#20001010000010
(1.616000) can0 419#00
(1.617000) can0 25D#3741012A04F08803
(1.618000) can0 129#F227E35F0120FF3F
(1.619000) can0 1E5#286C04000000007E
(1.619000) can0 2E1#FB1F8039967B0900
(1.620000) can0 1D5#290000000000201F
(1.621000) can0 3C3#0000000000A50000
(1.624000) can0 1F8#1A000000
(1.625000) can0 243#0300000033513100
(1.628000) can0 553#000000000000C018
(1.628000) can0 7F4#01
(1.629000) can0 1D8#292A01230000A0F0
(1.630000) can0 458#00002000000000
(1.630000) can0 266#2A00133313008201
(1.631000) can0 257#963E605402183001
(1.632000) can0 234#2FF0022BAD0460F8
(1.633000) can0 289#D01009C494003D8F
(1.633000) can0 395#090F114D1109087D
(1.634000) can0 2E5#00000F320000DD00
(1.635000) can0 383#BD181600CDB32947
(1.636000) can0 263#0300000000000000
(1.636000) can0 4E2#00D1000100002800
(1.638000) can0 129#A829E35F0220FF3F
(1.639000) can0 1E5#286C0400000040BE
(1.639000) can0 381#EFFFFFCD0300A609
(1.640000) can0 1D5#290000000000605F
(1.641000) can0 7D5#2C3E3F0000000000
(1.644000) can0 3A2#6005F3A81C804175
(1.646000) can0 243#04FC33ECED7AFFFF
(1.648000) can0 119#00000000
(1.650000) can0 23E#00003AC002FF3F7A
(1.652000) can0 422#700010000000
(1.654000) can0 2E5#00000F320000DD00
(1.656000) can0 263#0400000070140000
(1.658000) can0 3F5#0000C838830C0000
(1.660000) can0 1D8#292C412300000092
(1.662000) can0 1D5#290000000000A09F
(1.664000) can0 2E5#00000F320000DD00
(1.664000) can0 243#00FCCF0C97440D29
(1.667000) can0 3A8#0300000000000000
(1.667000) can0 2E1#1021040010000004
(1.670000) can0 1D8#292C4123000020B2
(1.674000) can0 2E5#00000F320000DD00
(1.674000) can0 3E8#0200000000000000
(1.675000) can0 261#314008007F499AD1
(1.676000) can0 3C8#0400000000000000
(1.679000) can0 441#0A01B6C35800357A
(1.679000) can0 1E5#286C0400000040BE
(1.680000) can0 1D5#290000000000E0DF
(1.681000) can0 2C1#0400000000000000
(1.682000) can0 6A1#0000000000
(1.683000) can0 2E1#398D2AFF0F000000
(1.686000) can0 2D2#EE2EAC4E990CE822
(1.686000) can0 782#5D8680C899374407
(1.687000) can0 360#0300800000000000
(1.688000) can0 129#F32EE35F0120FF3F
(1.688000) can0 1D8#292C812300006032
(1.689000) can0 266#2A00133313008201
(1.690000) can0 25B#D38000056A86D073
(1.691000) can0 7A8#0240C507000F0000
(1.691000) can0 227#7804270054000081
(1.692000) can0 39D#276BF52700
(1.693000) can0 186#D00B000200FE1925
(1.694000) can0 1A5#00101F582D
(1.694000) can0 102#22B3880494FAA009
(1.696000) can0 221#610555550107E01B
(1.697000) can0 293#020C55905514CFC0
(1.697000) can0 2A4#CD37BEF2BD6F7F4D
(1.698000) can0 3A4#0000000000000000
(1.699000) can0 1D8#292C812300008052
(1.700000) can0 288#0106184C0060C116
(1.700000) can0 266#2B00133313008201
(1.701000) can0 677#0200000000000000
(1.704000) can0 2E5#00000F320000DD00
(1.704000) can0 39A#1C1BEB6AE7E6AA7E
(1.705000) can0 45A#A4C4C4C05F2F5136
(1.708000) can0 2E8#01010000060000F2
(1.708000) can0 272#0380610000000000
(1.709000) can0 1E5#286C04000000209E
(1.711000) can0 257#A242605402203001
(1.711000) can0 3A1#884C0FCA0010E25F
(1.714000) can0 719#0300000000000000
(1.714000) can0 448#20001010000010
(1.715000) can0 263#020080060D353521
(1.716000) can0 428#20001010000010
(1.716000) can0 40A#091000000000A0C7
(1.717000) can0 21D#0400B50000000000
(1.718000) can0 25D#3741012A04F08803
(1.719000) can0 1D8#292C01240000C013
(1.719000) can0 2C1#212B0D0A02000000
(1.720000) can0 1D5#290000000000605F
(1.721000) can0 3C3#5555550100000000
(1.724000) can0 1F8#1A000000
(1.725000) can0 243#0300000033513100
(1.728000) can0 3AE#FE3F000800001157
(1.728000) can0 318#1A06330B102831E2
(1.729000) can0 1D8#292C01240000E033
(1.730000) can0 201#0148980001000000
(1.730000) can0 1E5#286C0400000060DE
(1.731000) can0 257#A343605402203001
(1.732000) can0 39D#286CF52700
(1.733000) can0 2E1#0400000000202000
(1.733000) can0 2B6#000300
(1.734000) can0 132#788E89FD533B
(1.735000) can0 395#090F104D1009077D
(1.736000) can0 401#0E2AAC94AF94B994
(1.736000) can0 7AA#0800000018011B0E
(1.738000) can0 129#3C23E45F0120FF3F
(1.739000) can0 1E5#286C04000000007E
(1.739000) can0 2C1#0219060000D0020A
(1.740000) can0 1D5#290000000000A09F
(1.741000) can0 7D5#2B995FFE00000000
(1.742000) can0 3A2#6025F3A61C804175
(1.744000) can0 2E5#00000F320000DD00
(1.746000) can0 2C3#0000C04B010040CB
(1.746000) can0 119#00000000
(1.747000) can0 2E1#658008004336316A
(1.748000) can0 129#BA24E45F0120FF3F
(1.748000) can0 1D8#292C012400002073
(1.749000) can0 257#A444605402203001
(1.750000) can0 1D5#290000000000C0BF
(1.765000) can0 2E5#00000F320000DD00
(1.767000) can0 2E2#E211194949490900
(1.769000) can0 129#7726E45F0120FF3F
(1.771000) can0 257#AD45605402283001
(1.773000) can0 39D#296DF52700
(1.775000) can0 132#8A8E95FD5F3B
(1.777000) can0 3C8#0500000000000000
(1.779000) can0 441#0901B6C358003D81
(1.782000) can0 201#0300000000000000
(1.783000) can0 2E5#00000F320000DD00
(1.783000) can0 37A#CBE0010000000000
(1.784000) can0 2D2#ED2EAC4E8F0CE822
(1.785000) can0 123#00001392D2000000
(1.786000) can0 2F2#1201
(1.788000) can0 261#52293E02805C028F
(1.791000) can0 1D8#292A81230000A070
(1.793000) can0 788#ACCCB1830000A600
(1.795000) can0 186#E10C0002000D1A25
(1.797000) can0 264#3B000000A000
(1.799000) can0 224#0408004019011008
(1.801000) can0 7AA#09FD06FD06010000
(1.804000) can0 122#00001392D2000000
(1.805000) can0 243#02FC730E03EB0000
(1.808000) can0 2E8#0101000006001002
(1.808000) can0 272#080002D107B00304
(1.809000) can0 23E#00003AC002FF7FBA
(1.810000) can0 4E3#03FD000000002800
(1.810000) can0 545#020002000000E02E
(1.811000) can0 3A1#884C0FCA00140283
(1.813000) can0 39D#2A6EF52700
(1.813000) can0 401#122AC694C594DE94
(1.814000) can0 448#20001010000010
(1.815000) can0 263#020080060D353521
(1.816000) can0 428#20001010000010
(1.816000) can0 3E2#040000710FCF00
(1.817000) can0 21D#0400B50000000000
(1.818000) can0 129#CC2BE45F0120FF3F
(1.819000) can0 1E5#286C04000000007E
(1.819000) can0 2C1#212B0D0A02000000
(1.820000) can0 1D5#290000000000A09F
(1.821000) can0 3C3#0000000000A50000
(1.822000) can0 677#0000000000000000
(1.822000) can0 2E5#00000F320000DD00
(1.824000) can0 132#848E9AFD763B
(1.825000) can0 243#0300000033513100
(1.825000) can0 3F9#0300000000000008
(1.828000) can0 553#000000000000E038
(1.828000) can0 55A#0400000000000000
(1.829000) can0 405#100000000035594A
(1.830000) can0 118#596F950000C87400
(1.830000) can0 201#0148980001000000
(1.831000) can0 7FF#0191494642041601
(1.832000) can0 128#0000EC0A02
(1.833000) can0 234#2EF0022BAD04A037
(1.833000) can0 279#32BBFC01B4056502
(1.834000) can0 395#090F104D1109077D
(1.835000) can0 2E5#00000F320000DD00
(1.836000) can0 54F#0000000000000000
(1.839000) can0 129#BE2DE45F0120FF3F
(1.839000) can0 1F9#0000000000000000
(1.840000) can0 1D5#290000000000E0DF
(1.841000) can0 7D5#2B9E5FFE00000000
(1.841000) can0 7D7#3222000000000000
(1.844000) can0 3FD#0000003C20000180
(1.845000) can0 2E5#00000F320000DD00
(1.846000) can0 119#00000000
(1.849000) can0 129#612EE45F0120FF3F
(1.851000) can0 257#C159605402283001
(1.853000) can0 39D#2B6FF52700
(1.855000) can0 320#0200000000000000
(1.857000) can0 381#154067324D000001
(1.860000) can0 2C2#555BA90680C112AA
(1.862000) can0 266#2800133313008101
(1.865000) can0 211#BE1A710F1001
(1.867000) can0 3A8#F4E07F0EFF0F0000
(1.867000) can0 2D1#FF01
(1.868000) can0 118#BD63950000C8E400
(1.869000) can0 266#2800133313008101
(1.869000) can0 379#00000948333F2100
(1.874000) can0 2E5#00000F320000DD00
(1.874000) can0 3E8#0400000000000000
(1.875000) can0 22B#FFFFFF03000000E0
(1.876000) can0 3C8#0600000000000000
(1.879000) can0 441#0901B6C358000549
(1.879000) can0 201#0300000000000000
(1.881000) can0 266#2800133313008101
(1.882000) can0 7AA#0A8A068A06005500
(1.884000) can0 2E5#00000F320000DD00
(1.884000) can0 2D2#EE2EAC4E850CE822
(1.885000) can0 123#01000000003F0000
(1.886000) can0 712#0300000000000000
(1.886000) can0 31A#200100000000F02E
(1.887000) can0 360#0500040000000000
(1.888000) can0 118#3065950000C85401
(1.889000) can0 1D8#291C41220000E061
(1.889000) can0 257#C35B605402283001
(1.890000) can0 25B#D38000056A86F093
(1.891000) can0 2E1#026D66021DBB0000
(1.892000) can0 227#7804270054000081
(1.893000) can0 709#150800000B000000
(1.894000) can0 195#400000000A002706
(1.895000) can0 204#010000FF00000010
(1.895000) can0 3FD#01000A0000080280
(1.897000) can0 102#22B3880494FAA009
(1.898000) can0 393#0380610000000000
(1.899000) can0 1D8#291A41220000007F
(1.900000) can0 288#0106184C0060E136
(1.900000) can0 266#2800133312008101
(1.901000) can0 281#2900FF1F0001
(1.904000) can0 2E5#00000F320000DD00
(1.904000) can0 39A#1C1BEB6AEBEEB27E
(1.905000) can0 45A#A4C4C4C05F2F5137
(1.908000) can0 2E8#0101000006002012
(1.909000) can0 272#0380610000000000
(1.910000) can0 257#C45C605402283001
(1.911000) can0 3AE#FE3F0008000071B7
(1.913000) can0 719#1700000000000000
(1.913000) can0 401#172ACC94D694D594
(1.914000) can0 448#20001010000010
(1.915000) can0 343#009268DE94000000
(1.915000) can0 282#9474D20920540324
(1.916000) can0 40A#091000000000B0D7
(1.917000) can0 682#000000400411D005
(1.918000) can0 21D#0400B50000000000
(1.918000) can0 1D8#291801220000407D
(1.919000) can0 2C1#212B0D0A02000000
(1.920000) can0 1D5#290000000000E0DF
(1.921000) can0 3C3#5555550100000000
(1.922000) can0 1F8#1A000000
(1.923000) can0 340#0200000000000000
(1.926000) can0 243#0300000033513100
(1.928000) can0 553#000000000000F048
(1.928000) can0 318#1A06330B102835E6
(1.929000) can0 1D8#291681210000601A
(1.930000) can0 1E5#286C0400000060DE
(1.930000) can0 266#2600123312008101
(1.931000) can0 257#C55D605402283001
(1.932000) can0 39D#1D61F52700
(1.933000) can0 234#2FF0022BAD04C058
(1.933000) can0 261#052285C99A4290D7
(1.934000) can0 132#958EC0FDBA3B
(1.936000) can0 372#0800000000000000
(1.936000) can0 401#182AE094AF94B694
(1.939000) can0 129#9427E55F0120FF3F
(1.939000) can0 2C1#0219060000D0020A
(1.940000) can0 118#A46A950000C8C400
(1.941000) can0 423#00001000000000
(1.941000) can0 7D5#2C3E3F0000000000
(1.942000) can0 545#20065D0098752903
(1.943000) can0 132#928EC7FDCD3B
(1.946000) can0 3FD#0200000000000090
(1.947000) can0 2C3#0000C04B010040CB
(1.948000) can0 118#F66B950000C81401
(1.949000) can0 1E5#286C04000000209E
(1.950000) can0 1D5#290000000000403F
(1.951000) can0 422#700010000000
(1.954000) can0 2E5#00000F320000DD00
(1.956000) can0 263#0400000070140000
(1.956000) can0 3F5#0000C838830C0000
(1.957000) can0 2C2#2040C04B010080CB
(1.958000) can0 129#CE29E55F0220FF3F
(1.958000) can0 1D8#291081200000C073
(1.959000) can0 2C1#3304900000000000
(1.960000) can0 1D5#290000000000605F
(1.961000) can0 225#5555FA00
(1.964000) can0 211#BF1B710F1001
(1.966000) can0 243#00FCCF0C97440D29
(1.966000) can0 2E2#F713504001000000
(1.967000) can0 2D1#FF01
(1.968000) can0 129#112AE55F0220FF3F
(1.969000) can0 23E#00003AC002FFBFFA
(1.970000) can0 1D5#290000000000807F
(1.971000) can0 2E1#398D2AFF0F000000
(1.974000) can0 39D#1E62F52700
(1.974000) can0 3E8#0500000000000000
(1.975000) can0 545#010000000010308B
(1.978000) can0 139#00
(1.978000) can0 249#5E090000
(1.979000) can0 103#22B38804A2EE2032
(1.980000) can0 118#E96E950000C80401
(1.980000) can0 266#2500123212008001
(1.981000) can0 3AE#004000080000A1EA
(1.982000) can0 443#7409FF030000
(1.983000) can0 718#04000000000000
(1.983000) can0 132#A68ECFFDE03B
(1.985000) can0 2D2#ED2EAC4E8F0CE822
(1.986000) can0 292#55BAC86596010000
(1.986000) can0 70B#0200C80064DA3C00
(1.987000) can0 2E1#026D66021DBB0000
(1.988000) can0 129#802CE55F0220FF3F
(1.988000) can0 1D8#290A01200000204D
(1.989000) can0 266#2600123212008001
(1.990000) can0 1D5#290000000000C0BF
(1.991000) can0 359#D43F00000E000012
(1.991000) can0 247#500EFF1400BE0200
(1.994000) can0 2E5#00000F320000DD00
(1.994000) can0 204#010000FF00000010
(1.995000) can0 27A#C4BE0C01B4056202
(1.996000) can0 2B3#62550000001E3C00
(1.997000) can0 372#0900000000F83F00
(1.998000) can0 228#0106184C0060D1C6
(1.999000) can0 1E5#286C0400000040BE
(2.000000) can0 288#0106184C0060F146
(2.000000) can0 266#2500123212008001
(2.001000) can0 122#00001392D2000000
(2.003000) can0 2E5#00000F320000DD00
(2.007000) can0 757#3200000000000000
(2.009000) can0 2A8#01010000060010C2
(2.011000) can0 118#AB61950000C8D400
(2.013000) can0 3A1#884C0FCA001042BF
(2.015000) can0 401#1C2AAE94B794A994
(2.017000) can0 428#20001010000010
(2.020000) can0 21D#0400B50000000000
(2.023000) can0 1D5#290000000000201F
(2.025000) can0 243#0300000033513100
(2.027000) can0 3F9#0500000000000000
(2.029000) can0 441#32858900320010EB
(2.031000) can0 118#4D63950000C87400
(2.033000) can0 126#43A0306CA6
(2.035000) can0 395#090F114D1009087D
(2.037000) can0 7AA#0C00000000000039
(2.039000) can0 129#9621E55F0120FF3F
(2.040000) can0 118#6E64950000C89400
(2.041000) can0 7D5#2BA45FFE00000000
(2.041000) can0 7D5#3200000000000000
(2.044000) can0 2E5#00000F320000DD00
(2.046000) can0 2C3#555BA9B682C112AA
(2.049000) can0 39B#0310DF80B08870B8
(2.051000) can0 266#2300123312008201
(2.053000) can0 39D#2064F52700
(2.055000) can0 320#0300000000000000
(2.057000) can0 38B#FEFE6F0F31002603
(2.059000) can0 2C2#555BA90680C112AA
(2.061000) can0 2C1#3304900000000000
(2.063000) can0 211#C01C710F1001
(2.066000) can0 243#00FCCF0C97440D29
(2.066000) can0 3A8#00FF000000000000
(2.067000) can0 2D1#FF01
(2.068000) can0 129#E324E55F0020FF3F
(2.068000) can0 1D8#29F8801E000020B8
(2.069000) can0 266#2300123212008201
(2.071000) can0 1D5#290000000000C0BF
(2.071000) can0 3A2#0110200000000000
(2.074000) can0 2E5#00000F320000DD00
(2.074000) can0 3E8#0600000000000000
(2.075000) can0 261#52293E02805C22AF
(2.078000) can0 139#00
(2.078000) can0 405#113345374542334B
(2.079000) can0 249#280B0000
(2.080000) can0 1E5#286C0400000040BE
(2.080000) can0 22A#0000E916
(2.081000) can0 1D5#290000000000E0DF
(2.082000) can0 2BF#00000000000001
(2.082000) can0 6A1#0000000000
(2.083000) can0 132#B18EF5FD223C
(2.084000) can0 37A#C20C000025000026
(2.085000) can0 123#01000000003F0000
(2.086000) can0 2F2#1201
(2.087000) can0 712#0500000000000000
(2.088000) can0 129#2E26E55F0020FF3F
(2.088000) can0 23E#00003AC002FFEF2A
(2.089000) can0 1E5#286C0400000060DE
(2.090000) can0 1D5#29000000000000FF
(2.091000) can0 359#5500000000000000
(2.091000) can0 25B#D38000056A8610B3
(2.092000) can0 227#7D04280054000081
(2.093000) can0 2E5#00000F320000DD00
(2.094000) can0 286#FFFFFFFF31
(2.094000) can0 204#010000FF00000010
(2.095000) can0 27A#B4BFFC00B4056202
(2.097000) can0 2B4#3005460E5401
(2.097000) can0 401#2000000000000000
(2.098000) can0 228#0106184C0060E1D6
(2.099000) can0 1E5#286C04000000007E
(2.099000) can0 288#0106184C00600156
(2.100000) can0 266#2100113211008201
(2.103000) can0 122#01000000003F0000
(2.105000) can0 757#2C3F3E0000000000
(2.107000) can0 2E8#0101000006004032
(2.109000) can0 381#C104000C95949640
(2.111000) can0 257#D666605402303001
(2.113000) can0 43B#007F00FF00000000
(2.115000) can0 132#C08E11FE4F3C
(2.118000) can0 2B3#04A4C8942A5B1F00
(2.120000) can0 1D8#29EC801C0000C04A
(2.120000) can0 1D5#290000000000605F
(2.121000) can0 3C3#5555550100000000
(2.122000) can0 1F8#1A000000
(2.123000) can0 2E5#00000F320000DD00
(2.123000) can0 261#052285C99A425097
(2.126000) can0 243#0300000033513100
(2.128000) can0 553#0000000000001068
(2.128000) can0 318#1A06330B102839EA
(2.129000) can0 1D8#29EC401C0000E02A
(2.130000) can0 201#0148980001000000
(2.130000) can0 1E5#286C0400000060DE
(2.131000) can0 22B#FFFFFF03000000F8
(2.132000) can0 39D#2266F52700
(2.133000) can0 1D6#420800004A498308
(2.134000) can0 279#35BEFC01B4056502
(2.135000) can0 383#BD181600C7B32947
(2.136000) can0 401#2200000000000000
(2.136000) can0 54F#0000000000000000
(2.137000) can0 3A2#602573A81C804175
(2.138000) can0 129#952BE55F0020FF3F
(2.139000) can0 1E5#286C04000000007E
(2.139000) can0 2C1#0219060000D0020A
(2.140000) can0 1D5#290000000000A09F
(2.141000) can0 677#0300000000000000
(2.142000) can0 7D5#3200000000000000
(2.142000) can0 2E5#00000F320000DD00
(2.143000) can0 132#C78E1EFE603C
(2.145000) can0 552#00000000000090E7
(2.145000) can0 2F1#0702000000E00000
(2.146000) can0 119#00000000
(2.147000) can0 2E1#1021040010000004
(2.148000) can0 129#F52CE55F0020FF3F
(2.148000) can0 7E8#1303000000000000
(2.149000) can0 1E5#286C04000000209E
(2.150000) can0 1D5#290000000000C0BF
(2.151000) can0 743#22
(2.153000) can0 2E5#00000F320000DD00
(2.153000) can0 401#2300000000000000
(2.154000) can0 201#0200000000000000
(2.155000) can0 263#0400000070140000
(2.155000) can0 45A#FD07F8FF0300A000
(2.158000) can0 3F5#0000C838830C0000
(2.159000) can0 1D8#29E6801B000040C3
(2.160000) can0 266#2000113211008001
(2.161000) can0 225#5555FA00
(2.163000) can0 211#C11D710F1001
(2.163000) can0 2E1#398D2AFF0F000000
(2.166000) can0 243#00FCCF0C97440D29
(2.166000) can0 2E2#10000018030B0000
(2.167000) can0 2D1#FF01
(2.168000) can0 129#A62EE65F0120FF3F
(2.168000) can0 1D8#29E4801B000060E1
(2.169000) can0 1E5#286C0400000060DE
(2.170000) can0 1D5#29000000000000FF
(2.171000) can0 261#52293E02805C820F
(2.173000) can0 39D#4467152800
(2.173000) can0 372#0C0000FF0F000000
(2.175000) can0 3E8#0000000000000000
(2.178000) can0 139#00
(2.178000) can0 249#130D0000
(2.179000) can0 103#22B38804A2EE2032
(2.180000) can0 118#4C62950000C87400
(2.180000) can0 22B#FFFFFF03000000FC
(2.181000) can0 234#2BE1038043001481
(2.182000) can0 677#0400000000000000
(2.183000) can0 737#03000000E0F080
(2.183000) can0 2AA#573033
(2.186000) can0 123#00001392D2000000
(2.188000) can0 261#E34B0A0000409503
(2.188000) can0 1D8#29E2401B0000A0DF
(2.189000) can0 266#2000113111008001
(2.191000) can0 1D5#290000000000403F
(2.191000) can0 788#01000000FFA19812
(2.192000) can0 247#550EFF1400C30200
(2.193000) can0 2E5#00000F320000DD00
(2.194000) can0 3DF#0000C00002D0001B
(2.194000) can0 195#400000000A002706
(2.195000) can0 264#3D000000A000
(2.196000) can0 263#49FED1A7A72F5F1F
(2.196000) can0 2C4#020001D200000000
(2.197000) can0 363#1405010400000000
(2.198000) can0 129#D021E65F0320FF3F
(2.199000) can0 1E5#286C0400000040BE
(2.199000) can0 118#4E64950000C87400
(2.200000) can0 1D5#290000000000605F
(2.202000) can0 281#2A00FF1F0001
(2.202000) can0 2E5#00000F320000DD00
(2.203000) can0 132#C18E1EFE733C
(2.204000) can0 709#1600000000000000
(2.205000) can0 757#3200000000000000
(2.205000) can0 45A#A4C4C4C05F2F5136
(2.206000) can0 2E8#0101000006005042
(2.207000) can0 6A2#0000000000
(2.208000) can0 129#9922E65F0320FF3F
(2.208000) can0 1D8#29E0001B0000E0DD
(2.209000) can0 1E5#286C0400000060DE
(2.210000) can0 272#080002D107B00304
(2.213000) can0 2E1#0400000000202000
(2.213000) can0 3AA#0000000000000000
(2.215000) can0 448#20001010000010
(2.216000) can0 381#0400000000000000
(2.216000) can0 428#20001010000010
(2.217000) can0 3E2#040000610FCF00
(2.218000) can0 682#0000004004110035
(2.218000) can0 20E#100000
(2.219000) can0 261#052285C99A42B0F7
(2.220000) can0 118#A066950000C8C400
(2.221000) can0 400#00E0FBBEEFFB00
(2.221000) can0 3E3#04000000
(2.222000) can0 1F8#1A000000
(2.223000) can0 340#0500000000000000
(2.226000) can0 243#0300000033513100
(2.228000) can0 553#0000000000002078
(2.228000) can0 318#1A06330B10283BEC
(2.230000) can0 1D8#29DC801A00002098
(2.231000) can0 108#C9EF067A030F1A25
(2.231000) can0 257#E46C60540A303001
(2.232000) can0 1D6#420800004A498308
(2.233000) can0 289#D01209C4A5003D8F
(2.234000) can0 395#090F104D1109077D
(2.234000) can0 339#02F1FE008007800F
(2.235000) can0 397#0300807E1C140000
(2.236000) can0 263#0300000000000000
(2.236000) can0 4E2#0600000000000000
(2.239000) can0 129#D925E75F0420FF3F
(2.239000) can0 545#D0055D20987BB968
(2.240000) can0 1D5#290000000000E0DF
(2.241000) can0 7D5#2C3E3F0000000000
(2.244000) can0 2E5#00000F320000DD00
(2.246000) can0 2C3#555BA9B682C112AA
(2.248000) can0 119#00000000
(2.250000) can0 23E#00003AC002FF2F6A
(2.252000) can0 422#700010000000
(2.258000) can0 2E5#00000F320000DD00
(2.263000) can0 1D5#290000000000201F
(2.265000) can0 243#00FCCF0C97440D29
(2.267000) can0 3A8#0102000700020100
(2.269000) can0 2D1#FF01
(2.271000) can0 3A2#0110200000000000
(2.273000) can0 545#010000000010C01B
(2.275000) can0 1FA#1AC001
(2.278000) can0 3C8#0300000000000000
(2.279000) can0 1E5#286C0400000040BE
(2.280000) can0 22A#0000E916
(2.281000) can0 234#2BE10380430034A1
(2.284000) can0 2EC#5770B5
(2.284000) can0 2D2#ED2EAE4E8D0CE822
(2.285000) can0 123#01000000003F0000
(2.286000) can0 2F2#1201
(2.288000) can0 31A#200100000000104E
(2.288000) can0 23E#00003AC002FF3F7A
(2.289000) can0 1E5#286C0400000060DE
(2.290000) can0 1D5#290000000000807F
(2.290000) can0 359#5700000000000000
(2.291000) can0 25B#D38000056A8630D3
(2.292000) can0 39D#476A152800
(2.293000) can0 2E5#00000F320000DD00
(2.293000) can0 3B3#8C8004300100A800
(2.295000) can0 253#0164A6C66490B505
(2.296000) can0 263#49FED1A7A72F5F1F
(2.296000) can0 2B4#31054C0E5E01
(2.297000) can0 224#0408004019011008
(2.298000) can0 129#FF2BE75F0120FF3F
(2.299000) can0 1E5#286C04000000007E
(2.299000) can0 288#0106184C00602176
(2.300000) can0 266#1D00113111008201
(2.301000) can0 281#2A00FF1F0001
(2.304000) can0 3A2#B2ACFFFF03000000
(2.304000) can0 39A#181BEB66EFEEB27E
(2.305000) can0 45A#A4C4C4C05F2F5136
(2.308000) can0 2E8#0101000006006052
(2.308000) can0 1D8#29D440190000204F
(2.310000) can0 1E5#286C04000000209E
(2.313000) can0 3A1#884C0FCA0010A21F
(2.315000) can0 448#20001010000010
(2.315000) can0 263#020080060D353521
(2.316000) can0 78A#01000300AE048902
(2.317000) can0 3C2#0055555500006A05
(2.317000) can0 682#0000004004111045
(2.318000) can0 75D#8000000000000000
(2.319000) can0 21D#0400B50000000000
(2.320000) can0 118#7A60950000C8A400
(2.320000) can0 2F9#BCFB072000000000
(2.321000) can0 3C3#5555550100000000
(2.322000) can0 1F8#1A000000
(2.323000) can0 2E5#00000F320000DD00
(2.324000) can0 2E1#658008004336316A
(2.325000) can0 3AE#014000080000418B
(2.326000) can0 3F9#0800000000000000
(2.328000) can0 553#0000000000003088
(2.328000) can0 229#F60A00
(2.329000) can0 1D8#29D200190000604D
(2.330000) can0 1E5#286C0400000060DE
(2.330000) can0 318#1A06340B10283DEF
(2.331000) can0 108#6B90067203181A25
(2.332000) can0 55A#0100000000000000
(2.333000) can0 666#0000C800
(2.333000) can0 1D6#420800004A498308
(2.334000) can0 234#2FF0022BAD0440D8
(2.335000) can0 268#63119001E5
(2.336000) can0 2B6#000300
(2.337000) can0 241#3632CC0E8F5500
(2.338000) can0 263#0300000000000000
(2.338000) can0 129#672FE75FFF1FFF3F
(2.339000) can0 1E5#286C04000000007E
(2.340000) can0 1F9#0000000000000000
(2.341000) can0 266#1E00113111008301
(2.341000) can0 7AA#23DAF72C0610001C
(2.342000) can0 7D5#3200000000000000
(2.343000) can0 132#DC8E35FEA63C
(2.344000) can0 04F#40059A33734C150A
(2.344000) can0 3FD#0000003C20000180
(2.346000) can0 243#04FC33ECED7AFFFF
(2.347000) can0 261#31401D007F493A86
(2.348000) can0 129#EB20E75F0020FF3F
(2.349000) can0 118#9C63950000C8C4FF
(2.350000) can0 422#700010000000
(2.353000) can0 2E5#00000F320000DD00
(2.353000) can0 439#0000000000185A04
(2.354000) can0 201#0200000000000000
(2.355000) can0 263#0400000070140000
(2.356000) can0 45A#FD07F8FF0300A000
(2.356000) can0 3F5#0000C838830C0000
(2.357000) can0 2C2#2040C04B010080CB
(2.358000) can0 129#FC21E75F0020FF3F
(2.358000) can0 1E5#286C0400000040BE
(2.359000) can0 381#0800000000000000
(2.360000) can0 3AE#014000080000519B
(2.361000) can0 225#5555FA00
(2.362000) can0 207#0000000000000000
(2.363000) can0 132#DC8E3EFEBF3C
(2.364000) can0 3DB#0A34192019000000
(2.367000) can0 243#00FCCF0C97440D29
(2.369000) can0 129#B522E75F0020FF3F
(2.369000) can0 1E5#286C0400000060DE
(2.370000) can0 1D5#290000000000807F
(2.371000) can0 2E1#026D66021DBA0000
(2.374000) can0 39D#286CF52700
(2.374000) can0 3E8#0200000000000000
(2.377000) can0 3C8#0400000000000000
(2.379000) can0 129#A223E75F0020FF3F
(2.379000) can0 201#0300000000000000
(2.380000) can0 261#E34B0A00004055C3
(2.382000) can0 266#1D00113111008301
(2.382000) can0 718#01000000000000
(2.383000) can0 132#E18E45FEBD3C
(2.386000) can0 2D2#ED2EAE4E860CE822
(2.386000) can0 287#32343032D9020000
(2.387000) can0 2E1#FB1F7D2996730900
(2.388000) can0 129#2424E75F0020FF3F
(2.388000) can0 118#B067950000C8D4FF
(2.389000) can0 257#EC74605402383001
(2.390000) can0 7A8#B0CCB18300008200
(2.391000) can0 3A3#16D00000380DFC01
(2.391000) can0 788#ACCCB1830000A600
(2.392000) can0 302#0D16389367000000
(2.393000) can0 273#81E13000C8021011
(2.395000) can0 3FD#01000A0000080280
(2.397000) can0 132#DA8E49FECF3C
(2.398000) can0 396#091E1E4C4141127D
(2.399000) can0 1E5#286C0400000040BE
(2.400000) can0 288#0106184C00603186
(2.400000) can0 1D5#290000000000E0DF
(2.401000) can0 3AE#01400008000061AB
(2.404000) can0 2E5#00000F320000DD00
(2.404000) can0 376#014B4B0050000000
(2.405000) can0 243#02FC630E03EB0000
(2.406000) can0 376#04FFFFFFFF4B4A4B
(2.406000) can0 2E8#0101000006007062
(2.407000) can0 656#1232A63551A0A09F
(2.408000) can0 356#0000000000000000
(2.410000) can0 23E#00003AC002FF6FAA
(2.410000) can0 1D5#29000000000000FF
(2.411000) can0 4E3#0200000000002800
(2.412000) can0 3A1#884C0FCA0010C23F
(2.412000) can0 719#161A002779010000
(2.413000) can0 78A#01000400E7069F00
(2.414000) can0 448#20001010000010
(2.415000) can0 343#009270EE94000000
(2.415000) can0 409#00
(2.416000) can0 428#20001010000010
(2.417000) can0 41D#00
(2.417000) can0 682#0000004004112055
(2.418000) can0 1D8#29D04018000080AA
(2.419000) can0 2F9#BCFB072800000000
(2.421000) can0 118#C36A950000C8E4FF
(2.421000) can0 400#00E0FBBEEFFB00
(2.422000) can0 1F8#1A000000
(2.423000) can0 2E5#00000F320000DD00
(2.426000) can0 243#0300000033513100
(2.428000) can0 553#0000000000004098
(2.428000) can0 229#8C0B00
(2.432000) can0 201#0148980001000000
(2.434000) can0 279#2CB1FC01B8056502
(2.436000) can0 339#02F1FE008007800F
(2.438000) can0 2E1#1021040010000004
(2.440000) can0 1D8#29CE80180000C028
(2.442000) can0 266#1D00113111008201
(2.444000) can0 2D3#CE004F02331F3250
(2.444000) can0 3FD#0200000000000090
(2.449000) can0 2C3#555BA9B682C112AA
(2.451000) can0 1E5#286C0400000060DE
(2.453000) can0 2E1#398D2AFF0F000000
(2.455000) can0 320#0000000000000000
(2.457000) can0 3AE#01400008000080CA
(2.459000) can0 2C2#555BA90680C112AA
(2.461000) can0 2C1#3304900000000000
(2.464000) can0 207#0000000000000000
(2.465000) can0 243#00FCCF0C97440D29
(2.468000) can0 3A8#2A80E1F51F00FFDF
(2.470000) can0 1D8#29CE401800002048
(2.472000) can0 304#0000000000000000
(2.474000) can0 2E5#00000F320000DD00
(2.476000) can0 3E8#0300000000000000
(2.479000) can0 139#00
(2.481000) can0 201#0300000000000000
(2.483000) can0 3F6#00050000B6340001
(2.486000) can0 123#01000000003F0000
(2.486000) can0 252#5F30307800FC0F00
(2.487000) can0 2F2#1201
(2.488000) can0 360#0000000000000000
(2.488000) can0 42E#00E0BFFFFEEFBFFF
(2.489000) can0 118#4B61950000C87400
(2.490000) can0 257#F179605402383001
(2.491000) can0 7A8#01000000FFA19812
(2.491000) can0 3A3#1AD00000380DFC01
(2.492000) can0 39D#4C6F152800
(2.493000) can0 227#8804290054000081
(2.494000) can0 132#E68E4DFEDA3C
(2.495000) can0 27A#ACB3FC00B8056202
(2.496000) can0 238#8831F61C3E00185B
(2.497000) can0 2C4#2522420800000020
(2.497000) can0 401#022AD894E094E194
(2.498000) can0 228#0106184C00602116
(2.499000) can0 1E5#286C04000000007E
(2.500000) can0 288#0106184C00604196
(2.500000) can0 266#1D00113110008201
(2.501000) can0 3AE#024000080000A0EB
(2.506000) can0 2E5#00000F320000DD00
(2.508000) can0 2E8#0101000006008072
(2.510000) can0 1D8#29CC40180000A0C6
(2.512000) can0 3A1#884C0FCA0010E25F
(2.515000) can0 719#0003140F14050E00
(2.517000) can0 2E1#658008004436316A
(2.519000) can0 21D#0400B50000000000
(2.521000) can0 2F9#BCFB07030D1A8B84
(2.524000) can0 1F8#1A000000
(2.527000) can0 3F9#0100000000000000
(2.529000) can0 129#1822E75F0120FF3F
(2.529000) can0 458#00002000000000
(2.530000) can0 7FF#0800000100000000
(2.531000) can0 108#FB52062A032E1A25
(2.531000) can0 126#34103114B0
(2.532000) can0 1D6#420800004A498308
(2.533000) can0 420#2801404B00000005
(2.534000) can0 2E1#1021040010000004
(2.534000) can0 339#02F1FE008007800F
(2.536000) can0 241#36320C0F8F5500
(2.537000) can0 54F#0000000000000000
(2.537000) can0 4E2#025D040000002800
(2.538000) can0 1D8#29CA401800000024
(2.539000) can0 423#00001000000000
(2.540000) can0 381#0D00000000000000
(2.540000) can0 1F9#0000000000000000
(2.541000) can0 677#0300000000000000
(2.542000) can0 315#0200041700000000
(2.543000) can0 315#632BD0264000B004
(2.543000) can0 315#04673D72024B4A53
(2.544000) can0 1BB#02
(2.545000) can0 7D7#321F000000000000
(2.546000) can0 221#605555155451F1D8
(2.547000) can0 5D7#506E0A0002
(2.548000) can0 3B5#0000000000000000
(2.549000) can0 3E5#0000000000000000
(2.549000) can0 118#4167950000C86400
(2.550000) can0 36B#0000000000000000
(2.551000) can0 36E#0000000000000000
(2.551000) can0 7D5#43A1AC937E3F0000
(2.552000) can0 7D5#485F65000080575C
(2.553000) can0 132#F78E54FEE63C
(2.554000) can0 201#0200000000000000
(2.557000) can0 263#0400000070140000
(2.557000) can0 2C2#2040C04B010080CB
(2.558000) can0 238#8831F61C3E00286B
(2.559000) can0 1E5#286C0400000040BE
(2.560000) can0 118#E268950000C80400
(2.561000) can0 225#5555FA00
(2.564000) can0 211#B511710F1001
(2.566000) can0 243#00FCCF0C97440D29
(2.566000) can0 2E2#E211294949490900
(2.567000) can0 2D1#FF01
(2.568000) can0 129#6326E85F0220FF3F
(2.568000) can0 1D8#29CAC01700006003
(2.569000) can0 1E5#286C0400000060DE
(2.570000) can0 1D5#29000000000000FF
(2.571000) can0 261#E34B0A0000401583
(2.573000) can0 39D#3E61152800
(2.573000) can0 372#0263803D7039FC60
(2.576000) can0 3E8#0400000000000000
(2.576000) can0 139#00
(2.578000) can0 441#FE00B6C358003D75
(2.579000) can0 421#021A0000002000
(2.579000) can0 1D8#29CAC01700008023
(2.580000) can0 201#0300000000000000
(2.581000) can0 266#1C00103110008301
(2.582000) can0 2C1#0400000000000000
(2.582000) can0 677#0400000000000000
(2.583000) can0 2E5#00000F320000DD00
(2.584000) can0 37A#CBE0010000000000
(2.585000) can0 212#5904000081FF7731
(2.585000) can0 243#01FC365136005A5A
(2.586000) can0 22B#FFFFFF03000000FE
(2.587000) can0 392#000B000000000000
(2.588000) can0 360#0100000000000000
(2.589000) can0 20A#F61509821801
(2.590000) can0 1D5#290000000000403F
(2.591000) can0 359#5B00000000000000
(2.591000) can0 788#0240CD0700030000
(2.594000) can0 2E5#00000F320000DD00
(2.594000) can0 204#010000FF00000010
(2.595000) can0 373#06AB3FAE52E3101F
(2.596000) can0 264#39000000A000
(2.596000) can0 27A#BEB40C01B8056202
(2.597000) can0 2C4#0625A38CCA181600
(2.598000) can0 224#0408004019011008
(2.599000) can0 393#080000C107B00304
(2.599000) can0 228#0106184C00603126
(2.600000) can0 2C1#50407E00008A0200
(2.602000) can0 1D5#290000000000605F
(2.602000) can0 554#D08403051ED000
(2.603000) can0 386#0000000000000000
(2.604000) can0 132#F18E50FED03C
(2.605000) can0 757#2C3F3E0000000000
(2.605000) can0 380#0000000000000000
(2.606000) can0 45A#A4C4C4C05F2F5136
(2.607000) can0 6A2#0000000000
(2.608000) can0 129#292AE85F0220FF3F
(2.608000) can0 1D8#29CAC0170000E083
(2.609000) can0 23E#00003AC002FFBFFA
(2.610000) can0 272#080002D107B00304
(2.613000) can0 2E1#658008004436316A
(2.613000) can0 132#ED8E4EFED03C
(2.615000) can0 448#20001010000010
(2.615000) can0 282#9C74D20924540324
(2.616000) can0 409#00
(2.617000) can0 419#00
(2.618000) can0 41D#00
(2.618000) can0 682#0000004004114075
(2.619000) can0 1E5#286C04000000007E
(2.620000) can0 2F9#BCFB070800000000
(2.620000) can0 266#1C00113110008301
(2.621000) can0 3C3#0000000000A50000
(2.624000) can0 1F8#1A000000
(2.626000) can0 243#0300000033513100
(2.628000) can0 553#00000000000060B8
(2.628000) can0 229#2F0D00
(2.629000) can0 1D8#29CA001800002004
(2.630000) can0 7FF#09EF000010000000
(2.631000) can0 266#1C00113110008301
(2.632000) can0 234#2FF0022BAD04A038
(2.633000) can0 289#D01209449D003D8F
(2.633000) can0 3A2#602573A404804175
(2.634000) can0 339#02F1FE008007800F
(2.635000) can0 397#0300007F1C160000
(2.636000) can0 263#0300000000000000
(2.636000) can0 545#70066230987979DC
(2.639000) can0 129#DF2DE85F0020FF3F
(2.639000) can0 1F9#0000000000000000
(2.640000) can0 1D5#290000000000E0DF
(2.641000) can0 7D5#2C3E3F0000000000
(2.644000) can0 2D3#CE004F02331F3250
(2.644000) can0 285#02A800000000B200
(2.647000) can0 243#04FC33ECED7AFFFF
(2.649000) can0 7AA#0754FE50FE35FD48
(2.651000) can0 266#1C00113110008301
(2.653000) can0 39D#4063152800
(2.655000) can0 320#0100000800000000
(2.657000) can0 2B3#2D03A09416726319
(2.659000) can0 2C2#555BA90680C112AA
(2.661000) can0 2C1#3304900000000000
(2.663000) can0 211#B612710F1001
(2.666000) can0 243#00FCCF0C97440D29
(2.666000) can0 3A8#0300000000000000
(2.667000) can0 261#E34B0A00004075E3
(2.668000) can0 129#B920E85F0120FF3F
(2.668000) can0 266#1D00113110008301
(2.670000) can0 257#E26260540A383001
(2.673000) can0 2E5#00000F320000DD00
(2.673000) can0 401#0B2ADA94E394DC94
(2.676000) can0 3E8#0500000000000000
(2.676000) can0 2D7#6CC94107
(2.677000) can0 441#FC00B6C35800053B
(2.678000) can0 129#AE21E85F0120FF3F
(2.678000) can0 1D8#29D000180000C0AA
(2.679000) can0 201#0300000000000000
(2.680000) can0 1D5#290000000000605F
(2.681000) can0 242#55558600
(2.683000) can0 2EC#57B0F5
(2.683000) can0 132#F28E49FEC63C
(2.684000) can0 381#1100000000000000
(2.685000) can0 292#55BAC86596010000
(2.686000) can0 712#012A9E0C760C250C
(2.689000) can0 360#0200000000000000
(2.689000) can0 266#1D00113111008301
(2.690000) can0 25B#D38000056A867013
(2.691000) can0 2E1#0400000000202000
(2.691000) can0 788#ACCCB1830000A600
(2.694000) can0 2E5#00000F320000DD00
(2.694000) can0 293#020C55905514EFE0
(2.695000) can0 3AE#034000080000004C
(2.696000) can0 264#3B000000A000
(2.696000) can0 27A#BFB50C01B8056202
(2.697000) can0 224#0408004019011008
(2.698000) can0 393#0380610000000000
(2.699000) can0 129#F023E85F0120FF3F
(2.700000) can0 266#1D00113111008301
(2.701000) can0 2C1#50407E00008A0200
(2.702000) can0 122#01000000003F0000
(2.702000) can0 677#0200000000000000
(2.703000) can0 132#E58E43FEB73C
(2.704000) can0 201#00334F000080FF00
(2.705000) can0 243#02FC6B0E03EB0000
(2.708000) can0 2E8#010100000600A092
(2.708000) can0 1D8#29D280180000208C
(2.709000) can0 1E5#286C04000000209E
(2.710000) can0 257#E46460540A383001
(2.713000) can0 3A1#884C0FCA0010229F
(2.713000) can0 3AA#0100000000000000
(2.715000) can0 448#20001010000010
(2.716000) can0 282#A474C2091C540324
(2.716000) can0 77A#A104AC5CD05CC45C
(2.717000) can0 682#0000004004115085
(2.718000) can0 25D#3741012A04F08803
(2.719000) can0 1D8#29D48018000040AE
(2.719000) can0 2C1#212B0D0A02000000
(2.720000) can0 1D5#290000000000E0DF
(2.721000) can0 419#00
(2.721000) can0 75D#5246AE000000B04A
(2.722000) can0 1F8#1A000000
(2.723000) can0 340#0A00002000000000
(2.724000) can0 2E1#1021040010000004
(2.726000) can0 243#0300000033513100
(2.728000) can0 3AE#034000080000115D
(2.729000) can0 318#1A06340B102825D7
(2.730000) can0 1E5#286C0400000060DE
(2.731000) can0 266#1D00113111008301
(2.731000) can0 257#DD6560540A303001
(2.732000) can0 1D6#420800004A498308
(2.733000) can0 279#2FB4FC01B8056502
(2.734000) can0 395#090F104D1109077D
(2.734000) can0 339#02F1FE008007800F
(2.735000) can0 3A2#602573A81C804175
(2.736000) can0 545#20065D009875A983
(2.737000) can0 54F#0000000000000000
(2.737000) can0 4E2#04F6208F20080200
(2.740000) can0 1D8#29D6C01800008030
(2.740000) can0 1F9#0000000000000000
(2.742000) can0 7D5#2C3E3F0000000000
(2.743000) can0 253#0064A6C66490B505
(2.743000) can0 132#EC8E36FE9F3C
(2.744000) can0 285#2445605872000000
(2.745000) can0 243#04FC33ECED7AFFFF
(2.745000) can0 2F1#0D00000000000000
(2.746000) can0 119#00000000
(2.747000) can0 261#52293E02805CC24F
(2.748000) can0 129#A328E85F0220FF3F
(2.748000) can0 118#D46B950000C8F4FF
(2.749000) can0 257#E66660540A383001
(2.750000) can0 1D5#290000000000403F
(2.753000) can0 2E5#00000F320000DD00
(2.754000) can0 401#0F2ACB94E594CB94
(2.759000) can0 3F5#0000C838830C0000
(2.761000) can0 118#166C950000C83400
(2.763000) can0 211#B713710F1001
(2.765000) can0 132#D98E30FE923C
(2.767000) can0 2E2#F713503F01000000
(2.769000) can0 545#010000000010B00B
(2.772000) can0 266#1F00113111008201
(2.773000) can0 3C0#0000000000000000
(2.774000) can0 1FA#1AC001
(2.774000) can0 3E8#0600000000000000
(2.775000) can0 2B3#AF032936E10E1005
(2.778000) can0 139#00
(2.780000) can0 1D8#29DC801900000077
(2.782000) can0 261#3413184B0040E4C4
(2.785000) can0 2EC#57C005
(2.787000) can0 243#01FC365136005A5A
(2.789000) can0 360#0300800000000000
(2.791000) can0 257#F07860540A303001
(2.793000) can0 381#3410C004000000FE
(2.794000) can0 324#60FE3BD09E010000
(2.795000) can0 227#91042A0054000081
(2.796000) can0 102#22B3880494FAA009
(2.796000) can0 221#610555550107407B
(2.797000) can0 2B4#3305490E6401
(2.798000) can0 224#0408004019011008
(2.799000) can0 3A2#B2ACFFFF03000000
(2.799000) can0 1E5#286C0400000040BE
(2.800000) can0 288#0106184C006071C6
(2.801000) can0 266#2000113111008201
(2.802000) can0 7AA#09E606E606010000
(2.803000) can0 132#D48E1FFE7A3C
(2.804000) can0 757#3200000000000000
(2.805000) can0 39A#29FFFDFDFD01000A
(2.807000) can0 2E8#010100000600B0A2
(2.807000) can0 2A8#0101000006009042
(2.808000) can0 1D8#29E0401A0000609C
(2.809000) can0 23E#00003AC002FF0F4A
(2.809000) can0 257#F97960540A383001
(2.810000) can0 4E3#0600000000000000
(2.811000) can0 261#00101200FF4F0066
(2.812000) can0 39D#4467152800
(2.812000) can0 719#0300000000000000
(2.813000) can0 372#0613BB192A431901
(2.815000) can0 448#20001010000010
(2.815000) can0 282#A474C2091C540324
(2.816000) can0 3E2#040000610FCF00
(2.817000) can0 41D#00
(2.818000) can0 682#0000004004116095
(2.818000) can0 20E#160600
(2.819000) can0 2F9#BCFB071800000000
(2.820000) can0 118#AC62950000C8D400
(2.820000) can0 400#00E0FBBEEFFB00
(2.821000) can0 3E3#04000000
(2.824000) can0 1F8#1A000000
(2.826000) can0 243#0300000033513100
(2.828000) can0 553#00000000000080D8
(2.828000) can0 129#1420E85F0020FF3F
(2.829000) can0 1D8#29E4801A0000A020
(2.831000) can0 666#0000C800
(2.831000) can0 266#2000113111008201
(2.832000) can0 1D5#290000000000403F
(2.833000) can0 128#0000EC0A02
(2.833000) can0 234#30F0022CB104E07E
(2.834000) can0 2B6#000300
(2.835000) can0 2E5#00000F320000DD00
(2.836000) can0 383#BD181600C7A3C946
(2.836000) can0 545#D00562D09776D937
(2.837000) can0 263#0300000000000000
(2.838000) can0 54F#0000000000000000
(2.839000) can0 1D8#29E4801A0000C040
(2.839000) can0 2C1#0219060000D0020A
(2.840000) can0 1D5#290000000000605F
(2.842000) can0 7D5#2C3E3F0000000000
(2.842000) can0 2E5#00000F320000DD00
(2.843000) can0 261#52293E02805C22AF
(2.844000) can0 3FD#0000003C20000180
(2.846000) can0 552#0000000000000057
(2.846000) can0 119#00000000
(2.849000) can0 129#2322E85FFF1FFF3F
(2.851000) can0 266#1F00113111008101
(2.853000) can0 39D#4568152800
(2.855000) can0 320#0200000000000000
(2.857000) can0 3F5#0000C838820C0000
(2.859000) can0 2C2#555BA90680C112AA
(2.861000) can0 2C1#3304900000000000
(2.864000) can0 211#B814710F1001
(2.865000) can0 719#140000000000BE00
(2.867000) can0 545#010000000010E03B
(2.867000) can0 2E1#FB1F7E3996750900
(2.868000) can0 1D8#29E8C01A000020E4
(2.869000) can0 1E5#286C04000000209E
(2.870000) can0 379#0A0000000A000C03
(2.874000) can0 2E5#00000F320000DD00
(2.874000) can0 3E8#0000000000000000
(2.875000) can0 261#3413184B00404424
(2.878000) can0 139#00
(2.878000) can0 249#280B0000
(2.879000) can0 103#22B38804A2EE2032
(2.880000) can0 118#4268950000C86400
(2.880000) can0 2BF#00000000000001
(2.881000) can0 6A1#0000000000
(2.883000) can0 2EC#57D015
(2.883000) can0 132#CC8E10FE553C
(2.884000) can0 287#32343032D9020000
(2.885000) can0 252#4330307800FC0F00
(2.885000) can0 292#55BAC86596010000
(2.886000) can0 22B#FFFFFF03000000FF
(2.887000) can0 31A#200100000000407E
(2.888000) can0 129#1626E85F0020FF3F
(2.888000) can0 1D8#29E8401B000060A5
(2.889000) can0 266#2100113111008101
(2.890000) can0 1D5#29000000000000FF
(2.891000) can0 359#5E69414BFC9DF5F5
(2.891000) can0 25B#D38000056A869033
(2.892000) can0 39D#4669152800
(2.893000) can0 186#E107000200121A25
(2.894000) can0 1A5#00101F380D
(2.895000) can0 102#22B3880494FAA009
(2.896000) can0 3FD#01000A0000080280
(2.898000) can0 263#49FED1A7A72F5F1F
(2.898000) can0 3A2#B2ACFFFF03000000
(2.899000) can0 1D8#29E8801B00008005
(2.900000) can0 3AE#04400008000060AD
(2.901000) can0 118#046A950000C82400
(2.901000) can0 288#0106184C006081D6
(2.902000) can0 122#01000000003F0000
(2.903000) can0 2E5#00000F320000DD00
(2.904000) can0 757#2C3F3E0000000000
(2.904000) can0 39A#1C1BEB6AE7EAAA7E
(2.905000) can0 45A#A4C4C4C05F2F5136
(2.907000) can0 2E8#010100000600C0B2
(2.907000) can0 2A8#010100000600A052
(2.908000) can0 1D8#29EA801B0000A027
(2.909000) can0 272#0380610000000000
(2.910000) can0 257#FE7E60540A383001
(2.910000) can0 4E3#00AC010100002800
(2.913000) can0 719#150003AD00000000
(2.913000) can0 401#172AF89401950195
(2.914000) can0 448#20001010000010
(2.915000) can0 343#00926C5E94000000
(2.915000) can0 282#9C74D2091C540324
(2.916000) can0 40A#0910000000000027
(2.917000) can0 682#00000040041170A5
(2.918000) can0 31E#0000000000000000
(2.919000) can0 1D8#29EA801B0000C047
(2.920000) can0 1D5#290000000000605F
(2.921000) can0 3C3#5555550100000000
(2.924000) can0 1F8#1A000000
(2.926000) can0 243#0300000033513100
(2.928000) can0 553#00000000000090E8
(2.928000) can0 229#460000
(2.929000) can0 1D8#29EAC01B0000E0A7
(2.930000) can0 7F4#01
(2.930000) can0 1E5#286C0400000060DE
(2.931000) can0 1D5#290000000000807F
(2.932000) can0 128#0000EC0A02
(2.933000) can0 234#2FF0022BAD040098
(2.933000) can0 2E1#398D2AFF0F000000
(2.935000) can0 2E5#00000F320000DD00
(2.936000) can0 241#3732CC0E8F5500
(2.936000) can0 263#0300000000000000
(2.937000) can0 545#300553C0977209A4
(2.938000) can0 4E2#0600000000000000
(2.938000) can0 1E5#286C04000000007E
(2.939000) can0 2C1#0219060000D0020A
(2.940000) can0 1D5#290000000000A09F
(2.941000) can0 266#2000113111008201
(2.941000) can0 7D5#3200000000000000
(2.944000) can0 2E5#00000F320000DD00
(2.946000) can0 3FD#0200000000000090
(2.947000) can0 2C3#0000C04B010040CB
(2.948000) can0 1D8#29EA801B000020A7
(2.950000) can0 266#2000113111008201
(2.953000) can0 2E5#00000F320000DD00
(2.953000) can0 401#192AE194E094DC94
(2.954000) can0 201#0200000000000000
(2.955000) can0 263#0400000070140000
(2.955000) can0 45A#FD07F8FF0300A000
(2.956000) can0 3F5#0000C838830C0000
(2.959000) can0 2C2#2040C04B010080CB
(2.959000) can0 207#0000000000000000
(2.960000) can0 266#2100113111008201
(2.961000) can0 225#5555FA00
(2.964000) can0 211#B915710F1001
(2.966000) can0 243#00FCCF0C97440D29
(2.966000) can0 2E2#1000001A030B0000
(2.967000) can0 2D1#FF01
(2.968000) can0 129#812EE95F0220FF3F
(2.969000) can0 266#2100113111008201
(2.970000) can0 1D5#29000000000000FF
(2.971000) can0 261#3413184B0040A484
(2.971000) can0 381#1900000000000000
(2.974000) can0 2E5#00000F320000DD00
(2.974000) can0 3E8#0100000000000000
(2.977000) can0 3C8#0300000000000000
(2.979000) can0 129#702FE95F0220FF3F
(2.979000) can0 201#0300000000000000
(2.980000) can0 1D5#290000000000201F
(2.981000) can0 2E1#0400000000202000
(2.981000) can0 443#760BFF030000
(2.982000) can0 718#04000000000000
(2.984000) can0 2E5#00000F320000DD00
(2.984000) can0 212#5904000081FF7731
(2.985000) can0 243#01FC375137005A5A
(2.986000) can0 70B#03E0D8EBEBF3F0E0
(2.987000) can0 261#052284C99A42B0F6
(2.987000) can0 360#0500040000000000
(2.988000) can0 1D8#29EAC01B0000A067
(2.989000) can0 266#2000113111008201
(2.990000) can0 1D5#290000000000403F
(2.990000) can0 7A8#B0CCB18300008200
(2.991000) can0 788#ACCCB1830000A600
(2.994000) can0 2E5#00000F320000DD00
(2.994000) can0 227#95042A0054000081
(2.995000) can0 102#22B3880494FAA009
(2.997000) can0 221#61055555010780BB
(2.997000) can0 372#0900000000F83F00
(2.998000) can0 3A2#C2ACFFFF03000000
(2.999000) can0 545#020002000000206E
(3.000000) can0 228#0106184C00607166
(3.000000) can0 118#6E64950000C89400
(3.001000) can0 7C8#140500470DBD3B00
(3.004000) can0 2E5#00000F320000DD00
(3.005000) can0 39A#25FFFDFDFD01000A
(3.009000) can0 6A2#0000000000
(3.011000) can0 1E5#286C0400000060DE
(3.013000) can0 3A1#884C0FCA001082FF
(3.015000) can0 401#1C2ADB94E394D794
(3.017000) can0 2B3#42550000001E3C00
(3.020000) can0 21D#0400B50000000000
(3.023000) can0 266#2000113111008201
(3.026000) can0 3AE#054000080000B0FE
(3.028000) can0 553#000000000000A0F8
(3.028000) can0 229#440100
(3.029000) can0 1D8#29EAC01B000020E7
(3.030000) can0 7FF#04857EDD5C010100
(3.030000) can0 266#2100113211008201
(3.031000) can0 257#F47460540A383001
(3.032000) can0 1D6#420800004A498308
(3.033000) can0 3A2#6025F3A60480C175
(3.033000) can0 339#02F1FE008007800F
(3.034000) can0 395#090F104D1009077D
(3.035000) can0 241#36320C0F8F5500
(3.036000) can0 263#0300000000000000
(3.039000) can0 129#0B25EA5F0020FF3F
(3.039000) can0 118#5268950000C87400
(3.040000) can0 1D5#290000000000E0DF
(3.041000) can0 7D5#2C3E3F0000000000
(3.041000) can0 7D7#3220000000000000
(3.042000) can0 2E5#00000F320000DD00
(3.043000) can0 2E1#026D66021DB90000
(3.044000) can0 453#00000000
(3.047000) can0 2C3#555BA9B682C112AA
(3.049000) can0 129#E226E95F0020FF3F
(3.051000) can0 266#2100113211008201
(3.053000) can0 261#E34B0A000040F563
(3.055000) can0 320#0300000000000000
(3.058000) can0 45A#FD07F8FF0300A000
(3.060000) can0 1D8#29EAC01B00008047
(3.062000) can0 3AE#054000080000C00E
(3.063000) can0 719#0003140F14070E00
(3.064000) can0 545#010000000010409B
(3.065000) can0 243#00FCCF0C97440D29
(3.067000) can0 3A8#00FF000000000000
(3.067000) can0 2D1#FF01
(3.070000) can0 1D8#29EAC01B0000A067
(3.074000) can0 2E5#00000F320000DD00
(3.074000) can0 3E8#0200000000000000
(3.075000) can0 2B3#033737280A00003C
(3.078000) can0 139#00
(3.078000) can0 414#1233585646544756
(3.080000) can0 1D8#29EAC01B0000C087
(3.080000) can0 118#366C950000C85400
(3.081000) can0 2BF#00000000000001
(3.082000) can0 234#2BE10380430034A1
(3.083000) can0 6A1#0000000000
(3.083000) can0 261#052284C99A421056
(3.084000) can0 37A#D00D000021000021
(3.085000) can0 252#86302F7800FC0F00
(3.086000) can0 292#55BAC86596010000
(3.086000) can0 712#0500000000000000
(3.087000) can0 360#0600000000000000
(3.088000) can0 129#9B2AEA5F0020FF3F
(3.089000) can0 1D8#29EAC01B0000E0A7
(3.089000) can0 266#2000113111008201
(3.090000) can0 7A8#01000000FFA18812
(3.092000) can0 3A3#16D00000380DFC01
(3.092000) can0 2E5#00000F320000DD00
(3.093000) can0 2C4#8B400180100D0C00
(3.094000) can0 195#400000000A002706
(3.095000) can0 224#0408004019011008
(3.095000) can0 221#610555550107A0DB
(3.096000) can0 264#3C000000A000
(3.097000) can0 396#091E1F4C4341127D
(3.098000) can0 3A2#C2ACFFFF03000000
(3.098000) can0 129#6A2BEA5F0020FF3F
(3.099000) can0 1E5#286C04000000007E
(3.100000) can0 2C1#50407E00008A0200
(3.101000) can0 266#2000113111008201
(3.104000) can0 677#0200000000000000
(3.106000) can0 39A#1C1BEB6AE7EEAE7E
(3.108000) can0 2E8#010100000600E0D2
(3.110000) can0 1D8#29EA801B000020A7
(3.112000) can0 4E3#0200000000002800
(3.114000) can0 2E5#00000F320000DD00
(3.116000) can0 719#0100040000000000
(3.119000) can0 78A#01000400E7069F00
(3.120000) can0 1D5#290000000000E0DF
(3.121000) can0 3C3#5555550100000000
(3.123000) can0 1F8#1A000000
(3.123000) can0 132#C98E13FE5D3C
(3.126000) can0 243#0300000033513100
(3.126000) can0 31F#77467A467B447B46
(3.127000) can0 441#3285890032002803
(3.129000) can0 129#F42EE95F0020FF3F
(3.129000) can0 118#3B61950000C86400
(3.130000) can0 7FF#0500000120008000
(3.131000) can0 266#2100113111008201
(3.132000) can0 257#118960540A403001
(3.132000) can0 1D6#420800004A498308
(3.133000) can0 420#2801404B00000000
(3.134000) can0 2B6#000300
(3.134000) can0 383#BD181600C7A3C946
(3.135000) can0 397#0300007F1E180000
(3.136000) can0 545#20065D0098756943
(3.137000) can0 54F#0000000000000000
(3.140000) can0 129#362FEA5F0020FF3F
(3.140000) can0 1F9#0000000000000000
(3.142000) can0 709#190000008F040000
(3.143000) can0 2E5#00000F320000DD00
(3.143000) can0 313#0264640500004025
(3.146000) can0 2C3#0000C04B010040CB
(3.146000) can0 119#00000000
(3.147000) can0 261#E34B0A00004055C3
(3.148000) can0 129#E020E95F0020FF3F
(3.148000) can0 1D8#29EAC01B0000A067
(3.149000) can0 266#2100113111008001
(3.150000) can0 1D5#290000000000403F
(3.151000) can0 381#03563D00C0280400
(3.154000) can0 2E5#00000F320000DD00
(3.156000) can0 263#0400000070140000
(3.158000) can0 3F5#0000C838830C0000
(3.159000) can0 1D8#29EAC01B0000C087
(3.160000) can0 266#2100113111008001
(3.161000) can0 3A2#0110200000000000
(3.163000) can0 211#BB17710F1001
(3.163000) can0 132#C58E0FFE563C
(3.166000) can0 243#00FCCF0C97440D29
(3.166000) can0 2E2#01000051020B0000
(3.167000) can0 283#000000004000
(3.168000) can0 129#2022EA5F0120FF3F
(3.168000) can0 118#4F65950000C87400
(3.169000) can0 266#2100113111008001
(3.170000) can0 1D5#290000000000807F
(3.171000) can0 2E1#0400000000202000
(3.174000) can0 39D#3D60152800
(3.175000) can0 3E8#0300000000000000
(3.178000) can0 139#00
(3.178000) can0 1D8#29E8C01B000000C5
(3.179000) can0 103#22B38804A2EE2032
(3.180000) can0 118#4066950000C86400
(3.180000) can0 266#2100113111008001
(3.181000) can0 234#2BE10380430054C1
(3.182000) can0 718#00000000000000
(3.183000) can0 2E5#00000F320000DD00
(3.183000) can0 37A#C10B0002C50000C1
(3.184000) can0 2D2#EE2EAE4E9A0CE822
(3.185000) can0 123#00001392D2000000
(3.186000) can0 2F2#1201
(3.188000) can0 2E1#658008004436316A
(3.188000) can0 1D8#29EAC01B000020E7
(3.190000) can0 266#2100113111008001
(3.191000) can0 25B#D38000056A86C063
(3.191000) can0 788#0240CD0700030000
(3.194000) can0 2E5#00000F320000DD00
(3.194000) can0 1A5#00101F5025
(3.195000) can0 227#97042A0054000081
(3.196000) can0 264#3B000000A000
(3.196000) can0 261#00101100FF4F80E5
(3.197000) can0 2B4#32054A0E6001
(3.198000) can0 393#080001C107B00304
(3.199000) can0 129#A625EA5F0120FF3F
(3.199000) can0 1E5#286C0400000040BE
(3.200000) can0 1D5#290000000000E0DF
(3.201000) can0 545#02000200000080CE
(3.202000) can0 281#2B00FF1F0001
(3.203000) can0 20C#771838183A010010
(3.204000) can0 757#3200000000000000
(3.205000) can0 39A#29FFFDFDFD01000A
(3.207000) can0 2E8#010100000600F0E2
(3.207000) can0 2A8#010100000600D082
(3.208000) can0 1D8#29E8801B000060E5
(3.209000) can0 23E#00003AC002FFAFEA
(3.209000) can0 257#158D60540A403001
(3.210000) can0 4E3#03FD000000002800
(3.211000) can0 261#3140210082499AED
(3.212000) can0 39D#3E61152800
(3.212000) can0 2E5#00000F320000DD00
(3.213000) can0 3AA#0000000000000000
(3.215000) can0 448#20001010000010
(3.215000) can0 282#A474D2091C540324
(3.216000) can0 78A#010005009D0D0A00
(3.217000) can0 419#00
(3.218000) can0 21D#0400B50000000000
(3.218000) can0 129#6B27EA5F0120FF3F
(3.219000) can0 25D#3741012A04F08803
(3.220000) can0 118#446A950000C86400
(3.221000) can0 2F9#BCFB070800000000
(3.221000) can0 3E3#04000000
(3.222000) can0 1F8#1A000000
(3.225000) can0 340#0300000000000000
(3.225000) can0 3AE#064000080000206F
(3.228000) can0 3A2#6025F3A91C804175
(3.228000) can0 318#1A06340B10282FE1
(3.230000) can0 1D8#29E8801B0000A025
(3.231000) can0 108#5F4907A203221A25
(3.231000) can0 126#3950304C2C
(3.232000) can0 234#2FF0022BAD0460F8
(3.233000) can0 289#D012094486003D8F
(3.233000) can0 2E5#00000F320000DD00
(3.234000) can0 372#0D3200D01E5BBF8E
(3.235000) can0 241#36324C0F8F5500
(3.236000) can0 263#0300000000000000
(3.236000) can0 4E2#025D040000002800
(3.239000) can0 129#E929EA5F0120FF3F
(3.239000) can0 118#A66C950000C8C400
(3.240000) can0 1F9#0000000000000000
(3.241000) can0 7D5#2C3E3F0000000000
(3.242000) can0 2E5#00000F320000DD00
(3.243000) can0 261#E34B0A000040B523
(3.244000) can0 213#384D
