(0.000000) can0 1E5#286C04000000007E
(0.003000) can0 552#00000000000060B7
(0.007000) can0 282#6CBCE10600D40224
(0.009000) can0 1D5#290000000000605F
(0.011000) can0 2E5#0000242F00009100
(0.013000) can0 3A2#02A5FF7F03000000
(0.015000) can0 118#F066950000C81400
(0.017000) can0 2E1#026D6602185D0000
(0.020000) can0 383#9118360035B04004
(0.020000) can0 2C4#49D9052FA6A4A589
(0.021000) can0 186#A405000200C82925
(0.022000) can0 1A5#00101F28FD
(0.023000) can0 264#3B000000A000
(0.023000) can0 2B4#4C05500D6D01
(0.024000) can0 396#090F11480E02117D
(0.027000) can0 423#00001000000000
(0.029000) can0 31E#0000000000000000
(0.031000) can0 2C3#555BA90680C112AA
(0.033000) can0 119#00000000
(0.035000) can0 552#00000000000070C7
(0.037000) can0 3E8#0000000000000000
(0.039000) can0 39D#045CE12700
(0.042000) can0 23E#00003AC002FFDF1A
(0.042000) can0 118#C369950000C8E400
(0.043000) can0 1E5#286C0400000060DE
(0.044000) can0 108#6AD4086A04C92925
(0.045000) can0 128#0000EC0A02
(0.045000) can0 279#CBB4FC0154056502
(0.046000) can0 397#030080E31C1E0000
(0.048000) can0 441#4B8589003200382C
(0.048000) can0 2E1#0400000000202607
(0.049000) can0 401#152AA98A978AC88A
(0.052000) can0 2E5#0000242F00009100
(0.052000) can0 3AA#0100000000000000
(0.053000) can0 1D8#291AC1210000807E
(0.054000) can0 78A#0100060003000000
(0.054000) can0 266#3D001C4B1B00CE00
(0.055000) can0 7D5#2C3F3F0000000000
(0.056000) can0 2E2#F713504001000000
(0.057000) can0 261#052237CA9A42100A
(0.057000) can0 677#0300000000000000
(0.058000) can0 132#08853AFC9438
(0.061000) can0 3C8#0400000000000000
(0.062000) can0 2D2#F52EA04EC612E822
(0.063000) can0 103#22B38804A2EE2032
(0.064000) can0 1FA#1AC001
(0.064000) can0 285#61018E0308002E00
(0.065000) can0 1E5#286C04000000209E
(0.068000) can0 2AA#572023
(0.068000) can0 2E8#0101000006003022
(0.069000) can0 123#01000000003F0000
(0.070000) can0 401#162AD68AE68ADB8A
(0.070000) can0 405#100000000035594A
(0.073000) can0 201#0200000000000000
(0.073000) can0 3F5#0000C838820C0000
(0.074000) can0 118#156C950000C834FF
(0.075000) can0 3A3#14C00000280DFC01
(0.076000) can0 788#C4D4C18300009E00
(0.077000) can0 360#0600000000000000
(0.078000) can0 1D5#290000000000403F
(0.079000) can0 3A1#C1FFFF6F3D00F01B
(0.079000) can0 23E#00003AC002FFEF2A
(0.082000) can0 2E5#0000242F00009100
(0.082000) can0 118#D66D950000C8F4FF
(0.083000) can0 266#3E001C4B1C00CE00
(0.084000) can0 288#0106184C006061B6
(0.084000) can0 229#6D0300
(0.087000) can0 287#54535657A7020002
(0.087000) can0 1D5#290000000000605F
(0.088000) can0 234#30E103804300F466
(0.089000) can0 243#02FC6B1004BA0000
(0.089000) can0 45A#24393A3940443362
(0.091000) can0 2E5#0000242F00009100
(0.092000) can0 420#2801404B00000006
(0.093000) can0 1D8#291E012200000043
(0.093000) can0 118#786E950000C89400
(0.094000) can0 129#9327EF5F0020FF3F
(0.097000) can0 421#F21A0000002000
(0.097000) can0 2E1#398D2AFF0F000000
(0.098000) can0 718#01000000000000
(0.099000) can0 719#0300000000000000
(0.099000) can0 343#0092648E97000000
(0.100000) can0 247#580DFF09002A0100
(0.103000) can0 118#996F950000C8B400
(0.103000) can0 1E5#286C04000000209E
(0.104000) can0 129#4428EF5F0020FF3F
(0.106000) can0 3C3#0000000000A50000
(0.106000) can0 3C2#0055555500006A05
(0.109000) can0 39B#0318FF80B08880F0
(0.109000) can0 545#010000000010C01B
(0.110000) can0 3A2#02A5FF7F03000000
(0.111000) can0 307#000000000000003B
(0.111000) can0 553#000000000000E038
(0.112000) can0 2E1#026D6602185D0000
(0.113000) can0 1E5#286C0400000040BE
(0.114000) can0 118#4A60950000C87400
(0.114000) can0 266#3E001C4B1C00CE00
(0.117000) can0 2C1#D86C7E00008A0200
(0.117000) can0 39D#065EE12700
(0.118000) can0 132#F98429FC8038
(0.119000) can0 263#0300000000000000
(0.120000) can0 2C4#2A4080A4831D0C00
(0.121000) can0 458#00002000000000
(0.122000) can0 264#3A000000A000
(0.122000) can0 2E5#0000242F00009100
(0.123000) can0 118#AA61950000C8D4FF
(0.124000) can0 1D8#291E0122000060A3
(0.125000) can0 1E5#286C0400000060DE
(0.125000) can0 1F9#0000000000000000
(0.126000) can0 423#00001000000000
(0.129000) can0 31E#0100000000000000
(0.129000) can0 2E1#FB1FB20999A80900
(0.132000) can0 2E5#0000242F00009100
(0.134000) can0 1D8#2920412200008005
(0.135000) can0 249#83050000
(0.138000) can0 3E8#0100000000000000
(0.138000) can0 132#F98412FC5138
(0.139000) can0 263#04000000901C0000
(0.142000) can0 422#700010000000
(0.142000) can0 545#020005000000D021
(0.143000) can0 1D8#292081220000A065
(0.144000) can0 108#DC05098A04E92925
(0.144000) can0 126#4AE02E2CAB
(0.145000) can0 268#401C5E01FF
(0.146000) can0 2B6#000300
(0.147000) can0 397#030080E31C1E0000
(0.147000) can0 3A2#602573C10400C36D
(0.148000) can0 1D5#290000000000201F
(0.149000) can0 243#00FCCF4C97240E29
(0.150000) can0 2E5#0000242F00009100
(0.153000) can0 241#6F6ED49B1B4500
(0.155000) can0 118#1E64950000C84400
(0.155000) can0 7D7#3240000000000000
(0.156000) can0 3A8#0300000000000000
(0.157000) can0 2C1#0219060000D09201
(0.157000) can0 1D5#290000000000403F
(0.158000) can0 132#F08417FC3238
(0.159000) can0 2B3#2900F04460008502
(0.162000) can0 228#0106184C00606156
(0.162000) can0 2F2#1201
(0.163000) can0 103#22B38804A2EC2032
(0.164000) can0 211#A814710F0001
(0.164000) can0 3DF#0000C00002D0001B
(0.166000) can0 1E5#286C0400000060DE
(0.167000) can0 2D7#6C598105
(0.167000) can0 1D5#290000000000605F
(0.168000) can0 2E8#0101000006004032
(0.169000) can0 123#00001392D2000000
(0.170000) can0 37A#CBE0010000000000
(0.170000) can0 2E5#0000242F00009100
(0.173000) can0 201#0200000000000000
(0.173000) can0 3F5#0000C838820C0000
(0.174000) can0 129#462FF05F0020FF3F
(0.175000) can0 3A3#16C00000280DFC01
(0.175000) can0 788#01000000FFA1F812
(0.176000) can0 3A2#0110200000000000
(0.177000) can0 20E#160600
(0.180000) can0 1D5#290000000000807F
(0.182000) can0 2E5#0000242F00009100
(0.184000) can0 118#6067950000C884FF
(0.186000) can0 102#22B3880494FAA009
(0.188000) can0 20C#0938340CDD00300C
(0.190000) can0 132#E8840BFC2938
(0.192000) can0 2E5#0000242F00009100
(0.195000) can0 2E1#398D2AFF0F000000
(0.195000) can0 421#F21A0000002000
(0.198000) can0 3F6#00050000B6340001
(0.198000) can0 443#770CFF030000
(0.199000) can0 263#0200E0C8123F4321
(0.200000) can0 719#150009B400000000
(0.200000) can0 2E5#0000242F00009100
(0.202000) can0 261#322A9C01805CA26D
(0.203000) can0 1D8#29220123000060A8
(0.203000) can0 257#2AAD878702D04301
(0.206000) can0 3C3#5555550100000000
(0.206000) can0 3C2#0055555500006A05
(0.209000) can0 1D5#290000000000E0DF
(0.209000) can0 3A2#02A5FF7F03000000
(0.212000) can0 2E5#0000242F00009100
(0.212000) can0 221#6105555501052059
(0.213000) can0 1E5#286C04000000007E
(0.214000) can0 266#3F001C4B1C00CD00
(0.214000) can0 253#0064A6C66490B505
(0.217000) can0 261#834D0A000040B5C5
(0.217000) can0 677#0200000000000000
(0.219000) can0 339#02F1FE008007800F
(0.220000) can0 2B3#0A2E2C0005000002
(0.220000) can0 2C4#2B8000A2220B0C00
(0.221000) can0 458#00002000000000
(0.222000) can0 195#000800000A002706
(0.222000) can0 201#006E6F0000E4FF00
(0.223000) can0 27A#4CB7FC0054056202
(0.224000) can0 1D8#2922C1220000A0A7
(0.225000) can0 129#6C24F05F0020FF3F
(0.225000) can0 257#2BAE878702D04301
(0.226000) can0 423#00001000000000
(0.229000) can0 31E#0200000000000000
(0.229000) can0 372#0AA04106010000AA
(0.230000) can0 41D#00
(0.231000) can0 757#2C3F3E0000000000
(0.232000) can0 119#00000000
(0.233000) can0 1E5#286C0400000040BE
(0.234000) can0 118#C56C950000C8E4FF
(0.234000) can0 249#5E070000
(0.237000) can0 3E8#0200000000000000
(0.237000) can0 39D#F951E12700
(0.238000) can0 234#31000331C50420E9
(0.239000) can0 3AE#0C40000800000156
(0.239000) can0 45A#FD07F8FF03003007
(0.242000) can0 2E1#0400000000202607
(0.242000) can0 118#A66D950000C8C4FF
(0.243000) can0 266#40001C4B1C00CD00
(0.244000) can0 25B#D38000056A867013
(0.244000) can0 129#0C26F05F0120FF3F
(0.246000) can0 268#401C5F01FF
(0.247000) can0 201#0118980000000000
(0.247000) can0 1D5#290000000000605F
(0.248000) can0 719#163C005A79010000
(0.249000) can0 243#00FCCF4C97240E29
(0.255000) can0 2E5#0000242F00009100
(0.258000) can0 7D7#3240000000000000
(0.260000) can0 132#F08408FC3038
(0.262000) can0 212#5904000081FF7731
(0.264000) can0 712#0500000000000000
(0.266000) can0 129#CC28F05F0120FF3F
(0.268000) can0 3B3#8C8004300100A800
(0.270000) can0 381#034A3D00C0300400
(0.273000) can0 2E5#0000242F00009100
(0.274000) can0 3F5#0000C838820C0000
(0.275000) can0 419#00
(0.276000) can0 545#F00362209BA7191A
(0.276000) can0 448#20001010000010
(0.277000) can0 360#0800000000000000
(0.280000) can0 132#068516FC5C38
(0.280000) can0 2E5#0000242F00009100
(0.281000) can0 393#080004D907B00304
(0.284000) can0 118#7B61950000C8A400
(0.284000) can0 229#410500
(0.285000) can0 287#54535657A7020002
(0.288000) can0 20C#0838340CDD00300C
(0.288000) can0 232#8A00920ECA040000
(0.289000) can0 2E1#398D2AFF0F000000
(0.290000) can0 39A#1823DB8A2717D37E
(0.291000) can0 2E5#0000242F00009100
(0.294000) can0 1D8#29240123000080CA
(0.294000) can0 441#DD00B6C358000D24
(0.297000) can0 421#F21A0000002000
(0.297000) can0 2C1#0400000000000000
(0.298000) can0 718#02000000000000
(0.299000) can0 272#080004E907B00304
(0.299000) can0 343#009264EE97000000
(0.300000) can0 2E5#0000242F00009100
(0.301000) can0 247#550DFF08002A0100
(0.304000) can0 118#AC63950000C8D4FF
(0.304000) can0 2E1#026D6602185D0000
(0.305000) can0 3C3#0000000000A50000
(0.308000) can0 3E2#040000712FCF00
(0.309000) can0 3A2#F2A4FF7F03000000
(0.312000) can0 2E5#0000242F00009100
(0.312000) can0 261#834D0A0000401525
(0.313000) can0 1E5#286C0400000040BE
(0.314000) can0 118#FE64950000C82400
(0.314000) can0 129#C52DF05F0120FF3F
(0.315000) can0 3FD#0000003C20000180
(0.317000) can0 409#00
(0.318000) can0 339#02F1FE008007800F
(0.319000) can0 281#0C00FF1F0001
(0.319000) can0 289#C80683C194003D0F
(0.320000) can0 666#0000C800
(0.321000) can0 2E1#FB1FB11999AB0900
(0.321000) can0 405#113345374542334B
(0.323000) can0 224#0408004019011008
(0.324000) can0 201#0070700000E4FF00
(0.324000) can0 1D8#292441230000E06A
(0.325000) can0 396#090F11480E02117D
(0.326000) can0 3C4#1931313335353538
(0.327000) can0 423#00001000000000
(0.330000) can0 1D5#290000000000605F
(0.330000) can0 401#2300000000000000
(0.331000) can0 757#3200000000000000
(0.334000) can0 1D8#292441230000008A
(0.334000) can0 249#5E090000
(0.337000) can0 3E8#0300000000000000
(0.337000) can0 677#0000000000000000
(0.338000) can0 234#31000331C5044009
(0.340000) can0 263#04000000901C0000
(0.340000) can0 2E5#0000242F00009100
(0.341000) can0 381#0500000080B76408
(0.344000) can0 118#2167950000C84400
(0.344000) can0 128#0000EC0A02
(0.345000) can0 225#5555FA00
(0.346000) can0 279#CAB7FC0150056502
(0.346000) can0 441#4B85890032001004
(0.347000) can0 2C2#2040C04B010080CB
(0.348000) can0 719#0003140F14070E00
(0.349000) can0 372#0C0000FF0F000000
(0.351000) can0 2E5#0000242F00009100
(0.351000) can0 241#6F6ED49B1B4500
(0.352000) can0 7A8#0240BC07000F0000
(0.353000) can0 2E1#6580080064E5306A
(0.356000) can0 3AE#0C40000800003085
(0.358000) can0 3C2#2955000000000000
(0.360000) can0 132#EE8404FC3538
(0.362000) can0 228#0106184C00608176
(0.364000) can0 2F1#06DAF98043000100
(0.366000) can0 2F3#0B0B0B0400600002
(0.368000) can0 3FD#01000A0000080280
(0.372000) can0 3E9#008822000000E076
(0.374000) can0 1D8#292441230000800A
(0.376000) can0 3A2#0110200000000000
(0.378000) can0 448#20001010000010
(0.380000) can0 381#0600000000000000
(0.381000) can0 2E5#0000242F00009100
(0.383000) can0 118#E56B950000C80400
(0.388000) can0 129#6C24F05F0020FF3F
(0.394000) can0 132#EE840CFC4F38
(0.398000) can0 441#DD00B6C35800152C
(0.403000) can0 272#0380610000000000
(0.405000) can0 129#0C26F05F0120FF3F
(0.408000) can0 40A#0910000000005077
(0.410000) can0 243#030000001F735300
(0.412000) can0 2E5#0000242F00009100
(0.413000) can0 381#0700000000000000
(0.415000) can0 3FD#0200560000000090
(0.419000) can0 129#1B27F05F0120FF3F
(0.421000) can0 289#C806830188003D0F
(0.422000) can0 7FF#09EF000010000000
(0.424000) can0 224#0408004019011008
(0.427000) can0 396#090F11480E02117D
(0.429000) can0 1D5#290000000000A09F
(0.431000) can0 25D#3741012A04F08803
(0.433000) can0 757#3200000000000000
(0.435000) can0 552#000000000000B007
(0.437000) can0 3E8#0400000000000000
(0.439000) can0 234#2F000331C5046027
(0.441000) can0 3A2#6045F3C11C00C36D
(0.443000) can0 118#2C61950000C85401
(0.445000) can0 108#0A28099204EC2925
(0.447000) can0 268#401C5F01FF
(0.449000) can0 1D5#290000000000E0DF
(0.451000) can0 2E1#6580080064E5306A
(0.453000) can0 241#6E6E949B1B4500
(0.455000) can0 118#FC62950000C82400
(0.457000) can0 7D7#3240000000000000
(0.459000) can0 1D5#29000000000000FF
(0.461000) can0 3C8#0100000000000000
(0.464000) can0 139#00
(0.466000) can0 221#6055551554517158
(0.468000) can0 2AA#576063
(0.470000) can0 132#E7840FFC5838
(0.471000) can0 2E5#0000242F00009100
(0.473000) can0 261#3100EAFFB049BAC3
(0.475000) can0 118#EE64950000C81400
(0.477000) can0 3F5#0000C838830C0000
(0.479000) can0 1D5#290000000000403F
(0.481000) can0 2E5#0000242F00009100
(0.484000) can0 118#CE65950000C8F4FF
(0.486000) can0 102#22B3880494FAA009
(0.488000) can0 20C#0738340CDD00300C
(0.490000) can0 243#02FC731004BA0000
(0.492000) can0 2E5#0000242F00009100
(0.494000) can0 4E3#01D8050000002800
(0.496000) can0 421#F21A0000002000
(0.498000) can0 2C1#0400000000000000
(0.500000) can0 22B#FFFFFF07FCFFFFFF
(0.505000) can0 719#0C7B0F005F0F6000
(0.511000) can0 3E2#040000612FCF00
(0.515000) can0 1F8#1A000000
(0.525000) can0 2C1#D86C7E00008A0200
(0.529000) can0 1E5#286C0400000060DE
(0.531000) can0 2C3#0000C04B010040CB
(0.533000) can0 739#2F07260100
(0.535000) can0 129#EA23F05F0020FF3F
(0.537000) can0 3E8#0500000000000000
(0.540000) can0 234#2E000331C5048046
(0.542000) can0 2E5#0000242F00009100
(0.544000) can0 118#A46B950000C8C4FF
(0.546000) can0 129#6C24F05F0020FF3F
(0.548000) can0 2E1#6580080064E5306A
(0.549000) can0 719#0D00000000000000
(0.551000) can0 2E5#0000242F00009100
(0.553000) can0 7A8#01000000FFA1E812
(0.555000) can0 77A#00CD89FE6113785B
(0.557000) can0 7D5#2C3F3F0000000000
(0.560000) can0 3C0#0800000000000000
(0.562000) can0 228#0106184C0060A196
(0.564000) can0 2F1#0802003004600300
(0.566000) can0 221#6055551554519178
(0.568000) can0 3D8#3C003A00
(0.575000) can0 243#0100623362008585
(0.577000) can0 359#090000007F000000
(0.579000) can0 1D5#290000000000807F
(0.581000) can0 2E5#0000242F00009100
(0.583000) can0 118#F86F950000C814FF
(0.585000) can0 1E5#286C04000000209E
(0.586000) can0 288#0106184C0060B106
(0.588000) can0 1D5#290000000000A09F
(0.590000) can0 45A#24393A3940443362
(0.592000) can0 122#00001392D2000000
(0.597000) can0 1E5#286C0400000040BE
(0.607000) can0 39D#025AE12700
(0.613000) can0 1D5#290000000000E0DF
(0.615000) can0 409#00
(0.617000) can0 295#1D2C000000000003
(0.619000) can0 383#9118360035B04004
(0.621000) can0 289#C8068381A1003D0F
(0.627000) can0 204#010000FF00000010
(0.629000) can0 472#FF288002007FFF07
(0.631000) can0 132#F9841AFC8738
(0.633000) can0 6A2#0000000000
(0.635000) can0 1E5#286C0400000040BE
(0.637000) can0 3E8#0600000000000000
(0.638000) can0 39D#035BE12700
(0.641000) can0 263#04000000901C0000
(0.643000) can0 118#3E65950000C864FF
(0.646000) can0 25B#D38000056A86B053
(0.648000) can0 201#0118980000000000
(0.650000) can0 261#0010FAFFFF4F60AD
(0.651000) can0 2E5#0000242F00009100
(0.654000) can0 7A8#0240BB07000F0000
(0.655000) can0 266#3F001C4B1C00CD00
(0.657000) can0 2E2#E211194949490900
(0.659000) can0 207#00040C0105000000
(0.661000) can0 228#0106184C0060B1A6
(0.663000) can0 2D2#F62EA04EC712E822
(0.669000) can0 1FA#1AC001
(0.671000) can0 37A#D00D000000000000
(0.673000) can0 70B#F0E7403020FF617D
(0.675000) can0 129#3521F15F0220FF3F
(0.678000) can0 359#0A00000000000000
(0.680000) can0 3A1#C1FFFF333D00B09F
(0.682000) can0 261#322A9C01805C824D
(0.684000) can0 118#C269950000C8E4FF
(0.686000) can0 129#D122F15F0320FF3F
(0.687000) can0 20C#0338340CDD00300C
(0.689000) can0 132#F78413FC7738
(0.691000) can0 2E5#0000242F00009100
(0.693000) can0 1D8#2922C12200008087
(0.695000) can0 129#C723F25F0420FF3F
(0.697000) can0 261#834D0A00004095A5
(0.699000) can0 1D5#29000000000000FF
(0.704000) can0 343#0092643E97000000
(0.710000) can0 2F9#BCFB07100D1A8B84
(0.715000) can0 2E5#0000242F00009100
(0.724000) can0 285#2445605872000000
(0.726000) can0 129#8C26F25F0420FF3F
(0.728000) can0 6A2#0000000000
(0.730000) can0 132#E98414FC6238
(0.731000) can0 2E5#0000242F00009100
(0.733000) can0 376#FBFFFBFFFB0F8004
(0.735000) can0 129#3627F25F0520FF3F
(0.737000) can0 356#0000000000000000
(0.739000) can0 1D5#290000000000807F
(0.741000) can0 45A#FD07F8FF03003007
(0.743000) can0 118#C86F950000C8E4FF
(0.753000) can0 108#EE1B098A04E52925
(0.756000) can0 266#3F001C4B1C00CD00
(0.765000) can0 207#00040C0105000000
(0.769000) can0 473#0000030000000000
(0.773000) can0 132#F48412FC5938
(0.776000) can0 3F5#0000C838820C0000
(0.778000) can0 261#322A9C01805CE2AD
(0.780000) can0 3A1#C1FFFF613D00D0ED
(0.782000) can0 393#0380610000000000
(0.784000) can0 118#0D63950000C83400
(0.786000) can0 102#22B3880494FAA009
(0.788000) can0 20C#0218340CDD00300C
(0.790000) can0 243#02FC6B1004BA0000
(0.792000) can0 122#00001392D2000000
(0.797000) can0 1D8#292441230000C04A
(0.803000) can0 2C1#0400000000000000
(0.808000) can0 266#40001C4B1C00CD00
(0.812000) can0 132#EE840AFC5638
(0.814000) can0 118#9F66950000C8C4FF
(0.816000) can0 3FD#0000003C20000180
(0.819000) can0 334#3F3F1408FF0102D3
(0.821000) can0 3AE#0E40000800002178
(0.823000) can0 52F#0006545898486340
(0.825000) can0 405#100000000035594A
(0.831000) can0 3D8#3C003A00
(0.833000) can0 132#EA840EFC4638
(0.835000) can0 2E5#0000242F00009100
(0.837000) can0 2E1#6580080065E5306A
(0.839000) can0 39D#F850E12700
(0.842000) can0 439#0000000000185A04
(0.844000) can0 1D8#29264123000060EC
(0.846000) can0 128#0000EC0A02
(0.848000) can0 201#0118980000000000
(0.850000) can0 132#EB8409FC4138
(0.852000) can0 2E5#0000242F00009100
(0.853000) can0 78A#010000001E130E0D
(0.855000) can0 129#D923F35F0020FF3F
(0.857000) can0 315#5B2BD02640008004
(0.859000) can0 3B6#E5A7DC0C0000E00D
(0.861000) can0 3C8#0500000000000000
(0.863000) can0 2D2#F62EA04EC712E822
(0.865000) can0 5F3#33ED20
(0.868000) can0 3FD#01000A0000080280
(0.872000) can0 257#239E87870AD04301
(0.874000) can0 3E5#0000000000000000
(0.875000) can0 36B#0000000000000000
(0.877000) can0 118#D56C950000C8F4FF
(0.884000) can0 788#0240C20700030000
(0.886000) can0 129#9226F35F0020FF3F
(0.888000) can0 54F#0000000000000000
(0.890000) can0 243#02FC731004BA0000
(0.892000) can0 122#01000000003F0000
(0.894000) can0 1D8#29288123000000CE
(0.896000) can0 421#F21A0000002000
(0.898000) can0 201#0300000000000000
(0.900000) can0 3FD#0000003C20000180
(0.904000) can0 677#0400000000000000
(0.906000) can0 2F9#BCFB072000000000
(0.908000) can0 7AA#76C3FFB88010A129
(0.910000) can0 243#030000001F735300
(0.912000) can0 3F9#0400000000000000
(0.914000) can0 386#0000000000000000
(0.916000) can0 384#0000000000000000
(0.918000) can0 2C1#D86C7E00008A0200
(0.919000) can0 132#DD84F9FB2838
(0.921000) can0 2C4#1608370700000001
(0.923000) can0 7FF#0500000120008000
(0.925000) can0 118#CA61950000C8F4FF
(0.928000) can0 129#D82AF35F0020FF3F
(0.930000) can0 21D#0400B50000000000
(0.932000) can0 401#0F2A698A8F8A7B8A
(0.934000) can0 1D8#292A812300008050
(0.936000) can0 3A2#604573C10400C36D
(0.938000) can0 2C1#2163186402000000
(0.940000) can0 263#04000000901C0000
(0.942000) can0 2E5#0000242F00009100
(0.944000) can0 118#1D63950000C84400
(0.946000) can0 128#0000EC0A02
(0.948000) can0 3FD#01000A0000080280
(0.951000) can0 395#091F1F5313030B7D
(0.953000) can0 7A8#0240BB07000F0000
(0.956000) can0 118#9E64950000C8C400
(0.965000) can0 207#00080C0205000000
(0.969000) can0 257#109387870AC84301
(0.973000) can0 22B#FFFFFF03FEFFFFFF
(0.977000) can0 118#8F66950000C8B4FF
(0.979000) can0 1D5#290000000000807F
(0.981000) can0 407#0D02000000000000
(0.983000) can0 287#54535657A6020102
(0.985000) can0 1E5#286C04000000209E
(0.986000) can0 249#4C060000
(0.988000) can0 1D5#290000000000A09F
(0.990000) can0 381#1700000000000000
(0.992000) can0 122#00001392D2000000
(0.994000) can0 1E5#286C0400000040BE
(0.998000) can0 421#F21A0000002000
(1.004000) can0 3FD#0200560000000090
(1.020000) can0 272#0380610000000000
(1.029000) can0 7F4#01
(1.033000) can0 2C3#555BA90680C112AA
(1.038000) can0 552#0000000000001067
(1.042000) can0 132#D984E9FB0F38
(1.044000) can0 1D8#292E41240000E075
(1.046000) can0 129#3F26F35F0120FF3F
(1.048000) can0 201#0118980000000000
(1.050000) can0 243#00FCCF4C97240E29
(1.052000) can0 283#020500004100
(1.056000) can0 1D8#292E412400000095
(1.062000) can0 2E2#000000BF010B0000
(1.072000) can0 3B2#1F5A2E1E5E413C02
(1.074000) can0 1E5#286C0400000040BE
(1.076000) can0 3A3#12D00000280DFC01
(1.078000) can0 39D#FE56E12700
(1.080000) can0 263#690ED297BF4F7F00
(1.082000) can0 261#834D0A0000401525
(1.085000) can0 266#42001D4B1C00CD00
(1.086000) can0 249#3F080000
(1.088000) can0 1D5#290000000000E0DF
(1.090000) can0 401#172AA78AB88AB38A
(1.092000) can0 122#01000000003F0000
(1.094000) can0 1E5#286C04000000007E
(1.097000) can0 421#F21A0000002000
(1.099000) can0 301#1F000000FFFFFFFF
(1.101000) can0 428#20001010000010
(1.103000) can0 719#0D00000000000000
(1.105000) can0 1E5#286C04000000209E
(1.107000) can0 282#6CBCE10600D40224
(1.108000) can0 1D5#290000000000201F
(1.111000) can0 401#182AC48A668A788A
(1.117000) can0 1F8#1A000000
(1.119000) can0 1D5#290000000000403F
(1.121000) can0 23E#00003AC002FF8FCA
(1.123000) can0 7F4#01
(1.125000) can0 2E5#0000242E00009000
(1.127000) can0 266#42001C4B1C00CD00
(1.129000) can0 423#00001000000000
(1.131000) can0 2C3#0000C04B010040CB
(1.133000) can0 757#3200000000000000
(1.135000) can0 118#5F66950000C884FF
(1.137000) can0 3E8#0400000000000000
(1.139000) can0 1D5#290000000000807F
(1.141000) can0 422#700010000000
(1.143000) can0 118#0067950000C824FF
(1.146000) can0 257#31AC87870AD04301
(1.148000) can0 2EC#57F035
(1.149000) can0 441#4B85890032001004
(1.151000) can0 2E5#0000242E00009100
(1.153000) can0 78A#01000300AE048902
(1.155000) can0 129#8721F35F0020FF3F
(1.158000) can0 7D7#3241000000000000
(1.164000) can0 263#700ED29FA74F1F00
(1.166000) can0 293#020C559055140F00
(1.168000) can0 2D7#6C598105
(1.170000) can0 123#00001392D2000000
(1.172000) can0 242#55558600
(1.173000) can0 1D8#2930812400008057
(1.175000) can0 3F5#0000C838820C0000
(1.180000) can0 359#1000000000000000
(1.186000) can0 2E5#0000242F00009100
(1.190000) can0 20C#0018340CDD00300C
(1.195000) can0 2E5#0000242F00009100
(1.197000) can0 3F6#00050000B6340001
(1.199000) can0 1D5#290000000000403F
(1.202000) can0 428#20001010000010
(1.204000) can0 1D8#2930C1240000E0F7
(1.206000) can0 381#22A2F027F1200000
(1.208000) can0 3C2#0055555500006A05
(1.210000) can0 261#052237CA9A42908A
(1.212000) can0 2E5#0000242F00009100
(1.213000) can0 1D8#29308124000000D7
(1.215000) can0 129#8527F35F0020FF3F
(1.218000) can0 285#2445605872000000
(1.220000) can0 22B#FFFFFF03FEFFFFFF
(1.222000) can0 708#2A1F0A0000
(1.224000) can0 186#9501000200BD2925
(1.226000) can0 1D8#2930C12400002037
(1.228000) can0 1F9#0000000000000000
(1.230000) can0 1D5#290000000000A09F
(1.232000) can0 2E5#0000242E00009100
(1.234000) can0 1D8#2930C12400004057
(1.236000) can0 552#0000000000003087
(1.238000) can0 2E3#0200006F010B00
(1.240000) can0 263#04000000901C0000
(1.242000) can0 340#0A00002000000000
(1.248000) can0 266#42001C4B1C00CD00
(1.251000) can0 132#CE84E0FBF237
(1.253000) can0 241#6E6E949B1B4500
(1.255000) can0 118#CB62950000C8F4FF
(1.258000) can0 682#0000004004111045
(1.266000) can0 3C8#0200000000000000
(1.271000) can0 3AE#0E4000080000F148
(1.275000) can0 201#0200000000000000
(1.281000) can0 788#C4D4C18300009E00
(1.287000) can0 118#1065950000C83401
(1.291000) can0 1D5#290000000000605F
(1.296000) can0 122#01000000003F0000
(1.298000) can0 724#010064
(1.299000) can0 132#D184E5FB0338
(1.301000) can0 428#20001010000010
(1.304000) can0 118#B067950000C8D4FF
(1.306000) can0 3C3#0000000000A50000
(1.308000) can0 6A1#0000000000
(1.310000) can0 243#030000001F735300
(1.312000) can0 553#000000000000A0F8
(1.314000) can0 2E1#6580080065E5306A
(1.316000) can0 3FD#0000003C20000180
(1.319000) can0 266#42001C4B1C00CD00
(1.321000) can0 414#1233585646544756
(1.323000) can0 458#00002000000000
(1.325000) can0 2B4#49054D0D5B01
(1.331000) can0 1D8#292E4124000060F5
(1.333000) can0 2E5#0000242F00009000
(1.335000) can0 1E5#286C04000000007E
(1.337000) can0 3E8#0600000000000000
(1.339000) can0 303#1F000000FFFFFFFF
(1.341000) can0 422#700010000000
(1.343000) can0 118#A56B950000C8C400
(1.346000) can0 108#537109BA04C42925
(1.348000) can0 395#091F1F5313030B7D
(1.350000) can0 132#D484EDFB1E38
(1.352000) can0 283#030500004100
(1.353000) can0 7A8#C4CCB18300008200
(1.355000) can0 129#4825F35F0020FF3F
(1.357000) can0 7D5#3200000000000000
(1.359000) can0 1D5#290000000000403F
(1.361000) can0 228#0106184C00602116
(1.363000) can0 139#00
(1.365000) can0 1FA#1AC001
(1.370000) can0 3FD#01000A0000080280
(1.376000) can0 33A#51D40302FDFF3761
(1.381000) can0 448#20001010000010
(1.387000) can0 118#296F950000C84400
(1.389000) can0 1D5#290000000000A09F
(1.390000) can0 39A#6DFFFDFDFD01000A
(1.392000) can0 122#00001392D2000000
(1.394000) can0 2E1#0400000000202607
(1.396000) can0 421#F21A0000002000
(1.398000) can0 2C1#0400000000000000
(1.400000) can0 272#0380610000000000
(1.402000) can0 2E5#0000242F00009000
(1.404000) can0 118#2B61950000C85400
(1.406000) can0 257#2EA987870AD04301
(1.410000) can0 3C2#0055555500006A05
(1.414000) can0 2E5#0000242F00009000
(1.419000) can0 3FD#0200560000000090
(1.434000) can0 294#14C1400040000000
(1.438000) can0 3E8#0000000000000000
(1.444000) can0 132#DE84F7FB3238
(1.446000) can0 128#0000EC0A02
(1.448000) can0 397#032080E31C1C0000
(1.450000) can0 243#00FCCF4C97240E29
(1.452000) can0 2E5#0000242F00009100
(1.453000) can0 78A#0100060003000000
(1.455000) can0 207#000A0E0205000000
(1.457000) can0 7D7#3240000000000000
(1.459000) can0 1D5#290000000000807F
(1.462000) can0 228#0106184C00603126
(1.469000) can0 103#22B38804A2EC2032
(1.471000) can0 372#0E00000C067D0000
(1.473000) can0 201#0200000000000000
(1.475000) can0 118#A168950000C8C4FF
(1.477000) can0 3F5#0000C838830C0000
(1.479000) can0 39D#F850E12700
(1.480000) can0 287#54535657A6020102
(1.482000) can0 393#080004D107B00304
(1.484000) can0 1D8#2928C1230000606E
(1.486000) can0 229#440100
(1.488000) can0 20C#0018340CDD00300C
(1.490000) can0 3AE#11400008000090EA
(1.492000) can0 122#01000000003F0000
(1.494000) can0 1D8#2928C1230000808E
(1.497000) can0 421#F21A0000002000
(1.499000) can0 34A#0207000000000090
(1.501000) can0 428#20001010000010
(1.503000) can0 118#366B950000C85401
(1.505000) can0 129#B824F45F0220FF3F
(1.510000) can0 2E1#6580080065E5306A
(1.515000) can0 553#000000000000C018
(1.525000) can0 2C1#D86C7E00008A0200
(1.532000) can0 423#00001000000000
(1.534000) can0 1E5#286C04000000007E
(1.538000) can0 3E8#0100000000000000
(1.540000) can0 132#DF84FEFB4138
(1.541000) can0 2E5#0000242F00009100
(1.544000) can0 118#096F950000C82400
(1.547000) can0 1D6#000800004A029808
(1.549000) can0 1D5#290000000000A09F
(1.551000) can0 6C8#107C00F412200C00
(1.553000) can0 241#6D6E549B1B4500
(1.555000) can0 2E1#026D6602185D0000
(1.557000) can0 78A#010000001C130A0D
(1.558000) can0 3C0#0700000000000000
(1.560000) can0 23E#00003AC002FF3F7A
(1.562000) can0 261#834D0A000040F505
(1.564000) can0 103#22B38804A2EC2032
(1.566000) can0 1E5#286C0400000060DE
(1.568000) can0 545#F00361309BA8899A
(1.570000) can0 123#00001392D2000000
(1.578000) can0 666#0000C800
(1.583000) can0 132#E5840CFC5938
(1.587000) can0 1E5#286C04000000209E
(1.593000) can0 1D5#290000000000201F
(1.596000) can0 4E3#D5028201001C0000
(1.598000) can0 39D#FB53E12700
(1.600000) can0 263#0200E0C8123F4221
(1.602000) can0 2E1#6580080065E5306A
(1.604000) can0 1D8#292441230000E06A
(1.606000) can0 2F9#BCFB072800000000
(1.608000) can0 3C2#0055555500006A05
(1.610000) can0 261#0010FDFFFF4F2070
(1.611000) can0 2E5#0000242F00009100
(1.613000) can0 1D8#292441230000008A
(1.616000) can0 129#BE2FF55F0120FF3F
(1.619000) can0 2C1#D86C7E00008A0200
(1.620000) can0 289#C80C850382003D8F
(1.627000) can0 7FF#0301082861428001
(1.629000) can0 472#FF288002007FFF07
(1.631000) can0 41D#00
(1.633000) can0 401#002AA68A948A818A
(1.635000) can0 119#00000000
(1.637000) can0 266#3F001C4B1C00CD00
(1.639000) can0 381#0E00000000E0FF00
(1.641000) can0 45A#FD07F8FF03002F08
(1.642000) can0 118#3269950000C854FF
(1.644000) can0 266#40001C4B1C00CD00
(1.646000) can0 129#0522F55F0120FF3F
(1.649000) can0 201#0104980000000000
(1.651000) can0 2E5#0000242F00009100
(1.654000) can0 7A8#C4CCB18300008200
(1.656000) can0 207#00080C0305000000
(1.658000) can0 261#834D0A0000405565
(1.660000) can0 132#F8840BFC5438
(1.662000) can0 2E5#0000242F00009100
(1.664000) can0 118#356B950000C85400
(1.666000) can0 252#7646637000FC0F00
(1.668000) can0 2E1#FB1FB0F998A70900
(1.670000) can0 42E#00E0BFFFFEEFBFFF
(1.671000) can0 2E5#0000242F00009100
(1.673000) can0 1D8#292201230000C008
(1.675000) can0 129#2E25F55F0020FF3F
(1.678000) can0 359#1600000000000000
(1.681000) can0 287#54535657A6020102
(1.682000) can0 118#476D950000C86400
(1.684000) can0 266#3F001C4B1C00CD00
(1.686000) can0 54F#0000000000000000
(1.688000) can0 1D5#290000000000605F
(1.690000) can0 243#02FC731004BA0000
(1.692000) can0 122#01000000003F0000
(1.694000) can0 1E5#286C04000000007E
(1.696000) can0 441#D900B6C358003D50
(1.698000) can0 201#0300000000000000
(1.700000) can0 132#EF8417FC7138
(1.704000) can0 118#186F950000C834FF
(1.710000) can0 2F9#BCFB07030D1A8B84
(1.715000) can0 2E5#0000242F00009100
(1.721000) can0 213#081D
(1.723000) can0 261#3100E7FFB1499AA1
(1.725000) can0 195#000800000A002706
(1.727000) can0 3CC#0321031A000E0900
(1.733000) can0 4E2#00D1000000002800
(1.735000) can0 376#04FFFFFFFF48464A
(1.737000) can0 557#5A6E190002
(1.739000) can0 35A#0000000000000000
(1.741000) can0 439#0000000000185A04
(1.743000) can0 118#5D63950000C88400
(1.749000) can0 257#47BA87870AD84301
(1.751000) can0 719#0300000000000000
(1.753000) can0 241#6F6ED49B1B4500
(1.755000) can0 129#3D2DF55F0020FF3F
(1.759000) can0 3A8#0102000700020100
(1.766000) can0 3C8#0000000000000000
(1.770000) can0 3A2#0110200000000000
(1.774000) can0 242#55558600
(1.779000) can0 266#3E001C4B1C00CD00
(1.780000) can0 2B3#2247197820200000
(1.782000) can0 393#0380610000000000
(1.784000) can0 266#3E001C4B1C00CD00
(1.786000) can0 249#4C060000
(1.788000) can0 20C#0018340CDD00300C
(1.790000) can0 3AE#124000080000217C
(1.792000) can0 122#00001392D2000000
(1.796000) can0 3D8#3C003C00
(1.802000) can0 524#86730302201001
(1.808000) can0 118#F369950000C81400
(1.813000) can0 132#F58422FC8638
(1.815000) can0 118#336A950000C854FF
(1.816000) can0 3FD#0000003C20000180
(1.820000) can0 409#00
(1.826000) can0 400#00E0FBBEEFFB00
(1.828000) can0 364#3C82081F
(1.830000) can0 3AE#124000080000318C
(1.832000) can0 1D5#290000000000201F
(1.834000) can0 3A1#844C0FCA001C22A7
(1.836000) can0 757#3200000000000000
(1.838000) can0 266#3D001C4B1C00CD00
(1.840000) can0 2E3#F7135040010000
(1.842000) can0 2E5#0000242F00009000
(1.844000) can0 266#3E001C4B1C00CD00
(1.846000) can0 128#0000EC0A02
(1.849000) can0 395#091F1F5313030B7D
(1.851000) can0 3E9#F0882221000000A7
(1.853000) can0 241#6D6E549B1B4500
(1.854000) can0 207#000C0C0405000000
(1.856000) can0 315#01474700584A0000
(1.858000) can0 2C1#0219060000D09201
(1.860000) can0 263#700ED29FA74F1F00
(1.862000) can0 212#5904000081FF7731
(1.864000) can0 5F3#33ED20
(1.867000) can0 3FD#01000A0000080280
(1.870000) can0 2F3#0B0B0B0400600002
(1.872000) can0 123#01000000003F0000
(1.874000) can0 2E5#0000242F00009000
(1.876000) can0 1D8#291C4122000040C1
(1.879000) can0 3F5#0000C838820C0000
(1.881000) can0 360#0200000000000000
(1.883000) can0 2E5#0000242F00009000
(1.885000) can0 302#1F0000000207CE6C
(1.886000) can0 257#3EB187870AD84301
(1.888000) can0 20C#0018340CDD00300C
(1.890000) can0 243#02FC731004BA0000
(1.892000) can0 122#01000000003F0000
(1.899000) can0 3FD#0000003C20000180
(1.902000) can0 1D8#291C412200008001
(1.904000) can0 118#6D63950000C89400
(1.906000) can0 247#590DFF0800140100
(1.907000) can0 3E2#040000411FCF00
(1.909000) can0 132#FC8434FC9E38
(1.912000) can0 2E5#0000242F00009000
(1.914000) can0 3A0#0000000000000000
(1.916000) can0 294#14C1400040000000
(1.918000) can0 2C1#D86C7E00008A0200
(1.924000) can0 22B#FFFFFF03FEFFFFFF
(1.926000) can0 27A#5EB80C0154056202
(1.928000) can0 396#090F11480E02117D
(1.930000) can0 1D5#290000000000605F
(1.932000) can0 401#0F2A5C8A808A6E8A
(1.934000) can0 552#000000000000A0F7
(1.936000) can0 3E8#0500000000000000
(1.938000) can0 2C1#2163186402000000
(1.940000) can0 263#04000000901C0000
(1.942000) can0 340#0500000000000000
(1.945000) can0 1D8#291C4122000020A1
(1.946000) can0 261#834D0A0000407585
(1.948000) can0 201#0104980000000000
(1.950000) can0 3FD#01000A0000080280
(1.953000) can0 243#00FCCF4C97240E29
(1.956000) can0 118#F368950000C81401
(1.958000) can0 3C2#2955000000000000
(1.962000) can0 132#04852FFCAB38
(1.972000) can0 2F2#1201
(1.976000) can0 1D8#291C412200008001
(1.978000) can0 261#052237CA9A42908A
(1.980000) can0 3A1#C1FFFF633D00506F
(1.982000) can0 393#0380610000000000
(1.984000) can0 118#946B950000C8B4FF
(1.991000) can0 102#22B3880494FAA009
(1.995000) can0 122#00001392D2000000
(1.999000) can0 421#F21A0000002000
(2.004000) can0 3FD#0200560000000090
(2.007000) can0 343#009260EE97000000
(2.010000) can0 401#132AA18A928A798A
(2.016000) can0 1F8#1A000000
(2.020000) can0 2E1#398D2AFF0F000000
(2.026000) can0 400#00E0FBBEEFFB00
(2.030000) can0 261#322A9C01805CC28D
(2.032000) can0 75D#8000000000000000
(2.033000) can0 1D8#291C012200004081
(2.035000) can0 3AE#12400008000091EC
(2.037000) can0 3E8#0600000000000000
(2.039000) can0 234#30000330C1046023
(2.046000) can0 422#700010000000
(2.050000) can0 395#091F1F5313030B7D
(2.056000) can0 2E5#0000242F00009100
(2.060000) can0 2E2#01000060010B0000
(2.062000) can0 252#7846627000FC0F00
(2.068000) can0 118#4D63950000C87400
(2.070000) can0 123#01000000003F0000
(2.076000) can0 414#1233585646544756
(2.082000) can0 2C1#431A900000000000
(2.084000) can0 1D8#291E41220000E063
(2.086000) can0 102#22B3880494FAA009
(2.087000) can0 20C#0018340CDD00300C
(2.089000) can0 132#F68423FC8738
(2.091000) can0 39A#1827DF8A1F1FCF7E
(2.094000) can0 1D8#291E412200000083
(2.096000) can0 441#D900B6C358001D30
(2.098000) can0 301#20000000FFFFFFFF
(2.100000) can0 132#F28426FC6338
(2.102000) can0 307#000000000000003B
(2.104000) can0 1D8#291E4122000020A3
(2.106000) can0 247#570DFF0700120100
(2.108000) can0 3E2#040000410FCF00
(2.110000) can0 243#030000001F735300
(2.112000) can0 553#0000000000002078
(2.114000) can0 1D8#291E4122000040C3
(2.115000) can0 313#0264640500009075
(2.117000) can0 2C1#D86C7E00008A0200
(2.119000) can0 339#02F1FE008007800F
(2.122000) can0 113#019701
(2.124000) can0 2B4#4E054A0D5901
(2.126000) can0 1D8#291E4122000060E3
(2.128000) can0 257#32AD87870AD04301
(2.130000) can0 132#FA8423FC7B38
(2.132000) can0 41D#00
(2.134000) can0 552#000000000000C017
(2.136000) can0 3E8#0000000000000000
(2.138000) can0 261#834D0A0000403545
(2.140000) can0 3AE#114000080000E03A
(2.142000) can0 340#0700000000000000
(2.144000) can0 118#C46B950000C8E4FF
(2.146000) can0 126#4CE02E4CCD
(2.148000) can0 2B6#000300
(2.149000) can0 719#0C7B0F005F0F6000
(2.152000) can0 2E5#0000242F00009100
(2.154000) can0 1D8#292081220000C085
(2.157000) can0 7D5#2B830F0000000000
(2.159000) can0 3C0#0200000000000000
(2.161000) can0 3C8#0400000000000000
(2.163000) can0 292#9689F59966010000
(2.169000) can0 1D8#292081220000E0A5
(2.171000) can0 372#0900000000F83F00
(2.173000) can0 201#0200000000000000
(2.175000) can0 266#3F001C4B1C00CD00
(2.177000) can0 788#C4D4C18300009E00
(2.179000) can0 2E1#6580080066E5306A
(2.181000) can0 263#690ED297BF4F7F00
(2.182000) can0 118#596F950000C87400
(2.189000) can0 1E5#286C04000000209E
(2.194000) can0 545#010000000010B00B
(2.198000) can0 4E3#0458A00507800000
(2.203000) can0 443#6B00FF030000
(2.205000) can0 129#BE2AF55F0020FF3F
(2.207000) can0 40A#091000000000E007
(2.209000) can0 132#ED8416FC4F38
(2.211000) can0 2E5#0000242F00009100
(2.213000) can0 1F8#1A000000
(2.214000) can0 381#034C3D00C0300400
(2.216000) can0 4F3#00000000
(2.218000) can0 261#322A9C01805C824D
(2.220000) can0 132#F3840DFC5138
(2.222000) can0 400#00E0FBBEEFFB00
(2.225000) can0 186#7C0B0002009A2925
(2.232000) can0 1E5#286C04000000209E
(2.234000) can0 75D#0100000000000080
(2.235000) can0 266#40001C4B1C00CD00
(2.238000) can0 3E8#0100000000000000
(2.244000) can0 132#F08410FC4E38
(2.246000) can0 1D6#000800004A029808
(2.248000) can0 397#030080E31C1E0000
(2.250000) can0 132#EA8411FC3838
(2.251000) can0 2E5#0000242E00009100
(2.253000) can0 7A8#C4CCB18300008200
(2.255000) can0 129#BE2FF55F0120FF3F
(2.257000) can0 682#000000400411B0E5
(2.260000) can0 7D7#3240000000000000
(2.269000) can0 392#0111A467000A0300
(2.274000) can0 243#0100623362008585
(2.279000) can0 266#40001C4B1C00CD00
(2.281000) can0 2E5#0000242F00009100
(2.283000) can0 118#D269950000C8F4FF
(2.285000) can0 129#A822F55F0020FF3F
(2.287000) can0 20C#0018340CDD00300C
(2.289000) can0 545#010000000010E03B
(2.291000) can0 39A#1C27DB8A271FCF7E
(2.293000) can0 420#2801404B00000001
(2.295000) can0 118#E56A950000C80401
(2.297000) can0 724#020064
(2.299000) can0 1D5#29000000000000FF
(2.301000) can0 428#20001010000010
(2.303000) can0 118#556B950000C87400
(2.306000) can0 227#CA02000041000085
(2.308000) can0 1D5#290000000000201F
(2.310000) can0 243#030000001F735300
(2.312000) can0 553#0000000000004098
(2.314000) can0 1D8#292881230000C08E
(2.315000) can0 3FD#0000003C20000180
(2.318000) can0 333#0410590700
(2.320000) can0 263#0300000000000000
(2.322000) can0 113#019701
(2.328000) can0 55A#0400000000000000
(2.330000) can0 423#00001000000000
(2.332000) can0 132#E684F9FB1E38
(2.334000) can0 2E5#0000242F00009100
(2.336000) can0 1E5#286C04000000007E
(2.339000) can0 303#20000000FFFFFFFF
(2.341000) can0 2E5#0000242F00009100
(2.343000) can0 118#B96F950000C8D400
(2.345000) can0 108#345B09AA04CB2925
(2.347000) can0 261#340F984C00400461
(2.349000) can0 1D5#290000000000A09F
(2.351000) can0 709#0700000000000000
(2.353000) can0 241#6F6ED49B1B4500
(2.355000) can0 2E1#0400000000202607
(2.357000) can0 7D5#2B820F0000000000
(2.358000) can0 39D#FE56E12700
(2.360000) can0 23E#00003AC002FF7FBA
(2.362000) can0 252#7846627000FC0F00
(2.370000) can0 3FD#01000A0000080280
(2.379000) can0 118#9A61950000C8C4FF
(2.383000) can0 2E5#0000242E00009100
(2.388000) can0 257#2FAA87870AD04301
(2.390000) can0 45A#24393A3940443362
(2.392000) can0 122#00001392D2000000
(2.394000) can0 261#31003E00B1493A99
(2.396000) can0 441#D800B6C358003547
(2.398000) can0 2C1#0400000000000000
(2.400000) can0 263#0200C088123F4221
(2.402000) can0 2E1#398D2AFF0F000000
(2.403000) can0 118#AF65950000C8D400
(2.408000) can0 247#540DFF0700070100
(2.412000) can0 132#D384F0FB0938
(2.416000) can0 3FD#0200560000000090
(2.425000) can0 1D8#292C012400000053
(2.427000) can0 261#834D0A0000405565
(2.429000) can0 37D#015B0C5B00000000
(2.431000) can0 21D#0400B50000000000
(2.433000) can0 119#00000000
(2.435000) can0 118#8168950000C8A4FF
(2.437000) can0 3E8#0300000000000000
(2.439000) can0 234#30000331C504E0A8
(2.441000) can0 2B3#CD02A094C6716339
(2.443000) can0 118#5269950000C874FF
(2.446000) can0 257#32AD87870AD04301
(2.447000) can0 395#091F1F5313040B7D
(2.450000) can0 719#163C005A79010000
(2.451000) can0 262#0B00A8B200B09010
(2.454000) can0 7A8#0240BC07000F0000
(2.456000) can0 379#02000A48333F2100
(2.458000) can0 2C1#0219060000D09201
(2.460000) can0 3C8#0000000000000000
(2.462000) can0 212#5904000081FF7731
(2.468000) can0 103#22B38804A2EC2032
(2.470000) can0 123#01000000003F0000
(2.472000) can0 201#0200000000000000
(2.474000) can0 1D8#292E41240000C055
(2.476000) can0 129#B325F45FFF1FFF3F
(2.478000) can0 448#20001010000010
(2.480000) can0 263#690ED297BF4F7F00
(2.482000) can0 2E1#1021040010000004
(2.484000) can0 1D8#292E41240000E075
(2.487000) can0 102#22B3880494FAA009
(2.489000) can0 1D5#290000000000605F
(2.491000) can0 39A#1C23DB8A2B1FC77E
(2.492000) can0 122#01000000003F0000
(2.494000) can0 118#476E950000C864FF
(2.496000) can0 421#F21A0000002000
(2.498000) can0 2C1#0400000000000000
(2.500000) can0 263#0200C088123F4221
(2.502000) can0 381#0B00000000000000
(2.504000) can0 1D8#29308124000020F7
(2.507000) can0 261#322A9C01805CA26D
(2.511000) can0 3AE#11400008000090EA
(2.517000) can0 1F8#1A000000
(2.528000) can0 22A#00004915
(2.530000) can0 132#D184E5FB0338
(2.532000) can0 757#3200000000000000
(2.534000) can0 1E5#286C04000000007E
(2.538000) can0 3E8#0400000000000000
(2.539000) can0 132#D284E1FBF837
(2.541000) can0 2E5#0000242F00009100
(2.543000) can0 118#9C63950000C8C4FF
(2.545000) can0 108#8F8D09C204DC2925
(2.547000) can0 279#D0BDFC0150056502
(2.549000) can0 1D5#290000000000201F
(2.551000) can0 6C8#0100000000000000
(2.553000) can0 3A2#0110200000000000
(2.555000) can0 129#C92DF45F0020FF3F
(2.557000) can0 682#000000400411E015
(2.560000) can0 7D7#3240000000000000
(2.562000) can0 228#0106184C0060E1D6
(2.568000) can0 118#2F65950000C85400
(2.570000) can0 22B#FFFFFF03FEFFFFFF
(2.572000) can0 666#0000C800
(2.574000) can0 1D8#29308124000000D7
(2.576000) can0 287#54535657A6020302
(2.578000) can0 2E1#1021040010000004
(2.580000) can0 3A1#C1FFFF6D3D001039
(2.582000) can0 393#0380610000000000
(2.586000) can0 118#C167950000C8E400
(2.590000) can0 3AE#114000080000B00A
(2.594000) can0 2E5#0000242F00009100
(2.598000) can0 4E3#01D8050000002800
(2.604000) can0 7AA#4208E8F733052100
(2.606000) can0 227#9702000041000085
(2.608000) can0 3C2#0055555500006A05
(2.610000) can0 2E1#026D6602185C0000
(2.612000) can0 7E8#125C0AD0266F00AE
(2.613000) can0 1D8#2930812400008057
(2.615000) can0 129#4B23F45F0020FF3F
(2.617000) can0 261#834D0A0000401525
(2.619000) can0 339#02F1FE008007800F
(2.626000) can0 2B3#10000000001B0000
(2.628000) can0 396#090F11480E02117D
(2.629000) can0 472#FF288002007FFF07
(2.631000) can0 132#DB84E4FB1538
(2.633000) can0 2E5#0000242F00009100
(2.636000) can0 1D8#293081240000C097
(2.638000) can0 2E3#0300005B010B00
(2.640000) can0 263#04000000901C0000
(2.642000) can0 2E1#0400000000202607
(2.644000) can0 1D8#292E81240000E0B5
(2.646000) can0 128#0000EC0A02
(2.648000) can0 395#091F1F5313040B7D
(2.650000) can0 132#D584E6FBEE37
(2.652000) can0 545#B00358E09AA4990C
(2.654000) can0 1D8#292E412400000095
(2.656000) can0 7D5#3200000000000000
(2.658000) can0 2E1#6580080066E5306A
(2.660000) can0 3C8#0200000000000000
(2.662000) can0 139#00
(2.664000) can0 103#22B38804A4EC2032
(2.667000) can0 266#42001C4B1C00CD00
(2.669000) can0 42F#B126FE02FA00FF
(2.671000) can0 123#01000000003F0000
(2.673000) can0 201#0200000000000000
(2.675000) can0 2E1#1021040010000004
(2.676000) can0 3F5#0000C838830C0000
(2.678000) can0 360#0A00000000000000
(2.680000) can0 2B3#008B75628F6F5D70
(2.683000) can0 381#300000C000000000
(2.685000) can0 257#46B987870AD84301
(2.686000) can0 3A2#02A5FF7F03000000
(2.688000) can0 1D5#290000000000E0DF
(2.690000) can0 2E1#398D2AFF0F000000
(2.692000) can0 122#01000000003F0000
(2.697000) can0 1E5#286C04000000007E
(2.701000) can0 1D5#29000000000000FF
(2.707000) can0 118#3D63950000C86400
(2.712000) can0 1D5#290000000000201F
(2.714000) can0 221#6105555501054079
(2.716000) can0 082#017FFF1FFF039F03
(2.718000) can0 2C1#D86C7E00008A0200
(2.720000) can0 339#02F1FE008007800F
(2.723000) can0 400#00E0FBBEEFFB00
(2.725000) can0 2E5#0000242E00009100
(2.727000) can0 129#162EF45F0020FF3F
(2.729000) can0 545#020004000000B000
(2.730000) can0 243#04FC33013680FFFF
(2.732000) can0 41D#00
(2.735000) can0 376#04FFFFFFFF48464A
(2.737000) can0 656#0A011031FC000500
(2.739000) can0 35A#0000000000000000
(2.741000) can0 2B3#0178727A6B727482
(2.743000) can0 118#7167950000C89400
(2.749000) can0 257#49BC87870AD84301
(2.751000) can0 401#062A6F8A888A5E8A
(2.753000) can0 241#6E6E949B1B4500
(2.756000) can0 118#5268950000C87400
(2.758000) can0 3C2#2955000000000000
(2.765000) can0 263#700ED29FA74F1F00
(2.771000) can0 2F1#2B79008700000000
(2.777000) can0 201#0200000000000000
(2.781000) can0 2C1#431A900000000000
(2.787000) can0 118#C46B950000C8E4FF
(2.789000) can0 234#31E10380430054C7
(2.791000) can0 45A#24393A3940443362
(2.792000) can0 122#00001392D2000000
(2.794000) can0 1E5#286C0400000040BE
(2.796000) can0 421#F21A0000002000
(2.798000) can0 2BF#00000000000001
(2.800000) can0 132#DC84FFFB4F38
(2.805000) can0 361#2C0E190200
(2.811000) can0 282#74BCE10600E40224
(2.817000) can0 3FD#0000003C20000180
(2.826000) can0 1F8#1A000000
(2.828000) can0 364#3C82081F
(2.830000) can0 381#5410E00000002FFE
(2.833000) can0 25D#3741012A04F08703
(2.835000) can0 75D#0400000000000000
(2.836000) can0 266#41001C4B1C00CE00
(2.838000) can0 2E3#94126120850400
(2.840000) can0 263#04000000901C0000
(2.842000) can0 261#052237CA9A42F0EA
(2.845000) can0 1D8#2928C1230000606E
(2.847000) can0 279#C3B0FC0150056502
(2.849000) can0 2C2#555BA90680C112AA
(2.851000) can0 207#00140C0605000000
(2.853000) can0 24A#03
(2.855000) can0 7D5#2B820F0000000000
(2.857000) can0 315#0200021700000000
(2.859000) can0 1D5#29000000000000FF
(2.861000) can0 263#700ED29FA74F1F00
(2.868000) can0 3FD#01000A0000080280
(2.871000) can0 252#7C46617000FC0F00
(2.873000) can0 36B#0000000000000000
(2.875000) can0 1D8#292881230000C08E
(2.878000) can0 266#41001C4B1C00CD00
(2.880000) can0 7D7#3240000000000000
(2.882000) can0 263#690ED297BF4F7F00
(2.884000) can0 7D5#48687E000040DC55
(2.885000) can0 1E5#286C0400000060DE
(2.887000) can0 330#124D383930363133
(2.889000) can0 132#D984FDFB4338
(2.891000) can0 2E5#0000242F00009000
(2.893000) can0 420#2801404B00000004
(2.895000) can0 118#7F66950000C8A4FF
(2.897000) can0 421#F21A0000002000
(2.899000) can0 3FD#0000003C20000180
(2.902000) can0 2E1#026D6602185C0000
(2.905000) can0 266#40001C4B1C00CD00
(2.907000) can0 227#5E02000041000085
(2.909000) can0 132#E18407FC4F38
(2.911000) can0 2E5#0000242F00009000
(2.913000) can0 344#0000000000000047
(2.915000) can0 1E5#286C0400000040BE
(2.916000) can0 3A0#0000000000000000
(2.918000) can0 383#9118360035904004
(2.924000) can0 263#0300000000000000
(2.926000) can0 1E5#286C0400000060DE
(2.928000) can0 423#00001000000000
(2.931000) can0 132#E38405FC5D38
(2.933000) can0 119#00000000
(2.935000) can0 266#40001C4B1C00CD00
(2.938000) can0 3E8#0100000000000000
(2.939000) can0 132#ED8402FC4838
(2.941000) can0 2E5#0000242F00009000
(2.943000) can0 118#A46B950000C8C4FF
(2.945000) can0 126#4FE02E0C90
(2.947000) can0 279#C4B1FC0150056502
(2.949000) can0 3FD#01000A0000080280
(2.952000) can0 397#130080E31C1C0000
(2.954000) can0 1E5#286C0400000040BE
(2.956000) can0 7D5#2C3F3F0000000000
(2.965000) can0 3A8#2A80E9F51F00FFDF
(2.972000) can0 61D#00286D318E150908
(2.975000) can0 1D8#292401230000004A
(2.980000) can0 448#20001010000010
(2.986000) can0 545#010000000010308B
(2.990000) can0 7AA#0709FCFDFB5EF948
(2.994000) can0 122#00001392D2000000
(3.002000) can0 3FD#0200560000000090
(3.005000) can0 4E3#D5028201001C0000
(3.007000) can0 227#4B02000041000085
(3.009000) can0 132#E4840BFC6038
(3.014000) can0 2E5#0000242F00009000
(3.020000) can0 3A2#602573C41C00C36D
(3.026000) can0 318#1A063305103731EB
(3.032000) can0 726#0C0000
(3.039000) can0 1D8#292401230000C00A
(3.046000) can0 3AE#11400008000091EB
(3.053000) can0 397#130080E31C1C0000
(3.055000) can0 78A#01000100005DC05D
(3.057000) can0 7D7#3240000000000000
(3.059000) can0 1D5#290000000000807F
(3.061000) can0 3C8#0600000000000000
(3.063000) can0 2D2#F62EA04ECA12E822
(3.069000) can0 211#A511710F0001
(3.075000) can0 414#1000000000434956
(3.077000) can0 788#C4D4C18300009E00
(3.079000) can0 1D5#290000000000C0BF
(3.081000) can0 545#01000000001060BB
(3.082000) can0 3A2#02A5FF7F03000000
(3.085000) can0 266#3F001C4B1C00CD00
(3.088000) can0 20C#0018340CDD00300C
(3.090000) can0 132#E28416FC6C38
(3.092000) can0 2E5#0000242F00009100
(3.094000) can0 1D8#29220123000080C8
(3.095000) can0 441#D500B6C358002D3C
(3.097000) can0 301#21000000FFFFFFFF
(3.099000) can0 307#000000000000003B
(3.101000) can0 399#000000
(3.103000) can0 118#446B950000C864FF
(3.105000) can0 2F9#BCFB07100D1A8B84
(3.107000) can0 282#74BCE10600E40224
(3.109000) can0 1D5#290000000000201F
(3.111000) can0 2E5#0000242F00009100
(3.114000) can0 1F8#1A000000
(3.116000) can0 313#026464050000B095
(3.118000) can0 22A#00004915
(3.120000) can0 263#0300000000000000
(3.122000) can0 318#1A063305103733ED
(3.124000) can0 201#006F710000E4FF00
(3.126000) can0 1D8#2922C1220000E0E7
(3.128000) can0 257#44BF878702D84301
(3.130000) can0 132#EF841AFC6F38
(3.131000) can0 2E5#0000242F00009100
(3.133000) can0 1D8#2922C12200000007
(3.135000) can0 129#2827F35F0120FF3F
(3.137000) can0 3E8#0300000000000000
(3.139000) can0 677#0000000000000000
(3.142000) can0 2E5#0000242F00009100
(3.144000) can0 118#996F950000C8B400
(3.146000) can0 268#401C5E01FF
(3.148000) can0 397#130080E31C1C0000
(3.150000) can0 132#F08416FC6038
(3.152000) can0 283#060500004100
(3.154000) can0 1E5#286C0400000040BE
(3.156000) can0 379#090000000A000C03
(3.158000) can0 3C0#0100000000000000
(3.160000) can0 263#700ED29FA74F1F00
(3.162000) can0 212#5904000081FF7731
(3.168000) can0 118#0A61950000C834FF
(3.174000) can0 123#00001392D2000000
(3.176000) can0 419#00
(3.180000) can0 261#322A9C01805C420D
(3.186000) can0 393#0380610000000000
(3.191000) can0 20C#0018340CDD00300C
(3.197000) can0 122#00001392D2000000
(3.199000) can0 1D5#290000000000403F
(3.201000) can0 272#0380610000000000
(3.203000) can0 118#9E65950000C8C4FF
(3.204000) can0 1E5#286C0400000060DE
(3.207000) can0 282#64BCE106FCE30224
(3.208000) can0 40A#0910000000003057
(3.210000) can0 261#340F904C004064B9
(3.212000) can0 553#000000000000D028
(3.214000) can0 1E5#286C04000000007E
(3.216000) can0 253#0064A6C66490B505
(3.219000) can0 2E1#0400000000202607
(3.226000) can0 289#C80A078390003D8F
(3.228000) can0 396#090F12480E02117D
(3.230000) can0 132#E58417FC7738
(3.232000) can0 401#1E2A6E8A698A788A
(3.234000) can0 1E5#286C0400000040BE
(3.238000) can0 3E8#0400000000000000
(3.239000) can0 132#E48423FC8738
(3.241000) can0 2E5#0000242F00009100
(3.243000) can0 319#21000000FFFFFFFF
(3.245000) can0 108#A704096A04D52925
(3.247000) can0 2EC#574085
(3.249000) can0 207#00120E0605000000
(3.251000) can0 401#1F2A6F8A7C8A858A
(3.254000) can0 241#6D6E549B1B4500
(3.256000) can0 39B#0318FF80B084F05C
(3.258000) can0 3C2#2955000000000000
(3.261000) can0 3C8#0100000000000000
(3.264000) can0 2D2#F62EA04ECB12E822
(3.270000) can0 129#5F24F35F0020FF3F
(3.276000) can0 242#55558600
(3.281000) can0 448#20001010000010
(3.283000) can0 118#866D950000C8A4FF
(3.285000) can0 129#9226F35F0020FF3F
(3.287000) can0 20C#00F8330CDD00300C
(3.289000) can0 234#31E103804300F467
(3.291000) can0 401#2100000000000000
(3.293000) can0 420#2801404B00000006
(3.295000) can0 118#686E950000C88400
(3.297000) can0 724#030064
(3.300000) can0 718#02000000000000
(3.304000) can0 118#FA6F950000C81401
(3.305000) can0 261#340F804C0040C409
(3.307000) can0 6A1#0000000000
(3.314000) can0 744#AA
(3.316000) can0 3FD#0000003C20000180
(3.319000) can0 334#3F3F1408FF015223
(3.321000) can0 400#00E0FBBEEFFB00
(3.323000) can0 666#0000C800
(3.329000) can0 458#00002000000000
(3.332000) can0 2C3#0000C04B010040CB
(3.334000) can0 1D8#291E812200008043
(3.336000) can0 249#83050000
(3.338000) can0 3E8#0500000000000000
(3.340000) can0 132#E68425FC9338
(3.342000) can0 2E5#0000242F00009100
(3.344000) can0 266#3E001C4B1C00CD00
(3.346000) can0 129#492CF35F0020FF3F
(3.348000) can0 395#091F1F5313030B7D
(3.350000) can0 441#4B858900320000F4
(3.352000) can0 719#3302600000000000
(3.354000) can0 1E5#286C0400000040BE
(3.356000) can0 7D5#2B860F0000000000
(3.362000) can0 2C1#0219060000D09201
(3.370000) can0 3FD#01000A0000080280
(3.378000) can0 1D8#291C41220000E061
(3.382000) can0 545#010000000010F04B
(3.387000) can0 118#9067950000C8B4FF
(3.389000) can0 132#F28425FC8A38
(3.394000) can0 2E5#0000242F00009100
(3.398000) can0 4E3#0200000000002800
(3.402000) can0 272#0380610000000000
(3.406000) can0 118#0369950000C82400
(3.410000) can0 227#FC01000041000085
(3.413000) can0 3A2#604573C01C00C36D
(3.415000) can0 3FD#0200560000000090
(3.419000) can0 129#D923F35F0020FF3F
(3.421000) can0 2C4#018000D200000000
(3.423000) can0 7F4#01
(3.425000) can0 2B4#4A05480D7501
(3.427000) can0 2E1#6580080067E5306A
(3.429000) can0 33D#1A290ABE874AFA98
(3.431000) can0 21D#0400B50000000000
(3.433000) can0 757#3200000000000000
(3.435000) can0 266#3E001C4B1C00CD00
(3.438000) can0 3E8#0600000000000000
(3.439000) can0 132#F8842DFC8138
(3.441000) can0 2E5#0000242F00009000
(3.443000) can0 118#966D950000C8B4FF
(3.445000) can0 126#4CE02E34B5
(3.448000) can0 279#C9B6FC0150056502
(3.450000) can0 132#FE842CFCA138
(3.452000) can0 262#0B00A8B200B09010
(3.454000) can0 1E5#286C04000000007E
(3.456000) can0 379#00000B48333F2100
(3.458000) can0 2C1#0219060000D09201
(3.460000) can0 263#700ED29FA74F1F00
(3.462000) can0 212#5904000081FF7731
(3.465000) can0 221#6055551554513118
(3.467000) can0 238#8839F6383E00F85F
(3.468000) can0 1D5#290000000000A09F
(3.470000) can0 123#01000000003F0000
(3.472000) can0 287#54535657A7020302
(3.474000) can0 2E1#026D6602185B0000
(3.477000) can0 419#00
(3.478000) can0 39D#FA52E12700
(3.480000) can0 263#690ED297BF4F7F00
(3.482000) can0 393#080003D107B00304
(3.484000) can0 266#3E001C4B1C00CE00
(3.486000) can0 102#22B3880494FAA009
(3.488000) can0 20C#00F8330CDD00300C
(3.489000) can0 2E1#FB1FB10999AB0900
(3.492000) can0 2E5#0000242F00009000
(3.494000) can0 4E3#03FD000000002800
(3.496000) can0 441#D300B6C358000D1A
(3.498000) can0 321#2AC6A870027030CE
(3.500000) can0 132#F58432FC9138
(3.502000) can0 2E5#0000242F00009000
(3.504000) can0 118#DC63950000C804FF
(3.506000) can0 3C3#0000000000A50000
(3.508000) can0 227#0000000041000080
(3.510000) can0 381#0C00000000000000
(3.512000) can0 553#0000000000000058
(3.519000) can0 221#6105555501054079
(3.527000) can0 289#C80A07C39C003D8F
(3.533000) can0 1D5#290000000000605F
(3.539000) can0 552#000000000000A0F7
(3.541000) can0 2E5#0000242F00009100
(3.543000) can0 3A2#0110200000000000
(3.545000) can0 108#5EC7087204C22925
(3.547000) can0 225#5555FA00
(3.550000) can0 1D5#290000000000A09F
(3.551000) can0 2E5#0000242F00009100
(3.553000) can0 7A8#01000000FFA1E812
(3.555000) can0 129#9521F65F0520FF3F
(3.557000) can0 7D7#3240000000000000
(3.559000) can0 682#00000040041180B5
(3.561000) can0 2E5#0000242F00009100
(3.563000) can0 139#00
(3.569000) can0 1FA#1AC001
(3.575000) can0 414#1233585646544756
(3.580000) can0 788#0240C30700030000
(3.586000) can0 381#0E00000000E0FF00
(3.590000) can0 20C#00F8330CDD00300C
(3.595000) can0 122#00001392D2000000
(3.598000) can0 2C1#0400000000000000
(3.600000) can0 22B#FFFFFF01FEFFFFFF
(3.602000) can0 118#F76D950000C81400
(3.604000) can0 266#3E001C4B1C00CD00
(3.606000) can0 3C3#5555550100000000
(3.608000) can0 3C2#0055555500006A05
(3.610000) can0 3A2#6045F3BC1C00C36D
(3.612000) can0 7E8#1303000000000000
(3.613000) can0 1D8#291801220000003D
(3.615000) can0 129#CE27F75F0420FF3F
(3.618000) can0 2E1#6580080067E5306A
(3.620000) can0 132#EF8435FCA438
(3.626000) can0 318#1A06330510373DF7
(3.628000) can0 3D2#E8650703A0CB2903
(3.631000) can0 21D#0400B50000000000
(3.633000) can0 6A2#0000000000
(3.635000) can0 1E5#286C0400000040BE
(3.636000) can0 3E8#0100000000000000
(3.638000) can0 39D#FE56E12700
(3.640000) can0 2B3#10000000001B0000
(3.642000) can0 261#3100D7FFAF491A0F
(3.644000) can0 266#3D001C4B1C00CD00
(3.646000) can0 128#0000EC0A02
(3.648000) can0 201#0104980000000000
(3.651000) can0 132#02853DFCAB38
(3.653000) can0 241#6E6E949B1B4500
(3.655000) can0 381#300000C000000000
(3.657000) can0 7D5#3200000000000000
(3.659000) can0 1D5#29000000000000FF
(3.661000) can0 228#0106184C00609186
(3.663000) can0 118#6C63950000C894FF
(3.670000) can0 252#7F46607000FC0F00
(3.672000) can0 287#54535657A7020303
(3.674000) can0 1D8#2918C1210000C0BC
(3.676000) can0 3A2#02A5FF7F03000000
(3.677000) can0 448#20001010000010
(3.679000) can0 7AA#2316F8670513001C
(3.681000) can0 2E5#0000242F00009100
(3.684000) can0 118#6E65950000C894FF
(3.686000) can0 102#22B3880494FAA009
(3.688000) can0 20C#00F8330CDD00300C
(3.690000) can0 372#0155540350002C01
(3.694000) can0 2E5#0000242F00009100
(3.698000) can0 441#D200B6C358001D29
(3.704000) can0 272#080005E907B00304
(3.710000) can0 261#052237CA9A42504A
(3.712000) can0 3F9#0500000000000000
(3.714000) can0 221#61055555010580B9
(3.716000) can0 253#0064A6C66490B505
(3.722000) can0 2C1#D86C7E00008A0200
(3.724000) can0 186#B40A000200D32925
(3.726000) can0 396#090F11480E02117D
(3.729000) can0 381#5200000000002102
(3.731000) can0 2E1#1021040010000004
(3.733000) can0 376#0200FFFFFFFF0000
(3.735000) can0 118#F36A950000C814FF
(3.737000) can0 757#4849490000401256
(3.739000) can0 677#0000000000000000
(3.741000) can0 2E5#0000242F00009100
(3.743000) can0 118#456B950000C86400
(3.745000) can0 25B#D38000056A86A043
(3.747000) can0 207#0019100805000000
(3.749000) can0 2C2#2040C04B010080CB
(3.751000) can0 39B#0318FF80B084006C
(3.753000) can0 241#6E6E949B1B4500
(3.755000) can0 118#466C950000C86400
(3.758000) can0 7D7#323F000000000000
(3.760000) can0 132#04853CFCC438
(3.761000) can0 228#0106184C0060A196
(3.764000) can0 118#A66D950000C8C4FF
(3.767000) can0 2F1#02DAFB8043000000
(3.773000) can0 243#0100613362008585
(3.777000) can0 3A2#02A5FF7F03000000
(3.781000) can0 2E1#FB1FB11999A00900
(3.785000) can0 118#376F950000C854FE
(3.789000) can0 54F#0000000000000000
(3.791000) can0 3D8#3D003C00
(3.793000) can0 2A8#0101000006007022
(3.794000) can0 118#1A60950000C84400
(3.796000) can0 421#F21A0000002000
(3.807000) can0 2BF#00000000000001
(3.811000) can0 1D5#290000000000E0DF
(3.817000) can0 3FD#0000003C20000180
(3.825000) can0 1F8#1A000000
(3.831000) can0 7F1#01000000000800
(3.833000) can0 401#0A2A908A7E8A808A
(3.835000) can0 1D8#2918C1210000C0BC
(3.837000) can0 552#000000000000D027
(3.839000) can0 1D5#290000000000403F
(3.841000) can0 3A2#0110200000000000
(3.843000) can0 118#2F65950000C85400
(3.845000) can0 257#38B3878702D84301
(3.846000) can0 207#001B0E0806000000
(3.848000) can0 201#0104980000000000
(3.851000) can0 22B#FFFFFF01FEFFFFFF
(3.853000) can0 24A#03
(3.856000) can0 266#3D001B4B1C00CD00
(3.858000) can0 7D5#2B820F0000000000
(3.859000) can0 3C2#2955000000000000
(3.861000) can0 2E5#0000242F00009100
(3.868000) can0 3FD#01000A0000080280
(3.871000) can0 139#00
(3.873000) can0 37A#D00D000000000000
(3.875000) can0 2E1#FB1FB12999AB0900
(3.877000) can0 545#010000000010E03B
(3.879000) can0 448#20001010000010
(3.881000) can0 132#FE8436FCA338
(3.883000) can0 261#340F904C00400459
(3.885000) can0 266#3D001C4B1C00CD00
(3.888000) can0 249#9B000000
(3.890000) can0 2E1#0400000000202607
(3.892000) can0 122#01000000003F0000
(3.894000) can0 1D8#2918C1210000807C
(3.896000) can0 441#D200B6C358002D39
(3.897000) can0 737#04000000E0F080
(3.899000) can0 3FD#0000003C20000180
(3.903000) can0 333#0410590700
(3.904000) can0 257#3BB6878702D84301
(3.906000) can0 381#1700000000000000
(3.908000) can0 3E2#040000511FCF00
(3.910000) can0 3AE#17400008000060C0
(3.912000) can0 553#0000000000004098
(3.915000) can0 386#0000000000000000
(3.917000) can0 380#0000000000000000
(3.919000) can0 294#14C1400040000000
(3.921000) can0 113#019701
(3.923000) can0 7FF#0800000100000000
(3.925000) can0 201#006F6F0000E4FF00
(3.927000) can0 266#3D001C4B1C00CD00
(3.929000) can0 4E2#01400EFF0F002800
(3.931000) can0 261#31001C00AF493A75
(3.933000) can0 757#2C3F3E0000000000
(3.935000) can0 552#000000000000E037
(3.936000) can0 3E8#0400000000000000
(3.938000) can0 2C1#2163186402000000
(3.940000) can0 263#04000000901C0000
(3.943000) can0 381#1800000000000000
(3.946000) can0 126#4BE02E5CDC
(3.948000) can0 2B6#000300
(3.949000) can0 3FD#01000A0000080280
(3.952000) can0 719#0300000000000000
(3.954000) can0 2E1#026D6602195A0000
(3.956000) can0 379#0500C07C800D0000
(3.958000) can0 1D5#290000000000C0BF
(3.963000) can0 263#700ED29FA74F1F00
(3.969000) can0 266#3D001C4B1C00CE00
(3.975000) can0 123#00001392D2000000
(3.977000) can0 788#C4D4C18300009E00
(3.981000) can0 1D5#29000000000000FF
(3.985000) can0 118#DD63950000C80400
(3.989000) can0 54F#0000000000000000
(3.995000) can0 45A#24393A3940443362
(4.004000) can0 3FD#0200560000000090
(4.011000) can0 421#F21A0000002000
(4.013000) can0 1F8#1A000000
(4.015000) can0 118#7F66950000C8A4FF
(4.022000) can0 2E1#1021040010000004
(4.030000) can0 264#3A000000A000
(4.036000) can0 757#2C3F3E0000000000
(4.041000) can0 3E8#0500000000000000
(4.043000) can0 118#E369950000C80400
(4.048000) can0 126#4BE02E64E4
(4.052000) can0 132#00852DFC8D38
(4.056000) can0 7A8#C8CCB18300008200
(4.060000) can0 682#000000400411D005
(4.065000) can0 2D2#F62EA04ECC12E822
(4.068000) can0 7AA#0800000018011B0E
(4.070000) can0 123#01000000003F0000
(4.072000) can0 414#1133535459323530
(4.074000) can0 1D8#291A01220000C0FF
(4.076000) can0 419#00
(4.078000) can0 2C1#431A900000000000
(4.080000) can0 3A1#C1FFFF2B3D00F0D7
(4.081000) can0 2E1#0400000000202607
(4.083000) can0 118#876D950000C8A400
(4.086000) can0 129#FC26F95FFE1FFF3F
(4.088000) can0 1D5#290000000000605F
(4.090000) can0 243#02FC6B1004BA0000
(4.092000) can0 122#01000000003F0000
(4.094000) can0 4E3#0200000000002800
(4.097000) can0 441#D300B6C358003D4A
(4.099000) can0 1D5#290000000000807F
(4.101000) can0 22B#FFFFFF01FEFFFFFF
(4.103000) can0 118#986F950000C8B4FF
(4.105000) can0 1E5#286C04000000209E
(4.106000) can0 282#64BCF106FCE30224
(4.108000) can0 1D5#290000000000A09F
(4.110000) can0 401#182AD08A748A848A
(4.112000) can0 3F9#0000000000000000
(4.119000) can0 221#6105555501050039
(4.121000) can0 289#C80C87C2A5003D8F
(4.127000) can0 458#00002000000000
(4.129000) can0 31E#0100000000000000
(4.131000) can0 3A1#844C0FCA001C0287
(4.134000) can0 387#6D75635D60630040
(4.135000) can0 249#83050000
(4.137000) can0 3A2#0110200000000000
(4.139000) can0 234#30000331C50400C8
(4.141000) can0 422#700010000000
(4.143000) can0 118#AD63950000C8D400
(4.145000) can0 128#0000EC0A02
(4.147000) can0 279#D0BDFC0150056502
(4.149000) can0 2C2#2040C04B010080CB
(4.152000) can0 2E5#0000242F00009100
(4.153000) can0 7A8#01000000FFA1E812
(4.155000) can0 266#3E001C4B1C00CE00
(4.157000) can0 3A8#0300000000000000
(4.159000) can0 132#EC842BFC8838
(4.161000) can0 2E5#0000242F00009100
(4.168000) can0 139#00
(4.170000) can0 287#54535657A7020302
(4.172000) can0 242#55558600
(4.173000) can0 545#01000000001070CB
(4.175000) can0 129#372FF85FFD1FFF3F
(4.177000) can0 359#3300000000000000
(4.179000) can0 360#0300800000000000
(4.181000) can0 2E5#0000242F00009100
(4.185000) can0 118#6167950000C88400
(4.189000) can0 20C#00F8330CDD00300C
(4.195000) can0 39A#51FFFDFDFD01000A
(4.201000) can0 421#F21A0000002000
(4.203000) can0 118#5369950000C87400
(4.205000) can0 2F9#BCFB070800000000
(4.209000) can0 6A1#0000000000
(4.210000) can0 2E1#1021040010000004
(4.212000) can0 3F9#0100000000000000
(4.218000) can0 221#6105555501052059
(4.220000) can0 709#0D00000000000000
(4.222000) can0 7AA#0A87068706005A00
(4.224000) can0 458#00002000000000
(4.226000) can0 2C4#49D9052FA69C258A
(4.228000) can0 1F9#0000000000000000
(4.230000) can0 25D#3741012A04F08803
(4.232000) can0 3A1#844C0FCA001C22A7
(4.234000) can0 1E5#286C0400000040BE
(4.236000) can0 545#F0035D209BA79995
(4.238000) can0 2C1#2163186402000000
(4.241000) can0 439#0000000000185A04
(4.242000) can0 340#0400000000000000
(4.244000) can0 1E5#286C0400000060DE
(4.246000) can0 129#A526F85FFF1FFF3F
(4.248000) can0 397#030080E31C1E0000
(4.250000) can0 22B#FFFFFF01FEFFFFFF
(4.252000) can0 241#6F6ED49B1B4500
(4.255000) can0 78A#0100060003000000
(4.257000) can0 7D7#3240000000000000
(4.259000) can0 1D5#290000000000807F
(4.261000) can0 3C8#0400000000000000
(4.263000) can0 2D2#F52EA04ECC12E822
(4.265000) can0 211#B11D710F0001
(4.273000) can0 3B3#8C8004300100A800
(4.283000) can0 266#3F001C4B1C00CE00
(4.287000) can0 257#3EB9878702D84301
(4.291000) can0 234#31E10380430034A7
(4.295000) can0 122#01000000003F0000
(4.297000) can0 724#040000
(4.299000) can0 677#0400000000000000
(4.301000) can0 343#0092688E97000000
(4.304000) can0 3A2#604573BE0400C36D
(4.306000) can0 2E1#1021040010000004
(4.308000) can0 3C2#0055555500006A05
(4.310000) can0 132#F48420FC7B38
(4.311000) can0 553#00000000000080D8
(4.313000) can0 1F8#1A000000
(4.315000) can0 3FD#0000003C20000180
(4.318000) can0 266#3E001C4B1C00CE00
(4.321000) can0 289#C80C87428C003D8F
(4.323000) can0 666#0000C800
(4.325000) can0 458#00002000000000
(4.327000) can0 27A#56B00C0154056202
(4.329000) can0 1F9#0000000000000000
(4.332000) can0 21D#0400B50000000000
(4.334000) can0 757#2C3F3E0000000000
(4.335000) can0 129#422FF85FFF1FFF3F
(4.337000) can0 3E8#0100000000000000
(4.339000) can0 381#0800000000000000
(4.341000) can0 2E5#0000242F00009100
(4.343000) can0 118#1067950000C834FF
(4.345000) can0 126#4CE02E7CFD
(4.347000) can0 268#401C5E01FF
(4.350000) can0 2C2#2040C04B010080CB
(4.352000) can0 283#090700004100
(4.353000) can0 7A8#C4CCB18300008200
(4.355000) can0 266#3F001C4B1C00CD00
(4.357000) can0 3A8#F4E07F7BFD0F0000
(4.362000) can0 132#E98417FC6338
(4.368000) can0 352#0100130136040006
(4.372000) can0 3FD#01000A0000080280
(4.379000) can0 2E8#010100000600E0D2
(4.381000) can0 2E5#0000242F00009100
(4.383000) can0 118#056B950000C82400
(4.385000) can0 129#6824F85FFF1FFF3F
(4.387000) can0 54F#0000000000000000
(4.389000) can0 234#30E10380430054C6
(4.396000) can0 39A#55FFFDFDFD01000A
(4.402000) can0 2C1#0400000000000000
(4.407000) can0 118#666D950000C884FF
(4.409000) can0 247#570DFF0000000000
(4.412000) can0 381#0A00000000000000
(4.414000) can0 1E5#286C04000000007E
(4.416000) can0 409#00
(4.417000) can0 2E1#398D2AFF0F000000
(4.419000) can0 3FD#0200560000000090
(4.423000) can0 339#02F1FE008007800F
(4.425000) can0 201#00706F0000E4FF00
(4.427000) can0 129#0C28F85F0020FF3F
(4.428000) can0 6A2#0000000000
(4.430000) can0 21D#0400B50000000000
(4.432000) can0 41D#00
(4.435000) can0 1E5#286C0400000040BE
(4.437000) can0 3E8#0200000000000000
(4.440000) can0 1D5#290000000000C0BF
(4.441000) can0 422#700010000000
(4.443000) can0 118#FB61950000C82400
(4.445000) can0 257#1EA1878702D04301
(4.447000) can0 2EC#570045
(4.449000) can0 441#4B8589003200180C
(4.451000) can0 7AA#C0E38E3C00088C29
(4.453000) can0 78A#01000100E85CB45D
(4.455000) can0 266#40001C4B1C00CD00
(4.457000) can0 7D7#3240000000000000
(4.459000) can0 3C0#0300000000000000
(4.461000) can0 3C8#0600000000000000
(4.464000) can0 2D2#F62EA04ECC12E822
(4.466000) can0 257#1FA2878702D04301
(4.468000) can0 1D5#290000000000201F
(4.470000) can0 123#01000000003F0000
(4.472000) can0 201#0200000000000000
(4.474000) can0 261#052237CA9A42504A
(4.476000) can0 3A3#16D00000280DFC01
(4.478000) can0 20E#110100
(4.480000) can0 3AE#0F4000080000C119
(4.482000) can0 2E1#6580080068E5306A
(4.484000) can0 1D8#292401230000E02A
(4.486000) can0 102#22B3880494FAA009
(4.488000) can0 20C#00F8330CDD00300C
(4.490000) can0 132#E1840CFC4E38
(4.492000) can0 2E5#0000242F00009100
(4.500000) can0 118#2066950000C84400
(4.502000) can0 545#020003000000105F
(4.504000) can0 1D8#29244123000020AA
(4.505000) can0 261#31000900B3497AA6
(4.508000) can0 3E2#040000612FCF00
(4.509000) can0 132#E38407FC4738
(4.511000) can0 553#000000000000A0F8
(4.513000) can0 1F8#1A000000
(4.515000) can0 129#B021F85FFF1FFF3F
(4.518000) can0 2C1#D86C7E00008A0200
(4.526000) can0 263#0300000000000000
(4.530000) can0 6A2#0000000000
(4.536000) can0 2E5#0000242F00009100
(4.538000) can0 261#834D0A00004095A5
(4.541000) can0 439#0000000000185A04
(4.543000) can0 118#456B950000C86400
(4.545000) can0 25B#D38000056A8620C3
(4.547000) can0 2EC#571055
(4.549000) can0 719#140000000000CA00
(4.551000) can0 2E5#0000242F00009100
(4.553000) can0 3AA#0000000000000000
(4.555000) can0 266#40001C4B1C00CD00
(4.557000) can0 7D5#2C3F3F0000000000
(4.559000) can0 1D5#290000000000403F
(4.561000) can0 23E#00003AC002FFEF2A
(4.563000) can0 2D2#F62EA04ECC12E822
(4.565000) can0 266#40001C4B1C00CD00
(4.567000) can0 353#FB0F39801A10FA05
(4.570000) can0 2AA#57F0F3
(4.572000) can0 31A#200100000000D00E
(4.574000) can0 118#B76E950000C8D4FF
(4.576000) can0 3A3#16C00000280DFC01
(4.578000) can0 2C1#431A900000000000
(4.580000) can0 3A1#C1FFFF6F3D0090BB
(4.582000) can0 393#0380610000000000
(4.584000) can0 1D8#29244123000020AA
(4.586000) can0 229#460000
(4.587000) can0 20C#00F8330CDD00300C
(4.590000) can0 132#E4840AFC3F38
(4.591000) can0 2E5#0000242F00009100
(4.593000) can0 1D8#29264123000040CC
(4.595000) can0 129#CF29F75FFF1FFF3F
(4.603000) can0 2C1#0400000000000000
(4.609000) can0 257#3EB9878702D84301
(4.614000) can0 247#560DFF0000000000
(4.618000) can0 355#800C00FF940000
(4.620000) can0 339#02F1FE008007800F
(4.621000) can0 2C4#4D80000200000000
(4.623000) can0 7FF#06003200000000C0
(4.625000) can0 1D8#292441230000A02A
(4.627000) can0 311#FF03
(4.629000) can0 3F2#001C2B7E02000000
(4.631000) can0 21D#0400B50000000000
(4.633000) can0 243#04FC53013E80FFFF
(4.635000) can0 757#2C3F3E0000000000
(4.636000) can0 1E5#286C0400000040BE
(4.639000) can0 3E8#0400000000000000
(4.642000) can0 45A#FD07F8FF03002F08
(4.644000) can0 1D8#292441230000E06A
(4.646000) can0 129#DA2EF85F0020FF3F
(4.648000) can0 395#091F1F5313030B7D
(4.650000) can0 132#E7840BFC4F38
(4.651000) can0 283#0A0800004100
(4.654000) can0 1D8#292441230000008A
(4.655000) can0 129#2B2FF85F0020FF3F
(4.658000) can0 2E2#E211194949490900
(4.660000) can0 132#F1840DFC5A38
(4.661000) can0 228#0106184C00603126
(4.663000) can0 118#3167950000C85400
(4.666000) can0 252#83465F7000FC0F00
(4.668000) can0 2F1#2B73008700000000
(4.671000) can0 2AA#570003
(4.673000) can0 42F#B126FE02FA00FF
(4.675000) can0 118#B168950000C8D4FF
(4.676000) can0 788#01000000FFA1F812
(4.678000) can0 1D5#290000000000C0BF
(4.680000) can0 3A1#C1FFFF293D00B095
(4.682000) can0 393#080003D107B00304
(4.684000) can0 266#40001C4B1C00CD00
(4.686000) can0 2D1#FF01
(4.688000) can0 20C#00F8330CDD00300C
(4.690000) can0 132#E2840AFC4638
(4.691000) can0 2E5#0000242F00009100
(4.696000) can0 1D8#292441230000800A
(4.702000) can0 7BC#0101000600010000
(4.709000) can0 1D8#292401230000A0EA
(4.713000) can0 247#570DFF0000000000
(4.715000) can0 118#D66C950000C8F400
(4.717000) can0 2C1#D86C7E00008A0200
(4.718000) can0 1D5#290000000000403F
(4.725000) can0 263#0300000000000000
(4.727000) can0 257#44BF878702D84301
(4.729000) can0 4E2#025D040000002800
(4.731000) can0 261#834D0A0000405565
(4.733000) can0 545#F0035D909AA289EF
(4.735000) can0 1E5#286C04000000007E
(4.736000) can0 552#00000000000060B7
(4.739000) can0 3E8#0500000000000000
(4.741000) can0 439#0000000000185A04
(4.744000) can0 207#0023160A07000000
(4.746000) can0 1D6#000800004A029808
(4.748000) can0 397#030080E31C1C0000
(4.750000) can0 132#EA840BFC4D38
(4.752000) can0 283#0A0800004100
(4.753000) can0 1D8#2922012300004088
(4.755000) can0 129#F429F85F0120FF3F
(4.757000) can0 682#0000004004114075
(4.759000) can0 7AA#04000FC000260000
(4.761000) can0 2E5#0000242F00009100
(4.763000) can0 292#9689E59966010000
(4.769000) can0 221#605555155451D1B8
(4.774000) can0 381#5410C00000002FFE
(4.780000) can0 3A3#16D00000280DFC01
(4.785000) can0 393#0380610000000000
(4.789000) can0 54F#0000000000000000
(4.796000) can0 39A#61FFFDFDFD01000A
(4.798000) can0 201#0300000000000000
(4.800000) can0 361#2C0E190200
(4.802000) can0 2E5#0000242F00009100
(4.804000) can0 266#3E001C4B1C00CE00
(4.806000) can0 3C3#5555550100000000
(4.808000) can0 3C2#0055555500006A05
(4.810000) can0 261#322A9C01805CA26D
(4.812000) can0 553#000000000000D028
(4.814000) can0 1D8#291EC12200000003
(4.818000) can0 3FD#0000003C20000180
(4.832000) can0 04F#599E9943682A160E
(4.836000) can0 545#F0035D209BABB9B9
(4.838000) can0 1D5#290000000000C0BF
(4.840000) can0 263#04000000901C0000
(4.842000) can0 207#0021190A07000000
(4.844000) can0 266#3F001C4B1C00CE00
(4.846000) can0 128#0000EC0A02
(4.848000) can0 397#030080E31C1C0000
(4.850000) can0 2E1#0400000000202607
(4.852000) can0 283#0A0800004100
(4.854000) can0 1E5#286C04000000007E
(4.856000) can0 315#01474700584A0000
(4.859000) can0 2E2#F7D34F4001000000
(4.861000) can0 263#700ED29FA74F1F00
(4.862000) can0 252#84465F7000FC0F00
(4.865000) can0 118#656B950000C88400
(4.867000) can0 3FD#01000A0000080280
(4.871000) can0 1E5#286C04000000209E
(4.872000) can0 36B#0000000000000000
(4.874000) can0 677#0300000000000000
(4.876000) can0 118#E76C950000C80401
(4.878000) can0 359#C23F00000B00001C
(4.880000) can0 381#1700000000000000
(4.882000) can0 7D5#42F8009200002900
(4.885000) can0 7D5#48687E000040DC55
(4.887000) can0 249#D3040000
(4.888000) can0 1D5#290000000000605F
(4.890000) can0 243#02FC6B1004BA0000
(4.892000) can0 122#01000000003F0000
(4.895000) can0 4E3#03FD000000002800
(4.897000) can0 421#F21A0000002000
(4.899000) can0 3FD#0000003C20000180
(4.902000) can0 333#0410590700
(4.904000) can0 266#3E001C4B1C00CD00
(4.906000) can0 261#322A9C01805C02CD
(4.908000) can0 3C2#0055555500006A05
(4.910000) can0 401#0E2A708A788A8C8A
(4.912000) can0 553#000000000000E038
(4.914000) can0 1F8#1A000000
(4.916000) can0 381#1800000000000000
(4.918000) can0 1D5#290000000000C0BF
(4.920000) can0 23E#00003AC002FF7FBA
(4.922000) can0 318#1A063505103737F3
(4.924000) can0 3AE#134000080000B00C
(4.927000) can0 201#0070700000E4FF00
(4.928000) can0 6A2#0000000000
(4.930000) can0 132#00853FFCAD38
(4.932000) can0 3A2#0110200000000000
(4.934000) can0 1E5#286C04000000007E
(4.938000) can0 3E8#0000000000000000
(4.939000) can0 132#F3842DFC9338
(4.942000) can0 422#700010000000
(4.944000) can0 266#3D001B4B1C00CD00
(4.946000) can0 1D6#000800004A029808
(4.948000) can0 3AE#144000080000C01D
(4.950000) can0 3FD#01000A0000080280
(4.953000) can0 132#FB843CFCC538
(4.955000) can0 118#9D64950000C8C4FF
(4.958000) can0 7D5#3200000000000000
(4.967000) can0 132#F38430FC8B38
(4.973000) can0 2AA#573033
(4.976000) can0 118#E066950000C80400
(4.978000) can0 20E#160600
(4.980000) can0 3A1#C1FFFF513D00101D
(4.984000) can0 393#0380610000000000
(4.988000) can0 249#4C060000
(4.992000) can0 132#FB8445FCC138
(4.998000) can0 1D8#29144121000040B8
(5.002000) can0 3FD#0200560000000090
(5.005000) can0 719#3302600000000000
(5.007000) can0 282#6CBCF10600E40224
(5.009000) can0 132#018535FC9938
(5.011000) can0 243#030000001F735300
(5.013000) can0 3F9#0000000000000000
(5.015000) can0 129#B923FC5F0620FF3F
(5.017000) can0 261#834D0A0000407585
(5.019000) can0 383#9118360035C04004
(5.032000) can0 2C4#550001081000FF00
(5.041000) can0 129#8525FC5F0720FF3F
(5.047000) can0 118#276D950000C84400
(5.051000) can0 2C2#555BA90680C112AA
(5.054000) can0 241#6D6E549B1B4500
(5.056000) can0 379#0400A77F800D0200
(5.058000) can0 1D5#290000000000807F
(5.060000) can0 263#700ED29FA74F1F00
(5.062000) can0 228#0106184C00607166
(5.064000) can0 221#6055551554513118
(5.067000) can0 129#4728FC5F0420FF3F
(5.068000) can0 2AA#574043
(5.070000) can0 243#0100613362008585
(5.072000) can0 55A#0200000000000000
(5.075000) can0 2E1#1021040010000004
(5.077000) can0 359#440400008AAB72AE
(5.079000) can0 360#0100000000000000
(5.081000) can0 23E#00003AC002FFBFFA
(5.083000) can0 118#1B61950000C84400
(5.085000) can0 288#0106184C006081D6
(5.087000) can0 20C#00F8330CDD00300C
(5.089000) can0 234#31E10380430034A7
(5.091000) can0 243#02FC6B1004BA0000
(5.093000) can0 122#01000000003F0000
(5.095000) can0 266#3A001B4A1B00CD00
(5.097000) can0 301#0B06000000000000
(5.099000) can0 677#0400000000000000
(5.102000) can0 2E5#0000242F00009100
(5.104000) can0 266#3B001B4A1B00CD00
(5.106000) can0 2E1#026D66021A580000
(5.108000) can0 3E2#040000511FCF00
(5.109000) can0 132#068553FCD338
(5.112000) can0 2E5#0000242F00009100
(5.114000) can0 1D8#290E81200000C071
(5.116000) can0 129#252DFD5F0220FF3F
(5.122000) can0 2C1#D86C7E00008A0200
(5.124000) can0 264#3B000000A000
(5.126000) can0 2E1#FB1FAE0999A00900
(5.128000) can0 6A2#0000000000
(5.130000) can0 243#04FC53013E80FFFF
(5.132000) can0 4E2#0600000000000000
(5.135000) can0 1E5#286C04000000007E
(5.137000) can0 3E8#0200000000000000
(5.139000) can0 2E1#0400000000202607
(5.141000) can0 207#0021190A09000000
(5.143000) can0 118#3167950000C85400
(5.149000) can0 108#D577082204D92925
(5.151000) can0 2E5#0000242F00009100
(5.153000) can0 241#6F6ED49B1B4500
(5.155000) can0 118#1268950000C83400
(5.157000) can0 7D5#2C3F3F0000000000
(5.159000) can0 3C0#0A00000000000000
(5.161000) can0 3A2#E2A4FFFF02000000
(5.163000) can0 118#C269950000C8E4FF
(5.165000) can0 221#6055551554515138
(5.168000) can0 381#0400000000000000
(5.170000) can0 123#00001392D2000000
(5.172000) can0 31A#200100000000003E
(5.174000) can0 118#346A950000C85400
(5.176000) can0 3A3#16D00000280DFC01
(5.178000) can0 261#3100CEFFAC491A03
(5.180000) can0 3A1#C1FFFF6F3D00507B
(5.182000) can0 393#0380610000000000
(5.183000) can0 1D8#290E81200000A051
(5.186000) can0 102#22B3880494FAA009
(5.188000) can0 20C#00F8330CDD00300C
(5.192000) can0 132#0D854FFCB938
(5.196000) can0 545#02000600000060B2
(5.202000) can0 3F6#00050000B6340001
(5.207000) can0 1D8#290E81200000E091
(5.210000) can0 132#0F855FFCF938
(5.212000) can0 3F9#0200000000000000
(5.214000) can0 221#6105555501056099
(5.218000) can0 285#2445605872000000
(5.219000) can0 677#0200000000000000
(5.226000) can0 204#010000FF00000010
(5.228000) can0 1F9#0000000000000000
(5.230000) can0 3AE#17400008000081E1
(5.232000) can0 372#0AA04106010000AA
(5.234000) can0 119#00000000
(5.236000) can0 129#0C29FD5F0020FF3F
(5.238000) can0 1D5#290000000000C0BF
(5.240000) can0 263#04000000901C0000
(5.243000) can0 261#052238CA9A42504B
(5.245000) can0 25B#D38000056A869033
(5.247000) can0 279#CFB8FC0154056502
(5.249000) can0 2C2#555BA90680C112AA
(5.251000) can0 401#1F2A818A8E8A978A
(5.253000) can0 241#6F6ED49B1B4500
(5.255000) can0 118#CB62950000C8F4FF
(5.256000) can0 682#00000040041190C5
(5.258000) can0 261#0010FCFFFF4F60AF
(5.260000) can0 263#700ED29FA74F1F00
(5.262000) can0 252#86465F7000FC0F00
(5.265000) can0 103#22B38804A2EC2032
(5.267000) can0 287#54535657A7020403
(5.269000) can0 2AA#576063
(5.275000) can0 2E5#0000242F00009100
(5.281000) can0 788#01000000FFA1F812
(5.285000) can0 118#EF65950000C81400
(5.289000) can0 20C#00F8330CDD00300C
(5.295000) can0 261#322A9C01805C824D
(5.299000) can0 421#F21A0000002000
(5.301000) can0 428#20001010000010
(5.303000) can0 118#5067950000C874FF
(5.305000) can0 2F9#BCFB07030D1A8B84
(5.306000) can0 282#64BCF10600E40224
(5.308000) can0 1D5#290000000000A09F
(5.311000) can0 243#030000001F735300
(5.313000) can0 1D8#290E8120000040F1
(5.316000) can0 3FD#0000003C20000180
(5.323000) can0 118#B268950000C8D400
(5.325000) can0 458#00002000000000
(5.331000) can0 31F#74487A477B477B47
(5.333000) can0 41D#00
(5.335000) can0 266#3B001B4A1B00CD00
(5.337000) can0 3E8#0400000000000000
(5.339000) can0 303#0B07000000000000
(5.341000) can0 263#04000000901C0000
(5.343000) can0 118#C46B950000C8E4FF
(5.345000) can0 108#1079083A04FA2925
(5.347000) can0 225#5555FA00
(5.348000) can0 201#0104980000000000
(5.354000) can0 243#00FCCF4C97240E29
(5.360000) can0 7D5#2B870F0000000000
(5.366000) can0 2D2#F62EA14ECD12E822
(5.369000) can0 3FD#01000A0000080280
(5.372000) can0 3AE#174000080000C020
(5.374000) can0 118#E96E950000C80401
(5.376000) can0 788#0240C20700030000
(5.378000) can0 1D5#290000000000807F
(5.380000) can0 263#690ED297BF4F7F00
(5.382000) can0 381#0A00000000000000
(5.384000) can0 266#3B001B4A1B00CE00
(5.386000) can0 102#22B3880494FAA009
(5.388000) can0 20C#00D8330CDD00300C
(5.392000) can0 22B#FFFFFF00FEFFFFFF
(5.397000) can0 1D8#29108120000040F3
(5.403000) can0 1D5#290000000000C0BF
(5.409000) can0 2F9#BCFB070800000000
(5.411000) can0 2E5#0000242F00009100
(5.413000) can0 1D8#2910812000008033
(5.415000) can0 266#3B001B4B1B00CE00
(5.417000) can0 3FD#0200560000000090
(5.420000) can0 261#340F884C00400451
(5.422000) can0 2C4#204000D200000000
(5.423000) can0 7FF#0500000120008000
(5.425000) can0 3AE#164000080000E140
(5.427000) can0 257#4FC2878702E04301
(5.430000) can0 6A2#0000000000
(5.432000) can0 2E5#0000242F00009100
(5.435000) can0 757#3200000000000000
(5.436000) can0 3E8#0500000000000000
(5.438000) can0 1D5#290000000000403F
(5.441000) can0 263#04000000901C0000
(5.443000) can0 340#0400000000000000
(5.444000) can0 257#50C3878702E04301
(5.446000) can0 225#5555FA00
(5.448000) can0 201#0104980000000000
(5.450000) can0 243#00FCCF4C97240E29
(5.452000) can0 241#6D6E549B1B4500
(5.454000) can0 381#0C00000000000000
(5.456000) can0 379#080000000B000C03
(5.459000) can0 1FB#0000000000000000
(5.461000) can0 677#0300000000000000
(5.463000) can0 252#86465F7000FC0F00
(5.470000) can0 1FA#1AC001
(5.472000) can0 201#0200000000000000
(5.474000) can0 1D8#2912C12000004035
(5.475000) can0 3F5#0000C838830C0000
(5.477000) can0 359#4900000000000000
(5.479000) can0 132#FE8445FCCB38
(5.481000) can0 407#160B000000000000
(5.483000) can0 118#3369950000C85400
(5.485000) can0 288#0106184C0060C116
(5.487000) can0 20C#00D8330CDD00300C
(5.489000) can0 234#30E103804300B426
(5.492000) can0 381#0D00000000000000
(5.493000) can0 1D8#29120121000080B6
(5.496000) can0 441#E000B6C358002D47
(5.498000) can0 321#2AC6A870027050EE
(5.500000) can0 272#080005E107B00304
(5.502000) can0 718#03000000000000
(5.504000) can0 266#3C001B4B1B00CE00
(5.506000) can0 2E1#FB1FAF1999AB0900
(5.508000) can0 3C2#0055555500006A05
(5.510000) can0 243#030000001F735300
(5.512000) can0 247#5A0DFF0000000000
(5.514000) can0 1D8#291201210000C0F6
(5.515000) can0 409#00
(5.518000) can0 2C1#D86C7E00008A0200
(5.520000) can0 263#0300000000000000
(5.525000) can0 224#0408004019011008
(5.533000) can0 381#0E00000000E0FF00
(5.537000) can0 118#E86E950000C80400
(5.543000) can0 1D5#290000000000807F
(5.547000) can0 108#4AAB085204EA2925
(5.549000) can0 132#FD8446FCD238
(5.551000) can0 2E5#0000242F00009100
(5.553000) can0 3AA#0000000000000000
(5.555000) can0 22B#FFFFFF00FCFFFFFF
(5.557000) can0 3A2#02A5FF7F03000000
(5.559000) can0 3C0#0300000000000000
(5.561000) can0 2B3#CE2B5E0100151900
(5.564000) can0 2D2#F62EA04ECD12E822
(5.566000) can0 129#DC2AFB5FFF1FFF3F
(5.568000) can0 3AE#154000080000207E
(5.570000) can0 2E8#010100000600A092
(5.572000) can0 2E5#0000242F00009100
(5.574000) can0 666#0000C800
(5.576000) can0 419#00
(5.578000) can0 20E#140400
(5.580000) can0 3A1#C1FFFF353D00D0C1
(5.581000) can0 393#0380610000000000
(5.584000) can0 1D8#291441210000A018
(5.586000) can0 102#22B3880494FAA009
(5.587000) can0 20C#00D8330CDD00300C
(5.589000) can0 132#FE8442FCCB38
(5.593000) can0 39A#69FFFDFDFD01000A
(5.597000) can0 118#3E64950000C86400
(5.603000) can0 1D5#290000000000403F
(5.610000) can0 22B#FFFFFF00FCFFFFFF
(5.613000) can0 227#0000000041000080
(5.614000) can0 118#0F66950000C834FF
(5.618000) can0 2C1#D86C7E00008A0200
(5.619000) can0 677#0200000000000000
(5.621000) can0 113#019701
(5.623000) can0 7F4#01
(5.625000) can0 195#000800000A002706
(5.627000) can0 1E5#286C04000000209E
(5.629000) can0 396#090F11480E02117D
(5.631000) can0 452#2ED404
(5.634000) can0 3A1#844C0FCA001CE267
(5.636000) can0 757#3200000000000000
(5.638000) can0 381#1100000000000000
(5.639000) can0 207#0027120C05000000
(5.641000) can0 439#0000000000185A04
(5.644000) can0 118#5269950000C874FF
(5.646000) can0 1D6#000800004A029808
(5.648000) can0 397#03E0FFE31C1E0000
(5.650000) can0 401#012AC88AB58AC28A
(5.652000) can0 283#0C0600004100
(5.653000) can0 1D8#291681210000803A
(5.655000) can0 129#B423FB5F0020FF3F
(5.657000) can0 7D5#3200000000000000
(5.659000) can0 3C2#2955000000000000
(5.662000) can0 2E5#0000242F00009100
(5.668000) can0 266#3D001B4B1B00CE00
(5.670000) can0 132#F9843FFCAE38
(5.672000) can0 242#55558600
(5.674000) can0 1E5#286C0400000040BE
(5.676000) can0 3F5#0000C838830C0000
(5.678000) can0 39D#0159E12700
(5.680000) can0 3A1#C1FFFF333D00F0DF
(5.682000) can0 393#080003D107B00304
(5.684000) can0 1D8#291681210000E09A
(5.686000) can0 102#22B3880494FAA009
(5.688000) can0 545#02000400000050A0
(5.689000) can0 132#FA8439FCC638
(5.691000) can0 39A#2023CF861F1BD77E
(5.695000) can0 2A8#010100000600A052
(5.701000) can0 421#F21A0000002000
(5.705000) can0 118#986F950000C8B4FF
(5.709000) can0 3C3#0000000000A50000
(5.713000) can0 2E5#0000242F00009100
(5.720000) can0 409#00
(5.726000) can0 204#010000FF00000010
(5.728000) can0 3A2#0110200000000000
(5.730000) can0 132#048533FC9F38
(5.732000) can0 376#1051484D50489B7D
(5.734000) can0 119#00000000
(5.735000) can0 266#3D001C4B1C00CE00
(5.737000) can0 757#484949000040D255
(5.739000) can0 35A#0000000000000000
(5.742000) can0 439#0000000000185A04
(5.744000) can0 266#3D001C4B1C00CE00
(5.746000) can0 129#1B2CFC5F0120FF3F
(5.748000) can0 397#03E0FFE31C1E0000
(5.750000) can0 132#ED8434FCA238
(5.752000) can0 283#0C0600004100
(5.754000) can0 1D8#2918C1210000C0BC
(5.756000) can0 379#0B0000000300180F
(5.758000) can0 1D5#290000000000403F
(5.760000) can0 263#700ED29FA74F1F00
(5.762000) can0 252#86465F7000FC0F00
(5.768000) can0 1D8#2918C1210000E0DC
(5.770000) can0 3AE#14400008000080DD
(5.774000) can0 401#072A7C8AB58A988A
(5.780000) can0 295#2B48000000000006
(5.786000) can0 393#0380610000000000
(5.791000) can0 3A2#6025F3C11C00C36D
(5.793000) can0 1D8#291AC1210000403E
(5.795000) can0 129#D521FC5F0120FF3F
(5.797000) can0 524#86730302201001
(5.802000) can0 2BF#00000000000001
(5.806000) can0 1D8#291AC1210000605E
(5.810000) can0 40A#0910000000000027
(5.816000) can0 3FD#0000003C20000180
(5.825000) can0 3E9#0088220000009026
(5.831000) can0 7FF#09EF000010000000
(5.834000) can0 243#04FC53013E80FFFF
(5.836000) can0 1E5#286C0400000040BE
(5.842000) can0 743#22
(5.844000) can0 266#3E001C4B1C00CE00
(5.846000) can0 25B#D38000056A86F093
(5.848000) can0 397#03E0FFE31C1E0000
(5.849000) can0 132#EE842AFC9938
(5.851000) can0 283#0D0600004100
(5.854000) can0 24A#03
(5.856000) can0 315#185447685047C587
(5.858000) can0 2E2#100000BD010B0000
(5.860000) can0 132#FA8429FC9838
(5.862000) can0 3FE#7A83030E38E000CD
(5.864000) can0 2D2#F62EA04ECD12E822
(5.867000) can0 3FD#01000A0000080280
(5.870000) can0 273#81E13000C8021011
(5.872000) can0 123#01000000003F0000
(5.874000) can0 36B#0000000000000000
(5.875000) can0 1D8#291C012200004081
(5.877000) can0 266#3E001C4B1C00CE00
(5.879000) can0 359#D43F00000E000012
(5.881000) can0 7D5#3200000000000000
(5.883000) can0 393#080003D107B00304
(5.886000) can0 1D8#291C0122000060A1
(5.888000) can0 3A2#6025F3C11C00C36D
(5.890000) can0 2E1#FB1FAF0999A50900
(5.892000) can0 122#01000000003F0000
(5.895000) can0 1E5#286C04000000007E
(5.896000) can0 421#F21A0000002000
(5.898000) can0 1D5#29000000000000FF
(5.900000) can0 3FD#0000003C20000180
(5.903000) can0 272#080004E907B00304
(5.905000) can0 129#4D2CFB5FFF1FFF3F
(5.907000) can0 6A1#0000000000
(5.909000) can0 132#E88421FC7738
(5.911000) can0 2E5#0000242F00009100
(5.913000) can0 227#0000000041000080
(5.916000) can0 221#6105555501054079
(5.917000) can0 384#0000000000000000
(5.919000) can0 545#F0035D009BA9C9A7
(5.922000) can0 113#019701
(5.924000) can0 2E5#0000242F00009100
(5.926000) can0 27A#55C0FC0054056202
(5.928000) can0 3A2#0110200000000000
(5.930000) can0 3AE#144000080000D02D
(5.932000) can0 243#04FC53013E80FFFF
(5.934000) can0 757#3200000000000000
(5.936000) can0 249#5E090000
(5.938000) can0 3E8#0300000000000000
(5.939000) can0 132#F48424FC7938
(5.941000) can0 422#700010000000
(5.944000) can0 118#2167950000C84400
(5.946000) can0 1D6#000800004A029808
(5.948000) can0 397#030080E31C1E0000
(5.951000) can0 3FD#01000A0000080280
(5.954000) can0 401#102AD08AAD8AB48A
(5.956000) can0 22B#FFFFFF00FCFFFFFF
(5.958000) can0 3A8#2A80E9F51F00FFDF
(5.959000) can0 682#0000004004110035
(5.971000) can0 252#87465E7000FC0F00
(5.976000) can0 201#0200000000000000
(5.978000) can0 1D5#29000000000000FF
(5.980000) can0 263#690ED297BF4F7F00
(5.982000) can0 118#B56B950000C8D400
(5.984000) can0 266#3E001C4B1C00CE00
(5.989000) can0 229#310E00
(5.996000) can0 401#122ABE8AB48AEA8A
(6.003000) can0 3FD#0200560000000090
(6.006000) can0 2C1#0400000000000000
(6.008000) can0 1D5#290000000000605F
(6.010000) can0 243#030000001F735300
(6.012000) can0 553#00000000000090E8
(6.014000) can0 221#6105555501056099
(6.016000) can0 1BB#02
(6.018000) can0 2E1#658008006AE5306A
(6.020000) can0 339#02F1FE008007800F
(6.027000) can0 204#010000FF00000010
(6.033000) can0 31E#0000000000000000
(6.037000) can0 118#FA60950000C82400
(6.045000) can0 1D5#290000000000C0BF
(6.053000) can0 2EC#570045
(6.059000) can0 118#5C62950000C88400
(6.064000) can0 3C8#0100000000000000
(6.066000) can0 257#37B2878702D84301
(6.068000) can0 1D5#290000000000201F
(6.070000) can0 2E8#010100000600F0E2
(6.076000) can0 22B#FFFF7F00FEFFFFFF
(6.078000) can0 2C1#431A900000000000
(6.080000) can0 3A1#C1FFFF5D3D007089
(6.082000) can0 2E1#FB1FAF0999A00900
(6.084000) can0 1D8#2920C1220000E0E5
(6.086000) can0 229#3B0F00
(6.088000) can0 20C#00D8330CDD00300C
(6.092000) can0 132#F9841BFC6238
(6.097000) can0 1D8#2920C12200000005
(6.103000) can0 1D5#290000000000807F
(6.109000) can0 2F9#BCFB07100D1A8B84
(6.110000) can0 2E5#0000242F00009100
(6.112000) can0 553#000000000000A0F8
(6.114000) can0 221#61055555010580B9
(6.116000) can0 409#00
(6.118000) can0 2C1#D86C7E00008A0200
(6.124000) can0 22B#FFFF7F00FEFFFFFF
(6.126000) can0 266#3F001C4B1C00CE00
(6.128000) can0 423#00001000000000
(6.130000) can0 132#E98419FC7538
(6.132000) can0 2E5#0000242F00009100
(6.135000) can0 1E5#286C04000000007E
(6.136000) can0 207#0029100D06000000
(6.139000) can0 1D5#29000000000000FF
(6.141000) can0 422#700010000000
(6.143000) can0 118#546B950000C874FF
(6.145000) can0 126#4CE02E0C8D
(6.147000) can0 279#C4B1FC0150056502
(6.149000) can0 1D5#290000000000201F
(6.151000) can0 3A2#02A5FF7F03000000
(6.153000) can0 241#6F6ED49B1B4500
(6.155000) can0 118#566C950000C87400
(6.157000) can0 379#03C00E4833B92200
(6.158000) can0 2C1#0219060000D09201
(6.160000) can0 23E#00003AC002FF6FAA
(6.163000) can0 252#88465E7000FC0F00
(6.165000) can0 266#3F001C4B1C00CE00
(6.168000) can0 3DF#0000C00002D0001B
(6.170000) can0 2E8#01010000060000F2
(6.171000) can0 372#0900000000F83F00
(6.173000) can0 1D8#29208122000000C5
(6.175000) can0 3F5#0000C838820C0000
(6.177000) can0 788#01000000FFA1F812
(6.179000) can0 360#0100000000000000
(6.181000) can0 2E5#0000242F00009100
(6.183000) can0 545#0200040000004090
(6.185000) can0 257#3DB8878702D84301
(6.186000) can0 2D1#FF01
(6.188000) can0 1D5#290000000000A09F
(6.192000) can0 401#1C2A948AA48A888A
(6.198000) can0 1D8#2920812200004005
(6.203000) can0 719#140000000000CA00
(6.209000) can0 257#3EB9878702D84301
(6.211000) can0 553#000000000000B008
(6.213000) can0 247#560DFF0000000000
(6.215000) can0 129#442BFB5F0020FF3F
(6.217000) can0 545#B0035DB09AA459A1
(6.219000) can0 2C1#D86C7E00008A0200
(6.221000) can0 289#C80E050382003D8F
(6.227000) can0 318#1A063605103731EE
(6.229000) can0 224#0408004019011008
(6.231000) can0 25D#3741012A04F08803
(6.233000) can0 401#1E2AA48A9F8AAC8A
(6.235000) can0 266#3F001C4B1C00CE00
(6.241000) can0 3E8#0600000000000000
(6.244000) can0 319#24000000FFFFFFFF
(6.245000) can0 128#0000EC0A02
(6.247000) can0 381#0700000000000000
(6.249000) can0 3DB#5001000000000000
(6.251000) can0 2E5#0000242F00009100
(6.253000) can0 78A#010005009D0D0A00
(6.255000) can0 129#712FFB5FFF1FFF3F
(6.257000) can0 2E2#E211194949490900
(6.259000) can0 3C0#0A00000000000000
(6.261000) can0 3C8#0300000000000000
(6.263000) can0 2D2#F62EA04ECE12E822
(6.266000) can0 211#A511710F0001
(6.268000) can0 312#31224817408DA800
(6.270000) can0 2E8#0101000006001002
(6.273000) can0 242#55558600
(6.281000) can0 788#0240C10700030000
(6.285000) can0 393#080004D107B00304
(6.289000) can0 54F#0000000000000000
(6.293000) can0 372#0B6DF90000482F00
(6.295000) can0 129#1923FB5F0120FF3F
(6.297000) can0 421#F21A0000002000
(6.299000) can0 261#052238CA9A42706B
(6.301000) can0 263#0200A088123E4221
(6.303000) can0 118#346B950000C854FF
(6.305000) can0 3E9#F088222100009037
(6.307000) can0 282#74BCE10600D40224
(6.309000) can0 132#FB8421FC8D38
(6.311000) can0 553#000000000000C018
(6.314000) can0 247#570DFF0000000000
(6.316000) can0 3FD#0000003C20000180
(6.319000) can0 545#F00362F09AA8895A
(6.321000) can0 281#0000FF1F0000
(6.323000) can0 55A#0400000000000000
(6.329000) can0 7FF#0500000120008000
(6.331000) can0 25D#3741012A04F08803
(6.333000) can0 401#2300000000000000
(6.335000) can0 118#386E950000C85400
(6.336000) can0 3E8#0000000000000000
(6.339000) can0 1D5#290000000000807F
(6.341000) can0 2E5#0000242F00009100
(6.343000) can0 118#B86F950000C8D4FF
(6.345000) can0 128#0000EC0A02
(6.348000) can0 279#C6B3FC0150056502
(6.350000) can0 719#1700000000000000
(6.351000) can0 283#0E0700004100
(6.353000) can0 1D8#291C4122000040C1
(6.355000) can0 129#F829FC5F0020FF3F
(6.357000) can0 682#0000004004114075
(6.359000) can0 132#EE8422FC6E38
(6.361000) can0 3C8#0400000000000000
(6.363000) can0 139#00
(6.365000) can0 1E5#286C0400000060DE
(6.369000) can0 3FD#01000A0000080280
(6.377000) can0 2F2#1201
(6.381000) can0 2C1#431A900000000000
(6.385000) can0 118#0D63950000C83400
(6.388000) can0 2E1#0400000000202607
(6.395000) can0 45A#24393A3940433361
(6.399000) can0 421#F21A0000002000
(6.403000) can0 23E#00003AC002FFCF0A
(6.409000) can0 257#50C3878702E04301
(6.411000) can0 2E5#0000242F00009100
(6.413000) can0 247#570DFF0000000000
(6.415000) can0 118#4F66950000C874FF
(6.416000) can0 3FD#0200560000000090
(6.425000) can0 294#14C1400040000000
(6.427000) can0 1F9#0000000000000000
(6.429000) can0 33D#1A290ABE874AFA98
(6.431000) can0 243#04FC53013E80FFFF
(6.433000) can0 53E#1100000000000000
(6.435000) can0 118#3268950000C85400
(6.437000) can0 3E8#0100000000000000
(6.439000) can0 132#F58433FCA538
(6.441000) can0 2E5#0000242F00009100
(6.443000) can0 118#F369950000C81400
(6.445000) can0 128#0000EC0A02
(6.447000) can0 395#091F1F5313030B7D
(6.450000) can0 2C2#555BA90680C112AA
(6.452000) can0 283#0F0700004100
(6.454000) can0 1D8#2918C1210000807C
(6.456000) can0 310#14050000AC625233
(6.458000) can0 2E2#F713504001000000
(6.460000) can0 677#0300000000000000
(6.462000) can0 2E5#0000242F00009100
(6.463000) can0 118#646B950000C884FF
(6.466000) can0 1E5#286C04000000209E
(6.468000) can0 1D5#290000000000201F
(6.470000) can0 123#01000000003F0000
(6.472000) can0 37A#D20D000000000000
(6.474000) can0 1E5#286C0400000040BE
(6.476000) can0 3F5#0000C838830C0000
(6.478000) can0 448#20001010000010
(6.480000) can0 3A1#C1FFFF2F3D00F0DB
(6.482000) can0 393#080003D107B00304
(6.484000) can0 1E5#286C0400000060DE
(6.486000) can0 102#22B3880494FAA009
(6.488000) can0 1D5#290000000000605F
(6.490000) can0 261#052238CA9A42302B
(6.491000) can0 122#01000000003F0000
(6.494000) can0 1D8#2918C121000000FC
(6.496000) can0 421#F21A0000002000
(6.498000) can0 321#2AC6A870027060FE
(6.500000) can0 132#FA8433FC9838
(6.502000) can0 677#0400000000000000
(6.504000) can0 1D8#2918C1210000201C
(6.506000) can0 2F9#BCFB07030D1A8B84
(6.508000) can0 132#F18431FC9338
(6.510000) can0 243#030000001F735300
(6.512000) can0 553#000000000000E038
(6.514000) can0 221#6105555501050039
(6.516000) can0 247#570DFF0000000000
(6.518000) can0 2C1#D86C7E00008A0200
(6.520000) can0 22B#FFFF7F00FEFFFFFF
(6.535000) can0 204#010000FF00000010
(6.544000) can0 3E8#0200000000000000
(6.550000) can0 1D6#000800004A029808
(6.555000) can0 283#0F0700004100
(6.557000) can0 7D5#3200000000000000
(6.559000) can0 39D#0B6FD52700
(6.561000) can0 2E5#0000242F00009000
(6.563000) can0 118#FF65950000C82400
(6.565000) can0 1FA#1AC001
(6.567000) can0 38B#FEFE7F0F00C02503
(6.569000) can0 2E8#0101000006004032
(6.571000) can0 261#340F904C004084D9
(6.573000) can0 666#0000C800
(6.575000) can0 266#3D001C4B1C00CD00
(6.577000) can0 788#0240C30700030000
(6.582000) can0 2C1#431A900000000000
(6.588000) can0 1D8#2918C1210000201C
(6.592000) can0 132#ED842EFCA338
(6.597000) can0 1D8#2918C1210000403C
(6.599000) can0 2BF#00000000000001
(6.602000) can0 343#0092585E97000000
(6.603000) can0 1D8#2918C1210000605C
(6.605000) can0 3AE#1A400008000040A3
(6.607000) can0 40A#0910000000004067
(6.609000) can0 132#FA8434FCA738
(6.611000) can0 7E8#0B07010100010000
(6.613000) can0 1D8#2918C1210000807C
(6.615000) can0 409#00
(6.617000) can0 261#31007800B249BA54
(6.625000) can0 383#911834003BC04004
(6.627000) can0 2E1#398D2AFF0F000000
(6.629000) can0 472#FF288002007FFF07
(6.631000) can0 25D#3741012A04F08803
(6.633000) can0 2E5#0000242F00009100
(6.635000) can0 1D8#2918C1210000C0BC
(6.637000) can0 3E8#0300000000000000
(6.639000) can0 132#E28433FC9C38
(6.641000) can0 45A#FD07F8FF03003007
(6.643000) can0 118#966D950000C8B4FF
(6.645000) can0 25B#D38000056A867013
(6.647000) can0 395#091F1F5313030B7D
(6.649000) can0 2C2#555BA90680C112AA
(6.651000) can0 2E5#0000242F00009100
(6.654000) can0 241#6E6E949B1B4500
(6.656000) can0 7D5#2C3F3F0000000000
(6.658000) can0 2E2#100000BF010B0000
(6.659000) can0 677#0300000000000000
(6.662000) can0 2E5#0000242F00009100
(6.664000) can0 212#5904000081FF7731
(6.666000) can0 2D3#6100AA021F0A5472
(6.668000) can0 2D2#F52EA04ECE12E822
(6.670000) can0 2E8#0101000006005042
(6.672000) can0 401#022AA18A9C8AAC8A
(6.674000) can0 1E5#286C0400000040BE
(6.676000) can0 3F5#0000C838830C0000
(6.678000) can0 359#5D00000000000000
(6.679000) can0 3A2#600573BF1C00C36D
(6.684000) can0 7AA#237EF8CF0513001C
(6.688000) can0 229#410500
(6.692000) can0 132#EA842AFC8338
(6.696000) can0 1D8#2918C1210000807C
(6.700000) can0 261#0010FFFFFF4F0052
(6.704000) can0 428#20001010000010
(6.706000) can0 2E1#1021040010000004
(6.708000) can0 3C2#0055555500006A05
(6.710000) can0 401#042A9A8AA08AA08A
(6.712000) can0 2E5#0000242F00009100
(6.713000) can0 1E5#286C0400000040BE
(6.720000) can0 129#E32D01600720FF3F
(6.726000) can0 318#1A06360510373BF8
(6.728000) can0 6A2#0000000000
(6.731000) can0 3AE#1D400008000090F6
(6.732000) can0 376#0200FFFFFFFF0000
(6.739000) can0 207#0032160F07000000
(6.741000) can0 45A#FD07F8FF03003007
(6.743000) can0 118#F167950000C81400
(6.745000) can0 25B#D38000056A868023
(6.747000) can0 395#091F1F5313030B7D
(6.749000) can0 3DB#0A1D100D0F000000
(6.751000) can0 2E5#0000242F00009100
(6.753000) can0 1D8#2918C1210000403C
(6.755000) can0 266#3D001B4B1C00CD00
(6.757000) can0 682#00000040041180B5
(6.759000) can0 2C1#0219060000D09201
(6.761000) can0 3C8#0100000000000000
(6.768000) can0 292#9685E59966010000
(6.770000) can0 132#F08437FC8D38
(6.774000) can0 401#072A6B8AA48A858A
(6.782000) can0 3A3#14D00000280DFC01
(6.789000) can0 1D8#2918C1210000A09C
(6.795000) can0 2E5#0000242F00009100
(6.797000) can0 421#F21A0000002000
(6.798000) can0 39D#0165D52700
(6.800000) can0 23E#00003AC002FF6FAA
(6.802000) can0 2E1#1021040010000004
(6.804000) can0 257#3CB7878702D84301
(6.806000) can0 282#74BCE10604E40224
(6.808000) can0 1D5#290000000000605F
(6.810000) can0 261#31006900AF497A02
(6.817000) can0 3FD#0000003C20000180
(6.830000) can0 553#0000000000001068
(6.832000) can0 320#0100000800000000
(6.835000) can0 757#2C3F3E0000000000
(6.836000) can0 552#000000000000B007
(6.838000) can0 39D#0266D52700
(6.840000) can0 439#0000000000185A04
(6.842000) can0 261#834D0A00004095A5
(6.844000) can0 266#3D001B4B1B00CD00
(6.846000) can0 129#612A02600020FF3F
(6.848000) can0 395#091F1F5313030B7D
(6.850000) can0 401#0B2A888A908A8D8A
(6.851000) can0 283#100700004100
(6.853000) can0 1D8#291681210000803A
(6.856000) can0 129#902B02600020FF3F
(6.858000) can0 261#340F804C0040A4E9
(6.860000) can0 132#FB8432FC8238
(6.863000) can0 3FE#7B84030E38E000CD
(6.869000) can0 3FD#01000A0000080280
(6.872000) can0 211#AB17710F0001
(6.874000) can0 201#0200000000000000
(6.876000) can0 419#00
(6.882000) can0 788#0240C20700030000
(6.884000) can0 266#3C001B4B1B00CE00
(6.886000) can0 102#22B3880492FAA009
(6.888000) can0 20C#00B8330CDD00300C
(6.889000) can0 132#01853DFC8838
(6.891000) can0 39A#2423CF86332BD77E
(6.893000) can0 420#2801404B00000000
(6.897000) can0 129#CC2F02600020FF3F
(6.898000) can0 201#0300000000000000
(6.900000) can0 263#0200A088123E4221
(6.902000) can0 118#B067950000C8D4FF
(6.904000) can0 3FD#0000003C20000180
(6.907000) can0 266#3D001C4B1B00CE00
(6.909000) can0 132#F08436FC9138
(6.911000) can0 2E5#0000242F00009100
(6.913000) can0 7B5#030000
(6.915000) can0 227#0000000041000080
(6.917000) can0 386#0000000000000000
(6.918000) can0 22A#00005915
(6.920000) can0 263#0300000000000000
(6.923000) can0 204#010000FF00000010
(6.926000) can0 2E5#0000242F00009100
(6.928000) can0 1F9#0000000000000000
(6.930000) can0 1D5#290000000000E0DF
(6.931000) can0 2E5#0000242F00009100
(6.934000) can0 757#2C3F3E0000000000
(6.935000) can0 552#000000000000C017
(6.937000) can0 3E8#0600000000000000
(6.939000) can0 132#028535FC9138
(6.941000) can0 45A#FD07F8FF03003106
(6.943000) can0 118#356B950000C85400
(6.945000) can0 128#0000EC0A02
(6.947000) can0 2B6#000300
(6.949000) can0 2C2#2040C04B010080CB
(6.951000) can0 2E5#0000242F00009100
(6.953000) can0 3FD#01000A0000080280
(6.957000) can0 78A#010005009D0D0A00
(6.959000) can0 3C2#2955000000000000
(6.971000) can0 3C8#0300000000000000
(6.976000) can0 201#0200000000000000
(6.978000) can0 1D5#290000000000807F
(6.980000) can0 3A1#C1FFFF593D0090A5
(6.982000) can0 118#186F950000C834FF
(6.984000) can0 257#35B0878702D84301
(6.986000) can0 261#00100200FF4F2076
(6.988000) can0 1D5#290000000000A09F
(6.990000) can0 372#0607C319221B9902
(6.994000) can0 122#00001392D2000000
(6.998000) can0 441#DE00B6C35800253D
(7.004000) can0 43B#027F00FF00000000
(7.011000) can0 3FD#0200560000000090
(7.014000) can0 3C3#5555550100000000
(7.016000) can0 266#3D001B4B1B00CE00
