(0.000000) can0 321#9B9AAA7B027B100B
(0.005000) can0 241#7374D41C1D4500
(0.010000) can0 1E5#286C04000000007E
(0.012000) can0 2F1#0C0101D00F000000
(0.014000) can0 423#00001000000000
(0.016000) can0 227#000000004D000080
(0.018000) can0 266#12000F320E007601
(0.020000) can0 132#AD8EE7FE053E
(0.022000) can0 292#29FA17638B010000
(0.024000) can0 360#0900000000000000
(0.025000) can0 677#0100000000000000
(0.026000) can0 204#010000FF00000010
(0.027000) can0 224#0408004019011008
(0.027000) can0 266#12000F320E007601
(0.028000) can0 2E5#00000E320000DD00
(0.030000) can0 3A4#0000000000000000
(0.031000) can0 400#00E0FBBEEFFB00
(0.033000) can0 129#A427E45FFF1FFF3F
(0.035000) can0 1D5#290000000000A09F
(0.035000) can0 1D8#2984401000006036
(0.036000) can0 1E5#286C0400000060DE
(0.037000) can0 266#12000F320E007601
(0.037000) can0 2E5#00000E320000DD00
(0.038000) can0 132#B28EF0FE1C3E
(0.041000) can0 7A8#01000000FFA1C812
(0.043000) can0 129#7328E45FFF1FFF3F
(0.043000) can0 421#021A0000002000
(0.046000) can0 2C1#0400000000000000
(0.046000) can0 2E5#00000E320000DD00
(0.048000) can0 3AE#024000080000216C
(0.049000) can0 228#0106184C00605146
(0.049000) can0 401#1C2A7C9481947A94
(0.050000) can0 282#8C30C20818040324
(0.051000) can0 3E2#040000711FCF00
(0.052000) can0 129#4F29E45F0020FF3F
(0.052000) can0 22A#0000D916
(0.055000) can0 1D5#290000000000E0DF
(0.057000) can0 1D8#298400100000A036
(0.059000) can0 2E5#00000E320000DD00
(0.061000) can0 221#610555550107E01B
(0.063000) can0 545#010000000010C01B
(0.065000) can0 1D5#29000000000000FF
(0.067000) can0 3A3#1AC00000380DFC01
(0.070000) can0 2E5#00000E320000DD00
(0.071000) can0 4E2#0600000000000000
(0.072000) can0 129#612BE45F0020FF3F
(0.072000) can0 261#B34C0A000040B5F4
(0.075000) can0 1D5#290000000000201F
(0.075000) can0 1D8#2982C00F0000E033
(0.076000) can0 1E5#286C0400000060DE
(0.077000) can0 20C#0098371E1801000E
(0.077000) can0 25D#3741012A04F08803
(0.078000) can0 3A1#884C0FCA0018E267
(0.079000) can0 243#02FC9B0D05D60000
(0.080000) can0 75D#068F000000000000
(0.083000) can0 2A8#0101000006005002
(0.083000) can0 1D5#290000000000403F
(0.085000) can0 2C1#216B186402000000
(0.086000) can0 1D8#2982C00F00000053
(0.086000) can0 22B#FFFFFF3FE0FFFFFF
(0.087000) can0 118#E86E950000C80400
(0.088000) can0 195#000000000A002706
(0.089000) can0 396#091E1C53575C0E7D
(0.089000) can0 263#0200C0860D363621
(0.090000) can0 343#009260EE95000000
(0.091000) can0 428#20001010000010
(0.091000) can0 310#0B00040204001100
(0.092000) can0 119#00000000
(0.095000) can0 1D5#290000000000605F
(0.095000) can0 1D8#2982C00F00002073
(0.096000) can0 1E5#286C04000000209E
(0.098000) can0 285#61018E0308002E00
(0.098000) can0 132#A48EF0FE1F3E
(0.099000) can0 2B6#000300
(0.100000) can0 414#1133535459323530
(0.100000) can0 405#113345374542334B
(0.101000) can0 439#0000000000185A04
(0.102000) can0 553#000000000000D028
(0.103000) can0 318#1A063A0D10252FE6
(0.103000) can0 319#27000000FFFFFFFF
(0.104000) can0 1D5#290000000000807F
(0.105000) can0 677#0300000000000000
(0.106000) can0 1E5#286C0400000040BE
(0.106000) can0 2E5#00000E320000DD00
(0.107000) can0 383#A5182000EDD0A209
(0.109000) can0 7D5#2B8C5FFF00000000
(0.109000) can0 719#EEAF61005B620014
(0.110000) can0 7D7#321D000000000000
(0.113000) can0 129#3D2FE45F0020FF3F
(0.113000) can0 234#2FE1038043001485
(0.116000) can0 247#500EFF0000000000
(0.116000) can0 266#11000F310E007601
(0.119000) can0 132#C28EF9FE2B3E
(0.119000) can0 201#0200000000000000
(0.120000) can0 252#5A4B0C7B00FC0F00
(0.121000) can0 261#00101B00FF4FE04F
(0.121000) can0 3E9#F08802210000B037
(0.122000) can0 129#D820E45F0020FF3F
(0.123000) can0 3F5#0000C838830C0000
(0.124000) can0 3E8#0000000000000000
(0.125000) can0 207#0000000000000000
(0.126000) can0 204#010000FF00000010
(0.127000) can0 3AE#024000080000418C
(0.127000) can0 266#11000F320E007601
(0.128000) can0 2E5#00000E320000DD00
(0.129000) can0 263#04000000A01C0000
(0.130000) can0 2E1#1021040010000004
(0.130000) can0 401#2000000000000000
(0.133000) can0 129#CF21E45F0020FF3F
(0.133000) can0 1D5#290000000000E0DF
(0.136000) can0 225#5555FA00
(0.136000) can0 122#00001392D2000000
(0.137000) can0 266#11000F320E007601
(0.138000) can0 359#2FE1AEB7AD9A607D
(0.141000) can0 7A8#0240C107000F0000
(0.143000) can0 129#8622E45F0020FF3F
(0.143000) can0 421#021A0000002000
(0.144000) can0 509#E0FFFFFF07
(0.145000) can0 2C1#0400000000000000
(0.145000) can0 443#7A0FFF030000
(0.146000) can0 677#0400000000000000
(0.147000) can0 313#02646405000010F5
(0.148000) can0 266#11000F310E007601
(0.148000) can0 228#0106184C00606156
(0.149000) can0 263#700ED29FA74F5F1F
(0.150000) can0 3C8#0100000000000000
(0.151000) can0 39A#281BE3761F27E77E
(0.154000) can0 3C2#0055555500006A05
(0.156000) can0 1D8#2980800F0000E0F1
(0.158000) can0 266#11000F310E007601
(0.160000) can0 719#0CD30F005A0A6000
(0.162000) can0 2E1#026D66021E740000
(0.164000) can0 7AA#01490E460E02002E
(0.166000) can0 2F9#BCFB072000000000
(0.168000) can0 281#0000FF1F0000
(0.169000) can0 201#006E6D0000E4FF00
(0.172000) can0 39B#0314DF80B00CA171
(0.172000) can0 6A1#0000000000
(0.175000) can0 288#0106184C0060B106
(0.175000) can0 1D8#297E800F0000202F
(0.176000) can0 1E5#286C04000000209E
(0.178000) can0 20C#0098371E1801000E
(0.178000) can0 552#00000000000050A7
(0.179000) can0 339#02F1FE008007800F
(0.182000) can0 2A8#0101000006006012
(0.182000) can0 249#83050000
(0.185000) can0 1D5#290000000000807F
(0.185000) can0 1F9#0000000000000000
(0.186000) can0 677#0000000000000000
(0.187000) can0 2E5#00000E320000DD00
(0.187000) can0 195#000000000A002706
(0.188000) can0 27A#C3BD0C01B4056202
(0.189000) can0 263#0200C0860D363621
(0.190000) can0 343#0092640E96000000
(0.190000) can0 428#20001010000010
(0.192000) can0 78A#0100060003000000
(0.193000) can0 441#40858900320000E9
(0.193000) can0 545#020003000000004F
(0.194000) can0 201#0104980000000000
(0.195000) can0 262#0B00A9B300B09010
(0.196000) can0 118#6369950000C88400
(0.196000) can0 257#078D5E5102402F01
(0.197000) can0 2D3#F4005303280E2543
(0.198000) can0 293#020C559055145F50
(0.199000) can0 128#0000EC0A02
(0.199000) can0 279#33BCFC01B4056502
(0.200000) can0 318#1A063A0D102531E8
(0.201000) can0 395#090F125F0C05047D
(0.202000) can0 397#13E0FF791C0C0000
(0.203000) can0 261#0522E4C99A4230D6
(0.204000) can0 1D5#290000000000C0BF
(0.207000) can0 1D8#297E800F0000808F
(0.207000) can0 266#11000F310E007601
(0.208000) can0 7D5#2C3F3F0000000000
(0.209000) can0 263#0300000000000000
(0.209000) can0 7D5#3200000000000000
(0.210000) can0 2F1#AE004021B4012804
(0.213000) can0 129#4F29E45F0020FF3F
(0.213000) can0 1D5#290000000000E0DF
(0.216000) can0 247#510EFF0000000000
(0.216000) can0 266#11000F310E007601
(0.217000) can0 2E5#00000E320000DD00
(0.220000) can0 132#B48EFDFE323E
(0.221000) can0 292#29FA17638B010000
(0.222000) can0 129#F92AE45FFF1FFF3F
(0.223000) can0 3F5#0000C838830C0000
(0.223000) can0 1D5#29000000000000FF
(0.224000) can0 3E8#0100000000000000
(0.225000) can0 2E1#1021040010000004
(0.225000) can0 1D8#297C400F0000C08D
(0.226000) can0 264#3D000000A000
(0.227000) can0 118#466C950000C86400
(0.228000) can0 2B4#3F05450E6A01
(0.228000) can0 400#00E0FBBEEFFB00
(0.229000) can0 263#04000000A01C0000
(0.230000) can0 37A#CBE0010000000000
(0.233000) can0 129#CC2BE45F0120FF3F
(0.234000) can0 7AA#320881F8C5062100
(0.237000) can0 1D8#297C400F0000E0AD
(0.237000) can0 257#098F5E5102402F01
(0.238000) can0 132#CC8EFFFE393E
(0.241000) can0 7A8#BCCCB18300008200
(0.243000) can0 129#012CE45F0020FF3F
(0.243000) can0 421#021A0000002000
(0.244000) can0 361#2C0E190200
(0.245000) can0 2BF#00000000000001
(0.245000) can0 1D8#297C000F0000008D
(0.246000) can0 253#0064A6C66490B505
(0.247000) can0 3AE#02400008000081CC
(0.248000) can0 266#10000F310E007601
(0.248000) can0 132#BF8E02FF3E3E
(0.249000) can0 2B3#07C1729E00000000
(0.251000) can0 287#30322F31D8020000
(0.253000) can0 129#7A2DE45FFF1FFF3F
(0.255000) can0 1D5#290000000000605F
(0.257000) can0 1D8#297C000F000020AD
(0.259000) can0 2E5#00000E320000DD00
(0.261000) can0 545#010000000010207B
(0.263000) can0 129#CC2EE45F0020FF3F
(0.265000) can0 1D5#290000000000807F
(0.267000) can0 3A3#1AC00000380DFC01
(0.272000) can0 2E5#00000E320000DD00
(0.274000) can0 2E1#FB1F99B997900900
(0.276000) can0 6A2#0000000000
(0.278000) can0 266#11000F310E007601
(0.280000) can0 552#00000000000060B7
(0.283000) can0 261#D401D84B004084B2
(0.285000) can0 1D5#290000000000C0BF
(0.287000) can0 1F9#0000000000000000
(0.288000) can0 1A5#00101F7045
(0.289000) can0 263#0200C0860D363621
(0.290000) can0 340#0800000000000000
(0.290000) can0 428#20001010000010
(0.293000) can0 129#CF21E45F0020FF3F
(0.293000) can0 3A2#6085F3B51C00426F
(0.296000) can0 201#0104980000000000
(0.296000) can0 3CC#03218319000E0900
(0.297000) can0 473#0000030000000000
(0.298000) can0 324#D035A7D09E010000
(0.298000) can0 2E5#00000E320000DD00
(0.300000) can0 268#1D0F9A01FF
(0.301000) can0 395#090F125F0B05047D
(0.301000) can0 458#00002000000000
(0.302000) can0 757#2C3F3E0000000000
(0.303000) can0 129#8622E45F0020FF3F
(0.304000) can0 1D5#29000000000000FF
(0.304000) can0 2E1#65800800B651316A
(0.305000) can0 1D8#297A000F0000C04B
(0.308000) can0 2E5#00000E320000DD00
(0.308000) can0 719#0300000000000000
(0.309000) can0 2B3#08FA0000D6780000
(0.312000) can0 2F1#0F66A99699433900
(0.312000) can0 261#00101B00FF4FA00F
(0.313000) can0 234#2FE10380430054C5
(0.315000) can0 1D5#290000000000201F
(0.315000) can0 379#00000A48333F2100
(0.316000) can0 39D#0058E12700
(0.317000) can0 257#FD835E5102402F01
(0.320000) can0 132#B88E01FF3A3E
(0.320000) can0 292#29FA17638B010000
(0.323000) can0 3F5#0000C838820C0000
(0.323000) can0 1D5#290000000000403F
(0.324000) can0 3E8#0200000000000000
(0.325000) can0 2C1#531A900000000000
(0.325000) can0 204#010000FF00000010
(0.326000) can0 264#3D000000A000
(0.327000) can0 2E5#00000E320000DD00
(0.328000) can0 266#10000F310E007501
(0.329000) can0 400#00E0FBBEEFFB00
(0.330000) can0 37A#D00D000000000000
(0.331000) can0 45B#0000
(0.333000) can0 129#6925E45FFF1FFF3F
(0.333000) can0 1D5#290000000000605F
(0.336000) can0 225#5555FA00
(0.336000) can0 122#00001392D2000000
(0.337000) can0 257#FE845E5102402F01
(0.338000) can0 359#3100000000000000
(0.338000) can0 243#00FCCF8C90440D29
(0.341000) can0 7A8#01000000FFA1C812
(0.343000) can0 129#B326E45FFF1FFF3F
(0.343000) can0 382#3817200000
(0.346000) can0 737#00000000E0F080
(0.348000) can0 2E5#00000E320000DD00
(0.351000) can0 3FD#0000003C20000180
(0.355000) can0 266#10000F310E007501
(0.357000) can0 1D8#2978800E00006068
(0.359000) can0 1F8#1A000000
(0.362000) can0 34A#0207000000000090
(0.365000) can0 234#3310032FBD046031
(0.365000) can0 3A3#1AC00000380DFC01
(0.366000) can0 1E5#286C04000000007E
(0.367000) can0 118#746A950000C89400
(0.370000) can0 132#C08E04FF403E
(0.372000) can0 393#080002C107B00304
(0.372000) can0 6A1#0000000000
(0.375000) can0 288#0106184C0060D126
(0.375000) can0 1D8#2978800E0000A0A8
(0.377000) can0 1E5#286C04000000209E
(0.378000) can0 25D#3741012A04F08803
(0.378000) can0 41D#00
(0.379000) can0 339#02F1FE008007800F
(0.382000) can0 2A8#0101000006008032
(0.384000) can0 249#5E090000
(0.386000) can0 2E1#0400000000202600
(0.388000) can0 22B#FFFFFF3FE0FFFFFF
(0.390000) can0 27A#C5BF0C01B4056202
(0.392000) can0 682#0000004004110035
(0.394000) can0 3A2#602573B41C00426F
(0.397000) can0 201#0104980000000000
(0.398000) can0 757#3200000000000000
(0.399000) can0 273#81ED3000C8021011
(0.400000) can0 3FD#01000A0000080280
(0.402000) can0 279#35BEFC01B4056502
(0.403000) can0 3C2#2955000000000000
(0.404000) can0 7E8#125C0AD0266F00AE
(0.404000) can0 2C1#0219160000D09201
(0.405000) can0 1D8#2976800E00000006
(0.408000) can0 25B#D38000056A869033
(0.408000) can0 719#150003AD00000000
(0.409000) can0 263#0300000000000000
(0.412000) can0 2F1#109E03E413000000
(0.412000) can0 423#00001000000000
(0.413000) can0 234#2FE10380430074E5
(0.416000) can0 247#520EFF0000000000
(0.416000) can0 266#10000F310E007701
(0.418000) can0 2E5#00000E320000DD00
(0.419000) can0 2C3#0000C04B010040CB
(0.419000) can0 2D2#F32EAF4E8813E822
(0.420000) can0 252#5A4B0C7B00FC0F00
(0.423000) can0 3F5#0000C838820C0000
(0.423000) can0 1D5#290000000000807F
(0.424000) can0 207#0000000000000000
(0.425000) can0 2C1#531A900000000000
(0.425000) can0 204#010000FF00000010
(0.426000) can0 224#0408004019011008
(0.427000) can0 266#10000F310E007701
(0.428000) can0 3A2#0110200000000000
(0.428000) can0 677#0100000000000000
(0.429000) can0 263#04000000A01C0000
(0.431000) can0 37A#D10D000000000000
(0.431000) can0 129#3D2FE45F0020FF3F
(0.432000) can0 2D1#FF01
(0.433000) can0 23E#00003AC002FF0F4A
(0.434000) can0 1D5#290000000000A09F
(0.434000) can0 225#5555FA00
(0.437000) can0 1D8#2974400E00006024
(0.437000) can0 2E5#00000E320000DD00
(0.438000) can0 132#CC8E0BFF4A3E
(0.441000) can0 6C8#247C00F412200C00
(0.443000) can0 129#D820E45F0020FF3F
(0.443000) can0 421#021A0000002000
(0.446000) can0 2C1#0400000000000000
(0.446000) can0 2E5#00000E320000DD00
(0.447000) can0 3C0#0100000000000000
(0.449000) can0 266#10000F310E007701
(0.449000) can0 3FD#0200400000000090
(0.451000) can0 3C8#0400000000000000
(0.452000) can0 22A#0000E916
(0.455000) can0 1D5#290000000000E0DF
(0.455000) can0 1D8#2974400E0000A064
(0.456000) can0 1E5#286C04000000209E
(0.457000) can0 261#B34C0A0000403574
(0.457000) can0 2AA#571013
(0.458000) can0 719#1619002677010000
(0.459000) can0 243#01FC384636005C5C
(0.462000) can0 221#610555550107609B
(0.462000) can0 7AA#1522880C50081300
(0.465000) can0 1D5#29000000000000FF
(0.466000) can0 3A3#16C00000380DFC01
(0.467000) can0 118#2E64950000C85400
(0.468000) can0 788#0240C50700030000
(0.468000) can0 132#BC8E0DFF523E
(0.471000) can0 201#006D6E0000E4FF00
(0.471000) can0 3F9#0700000000000000
(0.474000) can0 261#D401D84B00404472
(0.474000) can0 6A2#0000000000
(0.477000) can0 1D8#2974400E0000E0A4
(0.477000) can0 2E5#00000E320000DD00
(0.478000) can0 25D#3741012A04F08703
(0.479000) can0 243#02FC930D05D60000
(0.479000) can0 45A#24C03EC15F2F4638
(0.480000) can0 2E1#0400000000202600
(0.482000) can0 2A8#0101000006009042
(0.483000) can0 54F#0000000000000000
(0.483000) can0 332#C51D6D073815
(0.484000) can0 3F2#0672A8C9A0D7290D
(0.485000) can0 492#2503FF0F280000
(0.485000) can0 362#000000
(0.486000) can0 422#700010000000
(0.487000) can0 2E5#00000E320000DD00
(0.488000) can0 266#10000F310E007701
(0.488000) can0 24A#03
(0.489000) can0 263#0200C0860D363621
(0.490000) can0 320#0000000000000000
(0.490000) can0 372#001F0024A2111824
(0.491000) can0 428#20001010000010
(0.492000) can0 682#0000004004111045
(0.493000) can0 441#4085890032001801
(0.494000) can0 201#0104980000000000
(0.497000) can0 1D8#2974400E000020E4
(0.497000) can0 2E1#65800800B651316A
(0.498000) can0 2E5#00000E320000DD00
(0.499000) can0 132#C68E13FF5E3E
(0.499000) can0 2B6#000300
(0.500000) can0 7F4#01
(0.501000) can0 397#13E07F7A1C0C0000
(0.509000) can0 553#0000000000001068
(0.514000) can0 401#012AA594AC94AB94
(0.516000) can0 242#55558600
(0.518000) can0 379#02000848333F2100
(0.520000) can0 132#C18E13FF5D3E
(0.522000) can0 261#3140020095497AC1
(0.525000) can0 139#00
(0.527000) can0 2C4#1400000000000000
(0.529000) can0 118#A46A950000C8C400
(0.530000) can0 401#022AA394A7949994
(0.531000) can0 545#90045D809991A98E
(0.531000) can0 129#4F29E45F0020FF3F
(0.532000) can0 2D1#FF01
(0.535000) can0 1D5#290000000000E0DF
(0.535000) can0 1D8#2972000E0000A022
(0.536000) can0 1E5#286C04000000209E
(0.537000) can0 261#CA291102805C825A
(0.537000) can0 2E5#00000E320000DD00
(0.538000) can0 132#CD8E11FF583E
(0.541000) can0 7A8#BCCCB18300008200
(0.542000) can0 129#902AE45F0020FF3F
(0.543000) can0 272#0380610000000000
(0.544000) can0 1D5#29000000000000FF
(0.544000) can0 301#1F000000FFFFFFFF
(0.545000) can0 2C1#0400000000000000
(0.546000) can0 1D8#2972C00D0000C001
(0.547000) can0 709#0280808080800000
(0.547000) can0 3C0#0200000000000000
(0.548000) can0 284#300000004008100E
(0.549000) can0 132#B98E11FF5B3E
(0.549000) can0 2B3#CCC8686178415300
(0.550000) can0 282#8C30C20814040324
(0.551000) can0 40A#091000000000C0E7
(0.552000) can0 129#612BE45F0020FF3F
(0.555000) can0 261#B34C0A00004095D4
(0.557000) can0 1D8#2972C00D0000E021
(0.559000) can0 1F8#1A000000
(0.561000) can0 2E1#FB1F97B9978F0900
(0.563000) can0 129#AC2CE45F0120FF3F
(0.565000) can0 1D5#290000000000403F
(0.567000) can0 448#20001010000010
(0.570000) can0 2E5#00000E320000DD00
(0.571000) can0 4E2#04E0608E19780100
(0.572000) can0 129#132DE45F0020FF3F
(0.572000) can0 6A1#0000000000
(0.575000) can0 288#0106184C0060F146
(0.575000) can0 1D8#2970000E000020A0
(0.576000) can0 1E5#286C04000000209E
(0.577000) can0 3FD#0000003C20000180
(0.579000) can0 257#FB805E5202402F01
(0.580000) can0 552#00000000000090E7
(0.583000) can0 2A8#010100000600A052
(0.583000) can0 1D5#290000000000807F
(0.586000) can0 261#0522E4C99A42B056
(0.586000) can0 22B#FFFFFF3FE0FFFFFF
(0.587000) can0 195#000000000A002706
(0.588000) can0 266#0F000E310E007501
(0.588000) can0 132#C88E1AFF753E
(0.589000) can0 343#009264AE96000000
(0.590000) can0 545#020002000000C00E
(0.593000) can0 3AE#024000080000206B
(0.593000) can0 23E#00003AC002FF4F8A
(0.596000) can0 201#0104980000000000
(0.597000) can0 266#0F000E310E007501
(0.598000) can0 285#61018E0308002E00
(0.599000) can0 353#FB0F39801A080712
(0.599000) can0 132#C38E15FF5C3E
(0.600000) can0 348#1600019BDF070110
(0.601000) can0 528#6A3151B7
(0.601000) can0 2B6#000300
(0.602000) can0 318#1A063B0D102539F1
(0.603000) can0 2E2#00000061020B0000
(0.604000) can0 55A#0100000000000000
(0.604000) can0 129#D820E45F0020FF3F
(0.605000) can0 553#0000000000002078
(0.606000) can0 2C1#0219160000D09201
(0.607000) can0 1E5#286C04000000007E
(0.608000) can0 118#1B62950000C844FF
(0.609000) can0 2B3#8D04A094EA716319
(0.610000) can0 3DB#0300000000800000
(0.610000) can0 719#0100040000000000
(0.611000) can0 7D5#2C3F3F0000000000
(0.612000) can0 129#CF21E45F0020FF3F
(0.613000) can0 423#00001000000000
(0.613000) can0 1D5#290000000000E0DF
(0.616000) can0 242#55558600
(0.616000) can0 247#520EFF0000000000
(0.617000) can0 266#0F000F310E007601
(0.618000) can0 381#16000400007F0000
(0.618000) can0 3E9#008802000000D046
(0.619000) can0 201#0200000000000000
(0.621000) can0 2D2#F32EAF4E8813E822
(0.621000) can0 312#00E566449C791B17
(0.622000) can0 360#0400000000000000
(0.623000) can0 545#E00462809991D913
(0.624000) can0 1D5#29000000000000FF
(0.624000) can0 3E8#0500000000000000
(0.625000) can0 677#0100000000000000
(0.626000) can0 1E5#286C0400000040BE
(0.627000) can0 2C4#550001081000FF00
(0.627000) can0 3FD#01000A0000080280
(0.629000) can0 224#0408004019011008
(0.630000) can0 401#072A8594A694A794
(0.633000) can0 3AE#024000080000307B
(0.633000) can0 23E#00003AC002FF5F9A
(0.635000) can0 225#5555FA00
(0.635000) can0 1D8#296E800D0000E0DD
(0.636000) can0 122#01000000003F0000
(0.637000) can0 257#06835E5202482F01
(0.638000) can0 359#3400000000000000
(0.638000) can0 243#00FCCF8C90440D29
(0.641000) can0 7A8#01000000FFA1C812
(0.643000) can0 129#BA24E45F0120FF3F
(0.643000) can0 421#021A0000002000
(0.646000) can0 3F6#00050000B6340000
(0.646000) can0 2E5#00000E320000DD00
(0.647000) can0 3C0#0300000000000000
(0.648000) can0 266#0F000F310E007601
(0.648000) can0 228#0106184C0060B1A6
(0.650000) can0 401#082AB394A894A594
(0.651000) can0 3E2#040000711FCF00
(0.652000) can0 129#0025E45F0020FF3F
(0.652000) can0 381#1700000000000000
(0.655000) can0 1D5#290000000000605F
(0.655000) can0 545#010000000010E03B
(0.656000) can0 118#9167950000C8B400
(0.657000) can0 2E1#FB1F98B9978F0900
(0.657000) can0 1F8#1A000000
(0.658000) can0 3A2#32A7FFFF04000000
(0.659000) can0 123#01000000003F0000
(0.662000) can0 221#610555550107A0DB
(0.662000) can0 39B#0314DF80B00CB181
(0.663000) can0 234#3310032FBD04C091
(0.665000) can0 289#CA0A86429D003D0F
(0.665000) can0 3A3#16C00000380DFC01
(0.666000) can0 1E5#286C0400000040BE
(0.667000) can0 2E5#00000E320000DD00
(0.668000) can0 118#6268950000C88400
(0.668000) can0 132#D18E19FF813E
(0.669000) can0 2B3#CE2B5E0100161900
(0.672000) can0 393#0380610000000000
(0.672000) can0 2E1#0400000000202600
(0.675000) can0 1D5#290000000000A09F
(0.675000) can0 1D8#296E400D0000601D
(0.676000) can0 118#1369950000C83400
(0.677000) can0 20C#0098371E1801000E
(0.677000) can0 2E5#00000E320000DD00
(0.679000) can0 3FD#0200400000000090
(0.681000) can0 21D#0400B50000000000
(0.682000) can0 2A8#010100000600B062
(0.683000) can0 4E3#00AC010000002800
(0.683000) can0 1D5#290000000000C0BF
(0.686000) can0 2C1#216B186402000000
(0.686000) can0 2E5#00000E320000DD00
(0.687000) can0 195#000000000A002706
(0.688000) can0 266#0F000E310E007601
(0.688000) can0 132#CD8E1AFF723E
(0.689000) can0 320#0100000800000000
(0.690000) can0 381#1800000000000000
(0.691000) can0 428#20001010000010
(0.691000) can0 77A#A104945CD05CAC5C
(0.693000) can0 2C2#2040404B010080CB
(0.696000) can0 201#0104980000000000
(0.696000) can0 266#0F000E310E007601
(0.697000) can0 3AE#03400008000061AD
(0.698000) can0 3DF#0000C00002D0001B
(0.698000) can0 126#1D40380CC8
(0.699000) can0 285#034A7D5277000000
(0.700000) can0 113#019701
(0.701000) can0 318#1A063B0D10253BF3
(0.701000) can0 279#28B1FC01B4056502
(0.702000) can0 376#FBFFFBFFFB0F5005
(0.703000) can0 397#13E0FF791C0C0000
(0.704000) can0 129#3D2AE45F0120FF3F
(0.704000) can0 553#0000000000003088
(0.706000) can0 656#1F00000000000000
(0.707000) can0 25B#D38000056A86C063
(0.707000) can0 35A#0000000000000000
(0.708000) can0 35B#0000000000000000
(0.709000) can0 118#C56C950000C8E4FF
(0.710000) can0 266#0E000E310E007701
(0.710000) can0 401#0B2AA194B094A894
(0.711000) can0 7D5#2B722FFF00000000
(0.712000) can0 2F1#00DA248142001600
(0.713000) can0 129#082BE45FFF1FFF3F
(0.713000) can0 423#00001000000000
(0.716000) can0 242#55558600
(0.718000) can0 227#000000004D000080
(0.720000) can0 132#D58E23FF843E
(0.722000) can0 2F2#1201
(0.725000) can0 360#0500040000000000
(0.727000) can0 204#010000FF00000010
(0.729000) can0 2E5#00000E320000DD00
(0.731000) can0 2B3#AF03294AED0E6004
(0.732000) can0 2D1#FF01
(0.735000) can0 1D5#290000000000605F
(0.735000) can0 1D8#296A000D00002099
(0.736000) can0 118#C86F950000C8E4FF
(0.737000) can0 257#1B985E5202482F01
(0.737000) can0 359#B63F000009000012
(0.738000) can0 132#D08E19FF633E
(0.741000) can0 7A8#0240C007000F0000
(0.743000) can0 129#CC2EE45F0020FF3F
(0.743000) can0 421#021A0000002000
(0.748000) can0 2C1#0400000000000000
(0.750000) can0 266#0E000E310E007701
(0.752000) can0 39A#281BE37A132FE77E
(0.754000) can0 103#22B38804A2F02032
(0.761000) can0 3AE#03400008000080CC
(0.765000) can0 129#B120E45FFF1FFF3F
(0.767000) can0 448#20001010000010
(0.769000) can0 118#1C62950000C84400
(0.771000) can0 201#006E6D0000E4FF00
(0.774000) can0 3F9#0100000000000000
(0.777000) can0 1D8#2968C00C0000A0D6
(0.779000) can0 257#1D9A5E5202482F01
(0.781000) can0 45A#24C03EC15F2F4637
(0.783000) can0 2A8#010100000600C072
(0.786000) can0 1D5#29000000000000FF
(0.788000) can0 2E5#00000E320000DD00
(0.790000) can0 396#091E1D5357600E7D
(0.793000) can0 401#0F2A9694AD949094
(0.793000) can0 23E#00003AC002FF9FDA
(0.796000) can0 201#0104980000000000
(0.796000) can0 266#0E000E310E007701
(0.797000) can0 3B3#8C8004300100A800
(0.798000) can0 757#2C3F3E0000000000
(0.798000) can0 3CC#0321C319000E0900
(0.799000) can0 1D6#02080000CA801D08
(0.800000) can0 113#019701
(0.801000) can0 458#00002000000000
(0.801000) can0 2E1#1021040010000004
(0.803000) can0 2E2#01000029020B0000
(0.804000) can0 757#3200000000000000
(0.804000) can0 2C1#0219160000D09201
(0.805000) can0 1D8#2966800C000000F4
(0.808000) can0 25B#D38000056A86D073
(0.808000) can0 266#0E000E310E007501
(0.809000) can0 263#0300000000000000
(0.810000) can0 315#015656005F570000
(0.810000) can0 7D5#2C3F3F0000000000
(0.811000) can0 315#6B2BD02640006005
(0.812000) can0 129#AD25E45F0120FF3F
(0.813000) can0 3D5#5E5F5D5D5F2C0162
(0.813000) can0 234#2FE103804300F465
(0.814000) can0 7D5#42F8007300002800
(0.816000) can0 3B5#0000000000000000
(0.817000) can0 247#530EFF0000000000
(0.817000) can0 266#0E000E310E007501
(0.818000) can0 3C5#0000000000000000
(0.819000) can0 132#D38E21FF7E3E
(0.819000) can0 2C3#0000C04B010040CB
(0.820000) can0 212#5904000081FF7731
(0.821000) can0 2D2#F32EB04E8813E822
(0.822000) can0 36B#0000000000000000
(0.822000) can0 36E#0000000000000000
(0.823000) can0 207#0000000000000000
(0.824000) can0 545#E0045DD0999239BF
(0.825000) can0 3E8#0000000000000000
(0.825000) can0 2C1#531A900000000000
(0.827000) can0 1D8#2966800C00004034
(0.828000) can0 2B4#4005470E7801
(0.828000) can0 118#6168950000C884FF
(0.829000) can0 400#00E0FBBEEFFB00
(0.830000) can0 401#112AC194BF94CB94
(0.831000) can0 45A#FD07F8FF03001935
(0.833000) can0 129#6027E45F0120FF3F
(0.833000) can0 1D5#290000000000A09F
(0.836000) can0 225#5555FA00
(0.836000) can0 122#01000000003F0000
(0.837000) can0 2E5#00000E320000DD00
(0.840000) can0 132#DE8E28FF873E
(0.840000) can0 261#B34C0A000040B5F4
(0.843000) can0 129#1A28E45F0020FF3F
(0.844000) can0 421#021A0000002000
(0.845000) can0 201#0300000000000000
(0.846000) can0 1D8#2966800C00008074
(0.846000) can0 2E5#00000E320000DD00
(0.847000) can0 334#3F3F1408FF0112E3
(0.848000) can0 3FD#0000003C20000180
(0.850000) can0 287#30322F31D9020000
(0.850000) can0 414#1133535459323530
(0.851000) can0 282#8C30C20818040324
(0.852000) can0 401#122ABC94BA94CF94
(0.853000) can0 129#E229E45F0120FF3F
(0.853000) can0 545#010000000010409B
(0.854000) can0 3A2#32A7FFFF04000000
(0.857000) can0 1D8#2964400C0000A052
(0.858000) can0 1F8#1A000000
(0.859000) can0 123#01000000003F0000
(0.859000) can0 719#0300000000000000
(0.860000) can0 221#610555550107E01B
(0.863000) can0 129#3D2AE45F0120FF3F
(0.863000) can0 1D5#29000000000000FF
(0.864000) can0 289#CA0C864286003D0F
(0.865000) can0 211#B511710F1001
(0.865000) can0 717#000500E9FF2400
(0.866000) can0 3A3#1AC00000380DFC01
(0.867000) can0 1E5#286C0400000040BE
(0.868000) can0 281#0000FF1F0000
(0.868000) can0 788#B8D4B1830000B600
(0.869000) can0 266#0D000E310E007501
(0.870000) can0 381#22A2F027F1200400
(0.871000) can0 201#006D6E0000E4FF00
(0.872000) can0 129#612BE45F0020FF3F
(0.873000) can0 6A1#0000000000
(0.874000) can0 288#0106184C00602176
(0.876000) can0 1D8#2964400C0000E092
(0.876000) can0 266#0D000E310E007501
(0.877000) can0 20C#0098371E1801000E
(0.878000) can0 25D#3741012A04F08803
(0.878000) can0 339#02F1FE008007800F
(0.879000) can0 552#000000000000C017
(0.882000) can0 2E1#65800800B751316A
(0.882000) can0 229#6D0300
(0.883000) can0 4E3#0200000000002800
(0.886000) can0 2C1#216B186402000000
(0.887000) can0 2E5#00000E320000DD00
(0.888000) can0 1A5#00101F20F5
(0.888000) can0 132#DB8E33FFA83E
(0.889000) can0 320#0200000000000000
(0.890000) can0 396#091E1D5357610E7D
(0.891000) can0 78A#0100060003000000
(0.891000) can0 682#0000004004115085
(0.892000) can0 119#00000000
(0.895000) can0 1D5#290000000000605F
(0.895000) can0 1D8#2964000C00002092
(0.896000) can0 118#786F950000C894FF
(0.897000) can0 2E1#1021040010000004
(0.897000) can0 3BB#230F14
(0.898000) can0 273#81ED3000C8021011
(0.899000) can0 3FD#01000A0000080280
(0.902000) can0 126#1B40381CD6
(0.902000) can0 397#13C0FF791C0C0000
(0.903000) can0 3A8#0300000000000000
(0.904000) can0 757#3200000000000000
(0.905000) can0 2C1#0219160000D09201
(0.905000) can0 1D8#2964000C000040B2
(0.906000) can0 2E5#00000E320000DD00
(0.907000) can0 25B#D38000056A86E083
(0.908000) can0 118#EA60950000C81400
(0.908000) can0 266#0D000E310E007601
(0.909000) can0 372#0700000000000000
(0.910000) can0 7D5#2C3F3F0000000000
(0.911000) can0 7D7#321C000000000000
(0.913000) can0 129#C92FE55F0020FF3F
(0.914000) can0 1D5#290000000000A09F
(0.915000) can0 242#55558600
(0.915000) can0 1D8#2962000C000060D0
(0.916000) can0 39D#FF57E12700
(0.917000) can0 266#0D000E310E007601
(0.920000) can0 132#D98E2DFF993E
(0.920000) can0 292#29FA17638B010000
(0.921000) can0 3A2#0110200000000000
(0.922000) can0 207#0000000000000000
(0.922000) can0 3AE#054000080000E12F
(0.923000) can0 3F5#0000C838830C0000
(0.924000) can0 3E8#0100000000000000
(0.925000) can0 2C4#19C27C030D1C2003
(0.925000) can0 1D8#2962000C000080F0
(0.927000) can0 224#0408004019011008
(0.928000) can0 118#FC62950000C82400
(0.928000) can0 38D#563FAAAAAA244902
(0.929000) can0 2E1#026D66021E740000
(0.930000) can0 45A#FD07F8FF03001935
(0.933000) can0 129#9621E55F0120FF3F
(0.933000) can0 1D5#290000000000E0DF
(0.936000) can0 225#5555FA00
(0.936000) can0 122#00001392D2000000
(0.937000) can0 261#B34C0A0000401554
(0.940000) can0 132#E38E2BFF8C3E
(0.940000) can0 381#0400000000000000
(0.943000) can0 129#DF22E55F0120FF3F
(0.943000) can0 421#021A0000002000
(0.946000) can0 321#9B9AAA7B027B201B
(0.948000) can0 2E5#00000E320000DD00
(0.950000) can0 3FD#0200400000000090
(0.956000) can0 228#0106184C0060E1D6
(0.958000) can0 2E8#01010000060000F2
(0.961000) can0 719#150003AD00000000
(0.964000) can0 234#3320032FBD042001
(0.964000) can0 2F9#BCFB07030D1A8B84
(0.965000) can0 3A3#1CC00000380DFC01
(0.966000) can0 1E5#286C04000000007E
(0.966000) can0 2E5#00000E320000DD00
(0.967000) can0 118#4066950000C86400
(0.968000) can0 132#E38E33FF993E
(0.969000) can0 263#89E6D1AFAF4F5F1F
(0.970000) can0 401#182AC3949D94A094
(0.971000) can0 4E2#013B0E0000002800
(0.972000) can0 129#1F25E65F0320FF3F
(0.972000) can0 6A1#0000000000
(0.973000) can0 1D5#290000000000605F
(0.974000) can0 6A2#0000000000
(0.977000) can0 1D8#2962C00B0000204F
(0.977000) can0 257#FF845E5202402F01
(0.978000) can0 2E5#00000E320000DD00
(0.979000) can0 243#02FC930D05D60000
(0.979000) can0 45A#24C03EC15F2F4637
(0.982000) can0 2A8#010100000600E092
(0.982000) can0 249#83050000
(0.985000) can0 1D5#290000000000807F
(0.986000) can0 1F9#0000000000000000
(0.987000) can0 186#07050002003B1925
(0.988000) can0 266#0D000E310E007601
(0.988000) can0 132#D78E32FF993E
(0.989000) can0 343#009260EE95000000
(0.990000) can0 78A#0100000020130B0D
(0.993000) can0 682#0000004004116095
(0.993000) can0 23E#00003AC002FFEF2A
(0.996000) can0 201#0104980000000000
(0.996000) can0 266#0D000E310E007601
(0.997000) can0 2E5#00000E320000DD00
(0.998000) can0 757#2C3F3E0000000000
(0.998000) can0 126#1A403824DD
(0.999000) can0 243#0300000028442500
(1.000000) can0 113#019701
(1.001000) can0 279#2BB4FC01B4056502
(1.002000) can0 397#13C0FF791C0C0000
(1.005000) can0 7AA#0C00000000000039
(1.009000) can0 1E5#286C04000000007E
(1.011000) can0 719#1619002677010000
(1.013000) can0 3AE#064000080000105F
(1.015000) can0 1D5#290000000000E0DF
(1.017000) can0 379#07601500BDA01306
(1.019000) can0 257#01865E5202402F01
(1.021000) can0 3A2#0110200000000000
(1.023000) can0 409#00
(1.025000) can0 1D5#29000000000000FF
(1.026000) can0 264#3F000000A000
(1.027000) can0 22B#FFFFFF3FF0FFFFFF
(1.028000) can0 2A4#3A80C10C9E800662
(1.029000) can0 3AE#0740000800002070
(1.030000) can0 102#22B3480494FAA009
(1.030000) can0 37A#CBE0010000000000
(1.031000) can0 677#0100000000000000
(1.032000) can0 129#9F2BE85F0720FF3F
(1.033000) can0 2D1#FF01
(1.033000) can0 23E#00003AC002FFFF3A
(1.034000) can0 3E2#040000611FCF00
(1.035000) can0 225#5555FA00
(1.035000) can0 1D8#2960C00B0000E00D
(1.036000) can0 122#01000000003F0000
(1.037000) can0 39D#025AE12700
(1.040000) can0 132#D88E33FF953E
(1.040000) can0 2E1#FB1F99B997940900
(1.042000) can0 129#522CE85F0620FF3F
(1.043000) can0 441#D300B6C358000512
(1.043000) can0 1D5#290000000000403F
(1.046000) can0 2C1#0400000000000000
(1.046000) can0 2E5#00000E320000DD00
(1.049000) can0 118#F86E950000C81400
(1.051000) can0 381#0700000000000000
(1.053000) can0 3C2#0055555500006A05
(1.055000) can0 1D5#290000000000605F
(1.057000) can0 1D8#2960800B0000200D
(1.059000) can0 2E5#00000E320000DD00
(1.061000) can0 221#610555550107205B
(1.064000) can0 3AE#0840000800004192
(1.065000) can0 261#0522E4C99A429036
(1.066000) can0 448#20001010000010
(1.067000) can0 2E5#00000E320000DD00
(1.068000) can0 266#0D000E310E007701
(1.068000) can0 401#1D2AAA94B094A994
(1.069000) can0 201#006E6E0000E4FF00
(1.072000) can0 393#0380610000000000
(1.072000) can0 2E1#65800800B751316A
(1.075000) can0 1D5#290000000000A09F
(1.075000) can0 1D8#295E800B0000604B
(1.076000) can0 39D#035BE12700
(1.077000) can0 20C#0078371E1801000E
(1.077000) can0 257#04895E5202402F01
(1.078000) can0 3A1#884C0FCA001822A7
(1.079000) can0 243#02FC930D05D60000
(1.080000) can0 75D#0400000000000000
(1.083000) can0 2A8#010100000600F0A2
(1.083000) can0 1D5#290000000000C0BF
(1.086000) can0 2C1#216B186402000000
(1.086000) can0 422#700010000000
(1.087000) can0 195#000000000A002706
(1.088000) can0 266#0C000E310E007701
(1.088000) can0 132#D88E37FFB33E
(1.089000) can0 2B3#24A4479326070C00
(1.090000) can0 340#0400000000000000
(1.091000) can0 401#1E2AAC94A894B094
(1.091000) can0 129#DB21E85F0320FF3F
(1.092000) can0 119#00000000
(1.095000) can0 1D5#290000000000E0DF
(1.096000) can0 1D8#295E400B0000A04B
(1.097000) can0 261#3140FCFF9549BAFA
(1.098000) can0 108#1CF50282015B1925
(1.098000) can0 128#0000EC0A02
(1.099000) can0 268#1C0E9A01FF
(1.100000) can0 414#1233585646544756
(1.100000) can0 405#1246333638353739
(1.101000) can0 666#0000C800
(1.102000) can0 553#00000000000070C8
(1.103000) can0 7FF#09EF000010000000
(1.103000) can0 082#017FFF29B801B309
(1.104000) can0 319#28000000FFFFFFFF
(1.105000) can0 2C1#0219160000D09201
(1.106000) can0 1D8#295E800B0000C0AB
(1.107000) can0 2E5#00000E320000DD00
(1.108000) can0 7D5#2B713FFF00000000
(1.109000) can0 266#0D000E310E007601
(1.109000) can0 401#1F2AAB949F94B194
(1.110000) can0 7D5#2C3F3F0000000000
(1.111000) can0 2F1#045A1E0143000000
(1.112000) can0 129#2823E85F0220FF3F
(1.112000) can0 261#CA291102805CC29A
(1.113000) can0 234#2FE10380430054C5
(1.116000) can0 242#55558600
(1.116000) can0 39D#045CE12700
(1.117000) can0 266#0D000E310E007601
(1.118000) can0 545#E0045D509991C9CE
(1.118000) can0 2C3#555BA9B682C112AA
(1.119000) can0 2D2#F22EB04E8813E822
(1.121000) can0 212#5904000081FF7731
(1.121000) can0 381#0900000000000000
(1.122000) can0 360#0900000000000000
(1.123000) can0 3F5#0000C838820C0000
(1.124000) can0 1D5#290000000000403F
(1.124000) can0 2C1#531A900000000000
(1.125000) can0 204#010000FF00000010
(1.126000) can0 264#3E000000A000
(1.127000) can0 22B#FFFFFF3FF0FFFFFF
(1.127000) can0 3A1#C1FFFF0B3D0030F7
(1.128000) can0 400#00E0FBBEEFFB00
(1.129000) can0 263#04000000A01C0000
(1.130000) can0 401#2000000000000000
(1.132000) can0 129#4D25E95F0220FF3F
(1.133000) can0 2D1#FF01
(1.136000) can0 225#5555FA00
(1.136000) can0 122#00001392D2000000
(1.137000) can0 257#078C5E5202402F01
(1.140000) can0 132#E58E3DFFAF3E
(1.140000) can0 283#000000004000
(1.143000) can0 3AE#08400008000061B2
(1.143000) can0 1D5#290000000000807F
(1.146000) can0 261#D401D84B0040E412
(1.148000) can0 287#30322F31D9020000
(1.150000) can0 228#0106184C006001F6
(1.152000) can0 282#8C30C20814040324
(1.154000) can0 2E1#0400000000202600
(1.156000) can0 1D8#295C400B00006009
(1.159000) can0 266#0C000E310E007601
(1.162000) can0 70B#F0E7402020FF217D
(1.164000) can0 7AA#014C0E4A0E01002E
(1.164000) can0 2F9#BCFB07100D1A8B84
(1.165000) can0 3A3#18C00000380DFC01
(1.166000) can0 788#B8D4B1830000B600
(1.166000) can0 20E#160600
(1.167000) can0 118#636A950000C884FF
(1.168000) can0 132#E38E3EFFB33E
(1.169000) can0 263#89E6D1AFAF4F5F1F
(1.169000) can0 201#006E6D0000E4FF00
(1.170000) can0 307#000000000000003B
(1.171000) can0 4E2#03B0010000002800
(1.172000) can0 129#2F29EB5F0620FF3F
(1.173000) can0 6A1#0000000000
(1.174000) can0 6A2#0000000000
(1.177000) can0 1D8#295C400B0000A049
(1.177000) can0 257#098E5E5202402F01
(1.178000) can0 2E5#00000E320000DD00
(1.179000) can0 243#02FC930D05D60000
(1.179000) can0 552#000000000000F047
(1.182000) can0 2A8#01010000060000B2
(1.182000) can0 229#DD0600
(1.185000) can0 545#020002000000E02E
(1.185000) can0 422#700010000000
(1.186000) can0 1E5#286C0400000040BE
(1.187000) can0 3AE#0A400008000080D3
(1.187000) can0 118#E66C950000C80400
(1.188000) can0 396#091E1E53545F0E7D
(1.190000) can0 340#0500000000000000
(1.190000) can0 77A#0013BDFF0813785B
(1.191000) can0 682#00000040041180B5
(1.192000) can0 2C2#5523AA0680C112AA
(1.193000) can0 381#0B00000000000000
(1.193000) can0 1D5#290000000000201F
(1.194000) can0 201#0104980000000000
(1.195000) can0 3E3#04000000
(1.196000) can0 1D8#295C400B0000E089
(1.196000) can0 266#0D000E310E007601
(1.197000) can0 757#2C3F3E0000000000
(1.198000) can0 757#3200000000000000
(1.199000) can0 126#18403834EB
(1.199000) can0 1D6#02080000CA801D08
(1.201000) can0 279#2DB6FC01B4056502
(1.202000) can0 7FF#0191494642041601
(1.202000) can0 439#0000000000185A04
(1.203000) can0 129#162CED5F0A20FF3F
(1.204000) can0 553#00000000000080D8
(1.207000) can0 1D8#295C400B000000A9
(1.207000) can0 118#486E950000C86400
(1.208000) can0 266#0C000E310E007701
(1.209000) can0 263#0300000000000000
(1.209000) can0 387#FFFFFFFFFFFF0040
(1.210000) can0 7D5#3200000000000000
(1.211000) can0 7D7#321C000000000000
(1.212000) can0 129#042DED5F0A20FF3F
(1.212000) can0 423#00001000000000
(1.214000) can0 1D5#290000000000605F
(1.215000) can0 242#55558600
(1.215000) can0 1D8#295C400B000020C9
(1.216000) can0 266#0C000E310E007701
(1.217000) can0 247#540EFF0000000000
(1.218000) can0 3A2#0110200000000000
(1.218000) can0 2C3#0000C04B010040CB
(1.219000) can0 2D2#F22EB04E8813E822
(1.220000) can0 212#5904000081FF7731
(1.221000) can0 292#29FA17638B010000
(1.221000) can0 409#00
(1.222000) can0 360#0A00000000000000
(1.225000) can0 1D5#290000000000807F
(1.225000) can0 204#010000FF00000010
(1.227000) can0 224#0408004019011008
(1.228000) can0 400#00E0FBBEEFFB00
(1.228000) can0 677#0100000000000000
(1.229000) can0 263#04000000A01C0000
(1.230000) can0 45A#FD07F8FF03001935
(1.233000) can0 129#C12FEE5F0920FF3F
(1.233000) can0 1D5#290000000000A09F
(1.236000) can0 225#5555FA00
(1.236000) can0 122#01000000003F0000
(1.237000) can0 257#FC815E5202402F01
(1.240000) can0 132#E48E39FFAE3E
(1.240000) can0 261#D401D84B00404472
(1.243000) can0 3AE#0C4000080000A0F5
(1.243000) can0 1D5#290000000000C0BF
(1.244000) can0 361#2C0E190200
(1.245000) can0 201#0300000000000000
(1.246000) can0 2E5#00000E320000DD00
(1.247000) can0 4F3#00000000
(1.248000) can0 266#0C000E310E007701
(1.248000) can0 132#D48E3AFFAE3E
(1.249000) can0 545#010000000010005B
(1.250000) can0 282#8C30C20814040324
(1.251000) can0 3A2#32A7FFFF04000000
(1.251000) can0 3C2#0055555500006A05
(1.252000) can0 22A#0000E916
(1.256000) can0 1D5#290000000000E0DF
(1.261000) can0 266#0C000E310E007701
(1.263000) can0 129#8E22EF5F0920FF3F
(1.265000) can0 1D5#29000000000000FF
(1.268000) can0 381#0D00000000000000
(1.270000) can0 132#D48E3EFFB33E
(1.272000) can0 393#0380610000000000
(1.274000) can0 6A1#0000000000
(1.276000) can0 6A2#0000000000
(1.277000) can0 257#FE835E5202402F01
(1.278000) can0 2E5#00000E320000DD00
(1.279000) can0 339#02F1FE008007800F
(1.279000) can0 45A#24C03EC15F2F4637
(1.280000) can0 2E1#1021040010000004
(1.283000) can0 2A8#01010000060010C2
(1.283000) can0 545#020002000000105E
(1.286000) can0 2C1#216B186402000000
(1.286000) can0 2E5#00000E320000DD00
(1.288000) can0 1A5#00101F4015
(1.288000) can0 132#D88E3CFFAE3E
(1.289000) can0 320#0400000000000000
(1.290000) can0 428#20001010000010
(1.293000) can0 3AE#0D4000080000C117
(1.293000) can0 1D5#290000000000605F
(1.296000) can0 201#0104980000000000
(1.296000) can0 257#FF845E5202402F01
(1.297000) can0 3CC#0321031A000E0900
(1.298000) can0 3B3#8C8004300100A800
(1.298000) can0 5F3#B2F520
(1.299000) can0 126#1840383CF3
(1.300000) can0 113#019701
(1.301000) can0 318#1A063B0D102527DF
(1.301000) can0 279#2EB7FC01B4056502
(1.303000) can0 381#0E00000000E0FF00
(1.304000) can0 439#0000000000185A04
(1.304000) can0 261#CA291102805C825A
(1.305000) can0 677#0300000000000000
(1.308000) can0 2E5#00000E320000DD00
(1.308000) can0 1FA#1AC001
(1.309000) can0 263#0300000000000000
(1.310000) can0 7D7#321C000000000000
(1.310000) can0 2F1#06DA230143000100
(1.313000) can0 129#2727F25F0920FF3F
(1.313000) can0 234#2EE1038043009404
(1.316000) can0 242#55558600
(1.316000) can0 118#B269950000C8D4FF
(1.317000) can0 227#000000004D000080
(1.318000) can0 2E5#00000E320000DD00
(1.319000) can0 2C3#555BA9B682C112AA
(1.320000) can0 207#0000000000000000
(1.321000) can0 261#B34C0A00004095D4
(1.321000) can0 3F5#0000C838820C0000
(1.322000) can0 360#0000000000000000
(1.325000) can0 1D5#290000000000C0BF
(1.325000) can0 204#010000FF00000010
(1.326000) can0 264#3B000000A000
(1.327000) can0 22B#FFFFFF3FF0FFFFFF
(1.327000) can0 3A1#C1FFFF2B3D007057
(1.328000) can0 400#00E0FBBEEFFB00
(1.329000) can0 263#04000000A01C0000
(1.330000) can0 372#0E00000C067D0000
(1.333000) can0 3AE#0D4000080000D127
(1.334000) can0 1D5#290000000000E0DF
(1.337000) can0 1D8#295A000B0000A007
(1.337000) can0 359#4300000000000000
(1.338000) can0 132#DB8E42FFC03E
(1.341000) can0 7A8#0240C007000F0000
(1.341000) can0 3AE#0F4000080000E139
(1.344000) can0 441#D200B6C358001D29
(1.346000) can0 737#01000000E0F080
(1.348000) can0 677#0400000000000000
(1.350000) can0 3FD#0000003C20000180
(1.356000) can0 334#3F3F1408FF0122F3
(1.359000) can0 39D#FA52E12700
(1.362000) can0 2E1#65800800B751316A
(1.364000) can0 234#3220032FBD04A080
(1.365000) can0 2F9#BCFB072000000000
(1.366000) can0 1E5#286C04000000007E
(1.367000) can0 3AE#104000080000F14A
(1.367000) can0 118#386E950000C85400
(1.368000) can0 132#DE8E40FFC63E
(1.369000) can0 263#89E6D1AFAF4F5F1F
(1.369000) can0 201#006E6E0000E4FF00
(1.372000) can0 393#080002D107B00304
(1.372000) can0 6A1#0000000000
(1.375000) can0 1D5#290000000000605F
(1.375000) can0 1D8#295AC00A00002046
(1.376000) can0 266#0C000E310D007601
(1.377000) can0 20C#0078371E1801000E
(1.377000) can0 25D#3741012A04F08803
(1.379000) can0 31E#0100000000000000
(1.380000) can0 552#0000000000001067
(1.383000) can0 545#020002000000408E
(1.385000) can0 54F#0000000000000000
(1.387000) can0 1F9#0000000000000000
(1.389000) can0 27A#BFB90C01B4056202
(1.391000) can0 2B3#0900F02F00008904
(1.393000) can0 129#B12FF45F0920FF3F
(1.395000) can0 7AA#04000FC000260000
(1.398000) can0 1D8#2958C00A00006084
(1.398000) can0 3FD#01000A0000080280
(1.400000) can0 126#17403844FA
(1.401000) can0 397#13C0FF791C0A0000
(1.402000) can0 458#00002000000000
(1.403000) can0 3C2#2955000000000000
(1.406000) can0 2C1#0219160000D09201
(1.406000) can0 2E5#00000E320000DD00
(1.407000) can0 3AE#104000080000015A
(1.408000) can0 266#0C000E310D007801
(1.408000) can0 2E1#026D66021F730000
(1.409000) can0 719#0300000000000000
(1.410000) can0 7D5#3200000000000000
(1.411000) can0 2F1#0702000000E00000
(1.411000) can0 129#5221F45F0520FF3F
(1.414000) can0 423#00001000000000
(1.414000) can0 545#90045890998F5947
(1.415000) can0 3A2#0110200000000000
(1.416000) can0 1E5#286C04000000209E
(1.417000) can0 266#0C000E310D007801
(1.418000) can0 132#E58E45FFBA3E
(1.419000) can0 243#04FC33F2B17CFFFF
(1.419000) can0 201#0200000000000000
(1.420000) can0 212#5904000081FF7731
(1.421000) can0 3B2#42012A074D117772
(1.422000) can0 129#8422F45F0320FF3F
(1.422000) can0 139#00
(1.423000) can0 1D5#29000000000000FF
(1.424000) can0 3E8#0600000000000000
(1.425000) can0 2C1#531A900000000000
(1.425000) can0 204#010000FF00000010
(1.426000) can0 264#3C000000A000
(1.427000) can0 2E5#00000E320000DD00
(1.428000) can0 400#00E0FBBEEFFB00
(1.429000) can0 45A#FD07F8FF03001837
(1.432000) can0 129#3E23F45F0220FF3F
(1.432000) can0 2D1#FF01
(1.433000) can0 23E#00003AC002FF9FDA
(1.434000) can0 3E2#040000611FCF00
(1.434000) can0 225#5555FA00
(1.435000) can0 1D8#2958C00A0000E004
(1.436000) can0 118#8E65950000C8B4FF
(1.437000) can0 257#068B5E5202402F01
(1.437000) can0 359#440400008AAB72AE
(1.438000) can0 132#DD8E43FFBB3E
(1.441000) can0 6C8#0100000000000000
(1.443000) can0 129#6024F45F0120FF3F
(1.443000) can0 1D5#290000000000403F
(1.445000) can0 287#30322F31D9020000
(1.446000) can0 1D8#2958C00A00000024
(1.446000) can0 2E5#00000E320000DD00
(1.449000) can0 3FD#0200400000000090
(1.450000) can0 118#1F66950000C844FF
(1.451000) can0 3C2#0055555500006A05
(1.454000) can0 22A#0000E916
(1.456000) can0 1D8#2958C00A00002044
(1.456000) can0 266#0C000E310D007801
(1.457000) can0 2E5#00000E320000DD00
(1.460000) can0 132#DF8E47FFCA3E
(1.460000) can0 221#610555550107A0DB
(1.463000) can0 129#9226F35F0020FF3F
(1.463000) can0 1D5#290000000000807F
(1.465000) can0 289#CA0C86C294003D0F
(1.466000) can0 1D8#2958C00A00004064
(1.466000) can0 677#0200000000000000
(1.467000) can0 2E5#00000E320000DD00
(1.468000) can0 266#0C000E310D007801
(1.469000) can0 263#89E6D1AFAF4F5F1F
(1.469000) can0 201#006D6E0000E4FF00
(1.472000) can0 393#0380610000000000
(1.472000) can0 6A1#0000000000
(1.475000) can0 1D5#290000000000A09F
(1.475000) can0 1D8#2958C00A00006084
(1.476000) can0 266#0C000E310D007801
(1.477000) can0 333#0410590700
(1.477000) can0 3FD#0000003C20000180
(1.480000) can0 257#088D5E5202402F01
(1.481000) can0 381#130000000020FCFF
(1.482000) can0 420#2801404B00000004
(1.483000) can0 709#0569000EE0130000
(1.483000) can0 311#FF03
(1.484000) can0 3D2#B81608034CB12A03
(1.485000) can0 472#FF1CC221007FFF07
(1.485000) can0 1F9#0000000000000000
(1.486000) can0 422#700010000000
(1.487000) can0 186#200A0002004F1925
(1.488000) can0 24A#03
(1.488000) can0 27A#C0BA0C01B4056202
(1.489000) can0 2E1#398D2AFF0F000000
(1.490000) can0 340#0800000000000000
(1.491000) can0 401#002AD094CA94C794
(1.492000) can0 72A#0054473131393133
(1.495000) can0 1D5#290000000000E0DF
(1.495000) can0 1D8#2958C00A0000A0C4
(1.496000) can0 266#0C000E310D007801
(1.497000) can0 2E5#00000E320000DD00
(1.497000) can0 3AE#0D40000800003086
(1.498000) can0 128#0000EC0A02
(1.499000) can0 243#0300000028442500
(1.500000) can0 279#30B9FC01B4056502
(1.500000) can0 241#7374D41C1D4500
(1.501000) can0 7F4#01
(1.502000) can0 439#0000000000185A04
(1.511000) can0 129#052AEE5FF61FFF3F
(1.515000) can0 129#B22BED5FF41FFF3F
(1.518000) can0 379#00000A48333F2100
(1.520000) can0 132#E28E43FFB33E
(1.522000) can0 2E1#FB1F98B9978E0900
(1.524000) can0 252#5A4B0D7B00FC0F00
(1.526000) can0 3E8#0000000000000000
(1.528000) can0 3FD#01000A0000080280
(1.533000) can0 264#3D000000A000
(1.533000) can0 1D5#290000000000605F
(1.536000) can0 225#5555FA00
(1.536000) can0 122#00001392D2000000
(1.537000) can0 2E1#0400000000202600
(1.540000) can0 132#F08E46FFC53E
(1.542000) can0 283#000000004000
(1.542000) can0 441#D200B6C358002D39
(1.543000) can0 272#0380610000000000
(1.546000) can0 421#021A0000002000
(1.548000) can0 718#01000000000000
(1.550000) can0 1BB#02
(1.552000) can0 282#8C30C20814040324
(1.554000) can0 2E1#65800800B751316A
(1.556000) can0 1D8#2956800A00006042
(1.558000) can0 266#0C000E310D007601
(1.560000) can0 719#1619002677010000
(1.562000) can0 261#00101900FF4F80ED
(1.565000) can0 1D5#290000000000C0BF
(1.565000) can0 448#20001010000010
(1.566000) can0 6E8#0100000000000000
(1.567000) can0 3AE#0B400008000061B5
(1.567000) can0 118#AB62950000C8D4FF
(1.569000) can0 132#F08E43FFBA3E
(1.572000) can0 393#080002D107B00304
(1.572000) can0 6A1#0000000000
(1.575000) can0 1D5#290000000000E0DF
(1.575000) can0 1D8#2956800A0000A082
(1.576000) can0 266#0C000E310D007601
(1.577000) can0 20C#0078371E1801000E
(1.577000) can0 25D#3741012A04F08803
(1.578000) can0 3FD#0200400000000090
(1.580000) can0 2E5#00000E320000DD00
(1.583000) can0 2A8#01010000060040F2
(1.583000) can0 1D5#29000000000000FF
(1.586000) can0 2E1#398D2AFF0F000000
(1.586000) can0 2E5#00000E320000DD00
(1.588000) can0 195#000000000A002706
(1.589000) can0 132#EA8E46FFC03E
(1.589000) can0 343#0092680E96000000
(1.590000) can0 428#20001010000010
(1.593000) can0 682#000000400411C0F5
(1.593000) can0 23E#00003AC002FFDF1A
(1.596000) can0 201#0104980000000000
(1.596000) can0 266#0B000E310D007601
(1.597000) can0 757#2C3F3E0000000000
(1.598000) can0 285#61018E0308002E00
(1.598000) can0 353#FB0F39801A080712
(1.599000) can0 3D8#69006600
(1.600000) can0 348#1600019BE0070110
(1.601000) can0 279#31BAFC01B4056502
(1.601000) can0 2B6#000300
(1.603000) can0 2E1#026D66021F730000
(1.604000) can0 3C2#2955000000000000
(1.604000) can0 318#1A06000D10262DAB
(1.605000) can0 553#000000000000C018
(1.606000) can0 1D8#2954400A000000A0
(1.607000) can0 25B#D38000056A8650F3
(1.607000) can0 3E9#008802000000F066
(1.608000) can0 266#0B000E310D007701
(1.609000) can0 263#0300000000000000
(1.610000) can0 401#062ABE94C794BF94
(1.610000) can0 7D5#2C3F3F0000000000
(1.611000) can0 7D5#3200000000000000
(1.612000) can0 129#D125EB5FFA1FFF3F
(1.613000) can0 423#00001000000000
(1.614000) can0 3A2#0110200000000000
(1.615000) can0 242#55558600
(1.615000) can0 1D8#2954400A000020C0
(1.616000) can0 266#0B000E310D007701
(1.617000) can0 2E5#00000E320000DD00
(1.620000) can0 132#EB8E4BFFD53E
(1.620000) can0 292#29FA17638B010000
(1.621000) can0 32A#8063FF0F8D
(1.622000) can0 392#000B000000000000
(1.622000) can0 360#0300000000000000
(1.623000) can0 7AA#0746FF44FFC9FE48
(1.624000) can0 3E8#0100000000000000
(1.625000) can0 261#D401D04B0040C4EA
(1.625000) can0 204#010000FF00000010
(1.627000) can0 264#3E000000A000
(1.628000) can0 266#0B000E310D007701
(1.628000) can0 400#00E0FBBEEFFB00
(1.629000) can0 2B3#8D04A094EA716319
(1.630000) can0 401#072AA694C794C894
(1.633000) can0 129#DA27EA5FFD1FFF3F
(1.633000) can0 1D5#290000000000A09F
(1.636000) can0 225#5555FA00
(1.636000) can0 266#0B000E310D007701
(1.637000) can0 2E5#00000E320000DD00
(1.640000) can0 132#E68E4BFFD13E
(1.640000) can0 261#0522E4C99A42D076
(1.643000) can0 129#0D28EA5FFD1FFF3F
(1.643000) can0 287#30322F31D9020000
(1.645000) can0 3F6#00050000B6340000
(1.646000) can0 1D8#2954000A000080E0
(1.646000) can0 3A2#32A7FFFF04000000
(1.647000) can0 3C0#0200000000000000
(1.648000) can0 266#0B000E310D007701
(1.649000) can0 263#700ED29FA74F5F1F
(1.649000) can0 401#082AD494CA94C794
(1.650000) can0 282#8C30C20814040324
(1.651000) can0 3E2#040000611FCF00
(1.651000) can0 3AE#0A400008000091E4
(1.652000) can0 22A#0000E916
(1.655000) can0 1D5#290000000000E0DF
(1.655000) can0 1D8#2952000A0000A0FE
(1.656000) can0 2E8#0101000006007062
(1.658000) can0 257#F1765E5202402F01
(1.658000) can0 132#F08E4BFFD93E
(1.659000) can0 243#01FC374636005C5C
(1.662000) can0 381#1800000000000000
(1.664000) can0 234#3220032FBD0400E0
(1.664000) can0 2F9#BCFB070800000000
(1.665000) can0 2C1#D0687E00008A0200
(1.666000) can0 1E5#286C0400000040BE
(1.666000) can0 281#0000FF1F0000
(1.667000) can0 2E5#00000E320000DD00
(1.668000) can0 266#0B000E310D007701
(1.669000) can0 263#89E6D1AFAF4F5F1F
(1.669000) can0 201#006D6E0000E4FF00
(1.672000) can0 393#0380610000000000
(1.673000) can0 6A1#0000000000
(1.674000) can0 288#0106184C0060A1F6
(1.677000) can0 1D8#2952C0090000E0FD
(1.677000) can0 3AE#094000080000B002
(1.678000) can0 33D#1A290ABE874AFA98
(1.679000) can0 25D#3741012A04F08803
(1.679000) can0 3A1#884C0FCA0018E267
(1.680000) can0 41D#00
(1.681000) can0 545#020002000000D01E
(1.682000) can0 420#2801404B00000005
(1.682000) can0 229#8C0B00
(1.683000) can0 4E3#03FD000000002800
(1.686000) can0 2C1#216B186402000000
(1.686000) can0 2E5#00000E320000DD00
(1.687000) can0 1A5#00101F6035
(1.688000) can0 266#0B000E310D007701
(1.689000) can0 2B3#CE2B5E0100161900
(1.690000) can0 343#0092540E96000000
(1.691000) can0 77A#A104945CD05CAC5C
(1.691000) can0 129#5C2DE85FFB1FFF3F
(1.692000) can0 119#00000000
(1.695000) can0 1D5#290000000000605F
(1.695000) can0 1D8#295000080000207A
(1.696000) can0 266#0B000E310D007701
(1.697000) can0 2E1#026D66021F730000
(1.697000) can0 293#020C559055148F80
(1.698000) can0 285#034A7D5277000000
(1.699000) can0 132#E88E55FFDD3E
(1.700000) can0 268#1C0E9A01FF
(1.700000) can0 241#7374D41C1D4500
(1.702000) can0 318#1A06000D10262FAD
(1.703000) can0 397#03E0FF791C0A0000
(1.703000) can0 129#2E2EE85FFA1FFF3F
(1.704000) can0 553#000000000000D028
(1.705000) can0 757#2C3F3E0000000000
(1.706000) can0 261#B34C0A0000401554
(1.706000) can0 677#0300000000000000
(1.707000) can0 1E5#286C0400000040BE
(1.708000) can0 35A#0000000000000000
(1.709000) can0 757#4659585B593F5657
(1.709000) can0 266#0B000E310D007701
(1.710000) can0 263#0300000000000000
(1.711000) can0 7AA#0800000018011B0E
(1.712000) can0 7D5#3200000000000000
(1.715000) can0 2F1#0AB1010000000000
(1.717000) can0 379#02000848333F2100
(1.719000) can0 247#560EFF0000000000
(1.721000) can0 201#0200000000000000
(1.723000) can0 712#012AB1128E122E12
(1.725000) can0 1D5#290000000000C0BF
(1.727000) can0 204#010000FF00000010
(1.730000) can0 3A1#C1FFFF1D3D00F0C9
(1.733000) can0 3AE#084000080000D021
(1.733000) can0 1D5#290000000000E0DF
(1.736000) can0 225#5555FA00
(1.736000) can0 122#00001392D2000000
(1.737000) can0 2E5#00000E320000DD00
(1.740000) can0 132#F88E57FFF83E
(1.741000) can0 2D3#F4005403280E2543
(1.742000) can0 129#C922E85FFB1FFF3F
(1.743000) can0 441#D400B6C358003D4B
(1.743000) can0 1D5#29000000000000FF
(1.747000) can0 2E1#65800800B851316A
(1.749000) can0 082#017FFF29B801B309
(1.751000) can0 2B3#AF03294EED0E6004
(1.753000) can0 3C2#0055555500006A05
(1.755000) can0 1D5#290000000000201F
(1.762000) can0 132#ED8E53FFE33E
(1.764000) can0 524#86730302201001
(1.766000) can0 2F9#BCFB07100D1A8B84
(1.768000) can0 2E5#00000E320000DD00
(1.770000) can0 132#F68E52FFEF3E
(1.773000) can0 393#080002C107B00304
(1.776000) can0 1D5#290000000000605F
(1.776000) can0 266#0A000E310D007701
(1.777000) can0 21D#0400B50000000000
(1.778000) can0 2E1#398D2AFF0F000000
(1.779000) can0 339#02F1FE008007800F
(1.779000) can0 41D#00
(1.780000) can0 552#00000000000050A7
(1.783000) can0 2A8#0101000006006012
(1.785000) can0 1D5#290000000000807F
(1.787000) can0 1D8#294C4000000040CE
(1.789000) can0 27A#C3BD0C01B4056202
(1.791000) can0 372#05493B1500000000
(1.793000) can0 682#000000400411E015
(1.796000) can0 23E#00003AC002FF2F6A
(1.798000) can0 39D#055DE12700
(1.799000) can0 473#0000030000000000
(1.800000) can0 268#1C0E9A01FF
(1.801000) can0 7F4#01
(1.801000) can0 458#00002000000000
(1.802000) can0 261#B34C0A00004075B4
(1.803000) can0 3C2#2955000000000000
(1.804000) can0 757#3200000000000000
(1.804000) can0 2C1#0219160000D09201
(1.807000) can0 1D8#294C0000000080CE
(1.807000) can0 118#936A950000C8B4FF
(1.808000) can0 266#0A000E310D007701
(1.809000) can0 263#0300000000000000
(1.809000) can0 401#102AE394DC94DB94
(1.811000) can0 315#02000B1700000000
(1.812000) can0 315#04673D7202565565
(1.813000) can0 545#E0045DB09991197E
(1.813000) can0 3FE#7CE6830F3EF800CD
(1.814000) can0 7D5#2C3F3F0000000000
(1.815000) can0 3A7#0000000000000000
(1.816000) can0 379#03C00D4833B92200
(1.816000) can0 1E5#286C04000000209E
(1.817000) can0 261#D401D04B004084AA
(1.818000) can0 207#0000000000000000
(1.818000) can0 247#560EFF0000000000
(1.819000) can0 3E5#0000000000000000
(1.820000) can0 367#0000000000000000
(1.822000) can0 252#5B4B0D7B00FC0F00
(1.822000) can0 3F5#0000C838820C0000
(1.823000) can0 360#0500040000000000
(1.824000) can0 752#0A000018BC6A506C
(1.824000) can0 7D5#439AA387863F0000
(1.825000) can0 2C1#531A900000000000
(1.826000) can0 1D8#294A00000000C00C
(1.827000) can0 224#0408004019011008
(1.827000) can0 2B4#3C05490E6E01
(1.828000) can0 3A1#C1FFFF3D3D001009
(1.829000) can0 266#0A000E310D007701
(1.830000) can0 263#04000000A01C0000
(1.830000) can0 401#112AE194E094EA94
(1.831000) can0 7D5#465D5B6A5B40595A
(1.833000) can0 249#4C060000
(1.833000) can0 1D5#290000000000201F
(1.836000) can0 225#5555FA00
(1.836000) can0 122#01000000003F0000
(1.837000) can0 39D#065EE12700
(1.840000) can0 132#F68E5AFFDC3E
(1.840000) can0 2E1#65800800B851316A
(1.841000) can0 381#22A2F027F1200400
(1.842000) can0 129#322CE75F0020FF3F
(1.842000) can0 287#30322F31D9020000
(1.843000) can0 1D5#290000000000403F
(1.844000) can0 545#010000000010207B
(1.845000) can0 201#0300000000000000
(1.845000) can0 1D8#294A00000000004C
(1.846000) can0 2E5#00000E320000DD00
(1.848000) can0 3C0#0400000000000000
(1.848000) can0 3FD#0000003C20000180
(1.850000) can0 228#0106184C00607166
(1.851000) can0 55A#0200000000000000
(1.852000) can0 3E2#040000611FCF00
(1.853000) can0 103#22B38804A2F02032
(1.853000) can0 1D5#290000000000605F
(1.856000) can0 1D8#294A00000000206C
(1.856000) can0 266#0A000E310D007701
(1.857000) can0 2E5#00000E320000DD00
(1.860000) can0 132#F38E5FFFF93E
(1.860000) can0 221#610555550107205B
(1.863000) can0 129#FF2EE75F0020FF3F
(1.863000) can0 1D5#290000000000807F
(1.865000) can0 289#CA0C86428C003D0F
(1.866000) can0 717#01CDFF4A002600
(1.866000) can0 3A3#18C00000380DFC01
(1.867000) can0 448#20001010000010
(1.868000) can0 2E5#00000E320000DD00
(1.868000) can0 6D4#1406000023178584
(1.869000) can0 3A0#0000000000000000
(1.870000) can0 263#89E6D1AFAF4F5F1F
(1.871000) can0 380#0000004000000000
(1.871000) can0 788#01000000FFA1C812
(1.872000) can0 3F9#0300000000000008
(1.873000) can0 2E1#398D2AFF0F000000
(1.874000) can0 288#0106184C0060C116
(1.877000) can0 1D8#29480000000060AA
(1.878000) can0 22B#FFFFFF3FF0FFFFFF
(1.879000) can0 243#02FC930D05D60000
(1.880000) can0 41D#00
(1.880000) can0 552#00000000000060B7
(1.883000) can0 2A8#0101000006007022
(1.883000) can0 1D5#290000000000C0BF
(1.886000) can0 2C1#216B186402000000
(1.886000) can0 2E5#00000E320000DD00
(1.887000) can0 1A5#00101F7045
(1.888000) can0 266#0A000E310D007701
(1.888000) can0 320#0200000000000000
(1.889000) can0 340#0000000000000000
(1.890000) can0 428#20001010000010
(1.893000) can0 129#0321E85F0020FF3F
(1.894000) can0 1D5#290000000000E0DF
(1.895000) can0 3C3#5555550100000000
(1.896000) can0 1E5#286C04000000209E
(1.896000) can0 266#09000E310D007701
(1.897000) can0 2E5#00000E320000DD00
(1.898000) can0 273#81ED3000C8021011
(1.899000) can0 128#0000EC0A02
(1.899000) can0 3FD#01000A0000080280
(1.905000) can0 132#E88E66FF103F
(1.906000) can0 1E5#286C0400000040BE
(1.906000) can0 2E5#00000E320000DD00
(1.907000) can0 3AE#0840000800002071
(1.908000) can0 266#09000E310D007801
(1.909000) can0 372#0700000000000000
(1.910000) can0 719#3302600000000000
(1.911000) can0 221#6055551554513118
(1.912000) can0 129#F023E85F0120FF3F
(1.912000) can0 261#D401D04B0040E40A
(1.913000) can0 234#2FE10380430054C5
(1.916000) can0 242#55558600
(1.916000) can0 39D#F850E12700
(1.917000) can0 257#E6735E5202382F01
(1.918000) can0 247#570EFF0000000000
(1.918000) can0 2C3#555BA9B682C112AA
(1.919000) can0 2D2#F22EB04E8813E822
(1.920000) can0 212#5904000081FF7731
(1.921000) can0 2E1#0400000000202600
(1.921000) can0 3F5#0000C838820C0000
(1.922000) can0 360#0600000000000000
(1.924000) can0 1D5#290000000000403F
(1.924000) can0 3E2#000000601FCF00
(1.925000) can0 204#010000FF00000010
(1.926000) can0 264#3D000000A000
(1.927000) can0 22B#FFFFFF3FF0FFFFFF
(1.927000) can0 3A1#C1FFFF353D003021
(1.928000) can0 400#00E0FBBEEFFB00
(1.929000) can0 132#038F63FF053F
(1.930000) can0 2B3#018B807C78827D74
(1.930000) can0 45A#FD07F8FF03001837
(1.933000) can0 129#4D25E95F0220FF3F
(1.933000) can0 1D5#290000000000605F
(1.936000) can0 225#5555FA00
(1.936000) can0 122#00001392D2000000
(1.938000) can0 2E5#00000E320000DD00
(1.938000) can0 243#00FCCF8C90440D29
(1.941000) can0 7A8#0240C107000F0000
(1.943000) can0 129#9726E95F0220FF3F
(1.943000) can0 3A2#32A7FFFF04000000
(1.946000) can0 321#9B9AAA7B027B302B
(1.948000) can0 718#03000000000000
(1.950000) can0 3FD#0200400000000090
(1.956000) can0 228#0106184C00608176
(1.958000) can0 266#0A000E310D007801
(1.961000) can0 719#0300000000000000
(1.962000) can0 129#FA28E95F0320FF3F
(1.963000) can0 234#3220032FBD046040
(1.963000) can0 1D5#290000000000C0BF
(1.965000) can0 289#CA0C860282003D0F
(1.966000) can0 1D8#29440000000080C6
(1.966000) can0 2E5#00000E320000DD00
(1.969000) can0 118#C36A950000C8E4FF
(1.969000) can0 401#182AE394BE94C094
(1.972000) can0 393#080002C107B00304
(1.972000) can0 6A1#0000000000
(1.975000) can0 1D5#290000000000E0DF
(1.975000) can0 1D8#294400000000A0E6
(1.976000) can0 118#756B950000C89400
(1.977000) can0 20C#0078371E1801000E
(1.977000) can0 25D#3741012A04F08703
(1.978000) can0 3A1#884C0FCA001842C7
(1.979000) can0 243#02FC930D05D60000
(1.981000) can0 552#00000000000070C7
(1.981000) can0 2A8#0101000006008032
(1.982000) can0 420#2801404B00008006
(1.983000) can0 54F#0000000000000000
(1.986000) can0 2E1#026D66021F730000
(1.986000) can0 677#0000000000000000
(1.987000) can0 195#000000000A002706
(1.988000) can0 266#09000E300D007801
(1.988000) can0 132#FD8E6AFF0F3F
(1.989000) can0 2B3#424C0000905E3D00
(1.990000) can0 428#20001010000010
(1.991000) can0 682#0000004004110035
(1.991000) can0 129#802BEA5F0420FF3F
(1.992000) can0 119#00000000
(1.994000) can0 727#0900
(1.994000) can0 201#0104980000000000
(1.995000) can0 1D8#294400000000E026
(1.996000) can0 118#466D950000C864FF
(1.997000) can0 2E5#00000E320000DD00
(1.997000) can0 238#9835F6301E0072BD
(1.998000) can0 757#3200000000000000
(1.999000) can0 128#0000EC0A02
(1.999000) can0 243#0300000028442500
(2.000000) can0 241#7374D41C1D4500
(2.001000) can0 318#1A06000D102635B3
(2.002000) can0 397#03E0FF791C080000
(2.002000) can0 39B#0314DF80B004E1A9
(2.003000) can0 553#0000000000000058
(2.010000) can0 2C1#0219160000D09201
(2.014000) can0 7D5#3200000000000000
(2.016000) can0 242#55558600
(2.018000) can0 266#09000E310D007701
(2.020000) can0 132#FC8E6CFF0F3F
(2.022000) can0 292#29FA17638B010000
(2.024000) can0 360#0700000000000000
(2.026000) can0 3E2#000000601FCF00
(2.029000) can0 224#0408004019011008
(2.030000) can0 37A#C10C000000000000
(2.031000) can0 401#1B2ACC94C794CD94
(2.031000) can0 129#052FE95F0020FF3F
(2.032000) can0 330#0EF1570600000000
(2.033000) can0 23E#00003AC002FF8FCA
(2.034000) can0 3E2#040000611FCF00
(2.035000) can0 225#5555FA00
(2.036000) can0 118#0B61950000C83400
(2.037000) can0 257#EC795E5202382F01
(2.039000) can0 132#F08E68FF163F
(2.041000) can0 7A8#B8CCB18300008200
(2.041000) can0 287#30322F31D9020000
(2.042000) can0 129#E020E95F0020FF3F
(2.045000) can0 272#080003E107B00304
(2.045000) can0 1D8#29420000000080C4
(2.046000) can0 2E5#00000E320000DD00
(2.047000) can0 3AE#09400008000061B3
(2.047000) can0 118#4C62950000C87400
(2.048000) can0 228#0106184C00609186
(2.049000) can0 263#700ED29FA74F5F1F
(2.052000) can0 3C8#0600000000000000
(2.054000) can0 22A#0000E916
(2.056000) can0 1D8#294200000000A0E4
(2.058000) can0 266#09000E310D007701
(2.060000) can0 132#FC8E6FFF153F
(2.062000) can0 221#610555550107609B
(2.064000) can0 234#3220032FBD048060
(2.066000) can0 2F9#BCFB072800000000
(2.068000) can0 2E5#00000E320000DD00
(2.071000) can0 201#006D6D0000E4FF00
(2.071000) can0 3F9#0500000000000000
(2.072000) can0 6A1#0000000000
(2.073000) can0 23E#00003AC002FF9FDA
(2.073000) can0 1D5#290000000000201F
(2.075000) can0 545#02000200000090DE
(2.076000) can0 118#FF65950000C82400
(2.076000) can0 22B#FFFFFF3FF0FFFFFF
(2.077000) can0 21D#0400B50000000000
(2.078000) can0 2E5#00000E320000DD00
(2.079000) can0 339#02F1FE008007800F
(2.079000) can0 552#00000000000080D7
(2.080000) can0 2E1#026D66021F730000
(2.083000) can0 2A8#0101000006009042
(2.083000) can0 7AA#C0EB8E3C00088C29
(2.086000) can0 2C1#216B186402000000
(2.086000) can0 2E5#00000E320000DD00
(2.087000) can0 1A5#00101F00D5
(2.088000) can0 396#091E1E53525D0E7D
(2.089000) can0 261#B34C0A00004095D4
(2.090000) can0 428#20001010000010
(2.093000) can0 682#0000004004111045
(2.093000) can0 1D5#290000000000605F
(2.096000) can0 201#0104980000000000
(2.096000) can0 266#08000E310D007701
(2.097000) can0 2E5#00000E320000DD00
(2.098000) can0 757#2C003E0000000000
(2.098000) can0 126#1240387C2D
(2.099000) can0 132#FF8E77FF313F
(2.100000) can0 414#1000000000434956
(2.101000) can0 113#019701
(2.101000) can0 405#100000000035594A
(2.102000) can0 458#00002000000000
(2.103000) can0 3A8#F4E07FB2FC0F0000
(2.104000) can0 129#E226E95F0020FF3F
(2.105000) can0 261#D401D04B0040A4CA
(2.106000) can0 709#0700000000000000
(2.107000) can0 2E5#00000E320000DD00
(2.107000) can0 3AE#09400008000080D2
(2.108000) can0 266#08000E310D007801
(2.109000) can0 263#0300000000000000
(2.110000) can0 3DB#0B380F0000030000
(2.110000) can0 708#2A1F0A0000
(2.111000) can0 2F1#2E014021CC012804
(2.112000) can0 7D5#3200000000000000
(2.112000) can0 2E1#0400000000202600
(2.113000) can0 234#2FE1038043009405
(2.116000) can0 242#55558600
(2.117000) can0 39D#FD55E12700
(2.118000) can0 247#580EFF0000000000
(2.118000) can0 132#ED8E6CFF073F
(2.119000) can0 2D2#F22EB04E8813E822
(2.120000) can0 212#5904000081FF7731
(2.121000) can0 261#0522E4C99A42B056
(2.121000) can0 409#00
(2.122000) can0 129#2228E95F0020FF3F
(2.123000) can0 3F5#0000C838830C0000
(2.126000) can0 3E8#0600000000000000
(2.126000) can0 2E5#00000E320000DD00
(2.127000) can0 2E3#A0000019020B00
(2.128000) can0 266#09000E310D007801
(2.128000) can0 2E1#65800800B851316A
(2.130000) can0 102#22B3480494FAA009
(2.133000) can0 129#DA29E95F0120FF3F
(2.133000) can0 1D5#290000000000E0DF
(2.136000) can0 225#5555FA00
(2.136000) can0 122#00001392D2000000
(2.137000) can0 261#00101700FF4FC02B
(2.140000) can0 132#F18E73FF223F
(2.140000) can0 545#010000000010B00B
(2.141000) can0 287#30322F31DA020000
(2.142000) can0 129#A82AE95F0020FF3F
(2.142000) can0 441#D000B6C358001D27
(2.143000) can0 1D5#29000000000000FF
(2.146000) can0 2E1#1021040010000004
(2.148000) can0 718#04000000000000
(2.150000) can0 355#800C00FF940000
(2.153000) can0 3C8#0000000000000000
(2.155000) can0 1D5#290000000000201F
(2.157000) can0 1D8#293E00000000E020
(2.159000) can0 1F8#1A000000
(2.161000) can0 70B#F11FFF6120FF7120
(2.162000) can0 129#502CE95FFF1FFF3F
(2.163000) can0 1D5#290000000000403F
(2.164000) can0 289#CA0C868290003D0F
(2.165000) can0 2C1#D0687E00008A0200
(2.165000) can0 3A3#1EC00000380DFC01
(2.166000) can0 307#000000000000003B
(2.167000) can0 448#20001010000010
(2.168000) can0 266#08000E310D007801
(2.168000) can0 261#CA291102805CE2BA
(2.170000) can0 401#2200000000000000
(2.171000) can0 393#080001C107B00304
(2.171000) can0 3F9#0600000000000000
(2.172000) can0 6A1#0000000000
(2.175000) can0 1D5#290000000000605F
(2.175000) can0 1D8#293E000000002060
(2.176000) can0 266#08000E310D007801
(2.177000) can0 20C#0078371E1801000E
(2.177000) can0 2E1#026D66021F720000
(2.178000) can0 41D#00
(2.179000) can0 243#02FC930D05D60000
(2.182000) can0 2A8#010100000600A052
(2.182000) can0 229#460000
(2.183000) can0 4E3#01D8050000002800
(2.186000) can0 261#B34C0A000040F534
(2.187000) can0 2E5#00000E320000DD00
(2.188000) can0 266#08000E310D007801
(2.189000) can0 340#0300000000000000
(2.189000) can0 401#2300000000000000
(2.190000) can0 77A#00B6D4FF0813785B
(2.191000) can0 682#0000004004112055
(2.192000) can0 129#6C2FE95FFF1FFF3F
(2.192000) can0 119#00000000
(2.193000) can0 23E#00003AC002FFCF0A
(2.196000) can0 201#0104980000000000
(2.196000) can0 266#08000E310D007801
(2.197000) can0 293#020C559055149F90
(2.198000) can0 757#2C3F3E0000000000
(2.198000) can0 126#11403804B4
(2.200000) can0 285#034A7D5277000000
(2.201000) can0 318#1A06000D102639B7
(2.201000) can0 2B6#000300
(2.202000) can0 397#03C0FF791C080000
(2.203000) can0 381#0C00000000000000
(2.204000) can0 129#8920E95FFF1FFF3F
(2.204000) can0 1D5#290000000000C0BF
(2.205000) can0 1D8#293E0000000080C0
(2.208000) can0 2E5#00000E320000DD00
(2.208000) can0 1FA#1AC001
(2.209000) can0 263#0300000000000000
(2.210000) can0 7D5#2C3F3F0000000000
(2.210000) can0 221#6055551554519178
(2.211000) can0 3AE#094000080000B103
(2.213000) can0 423#00001000000000
(2.213000) can0 1D5#290000000000E0DF
(2.216000) can0 242#55558600
(2.216000) can0 1E5#286C04000000209E
(2.217000) can0 266#08000E310D007801
(2.220000) can0 247#580EFF0000000000
(2.220000) can0 252#5B4B0E7B00FC0F00
(2.223000) can0 409#00
(2.223000) can0 1D5#29000000000000FF
(2.224000) can0 3E8#0000000000000000
(2.225000) can0 2C1#531A900000000000
(2.225000) can0 204#010000FF00000010
(2.226000) can0 224#0408004019011008
(2.227000) can0 2B4#3D054B0E8101
(2.228000) can0 118#DE64950000C80400
(2.229000) can0 677#0100000000000000
(2.230000) can0 45A#FD07F8FF03001837
(2.233000) can0 129#C023E95FFF1FFF3F
(2.233000) can0 1D5#290000000000201F
(2.236000) can0 225#5555FA00
(2.236000) can0 122#01000000003F0000
(2.237000) can0 359#D43F00000E000012
(2.240000) can0 132#FB8E71FF123F
(2.240000) can0 7A8#0240C007000F0000
(2.241000) can0 2E1#1021040010000004
(2.242000) can0 129#EB24E95FFE1FFF3F
(2.242000) can0 441#CE00B6C35800252D
(2.243000) can0 1D5#290000000000403F
(2.246000) can0 361#2C0E190200
(2.247000) can0 2E5#00000E320000DD00
(2.248000) can0 266#08000E310D007801
(2.248000) can0 132#F68E76FF263F
(2.251000) can0 3C8#0100000000000000
(2.251000) can0 3E2#040000611FCF00
(2.252000) can0 129#5125E95FFF1FFF3F
(2.253000) can0 103#22B38804A2F02032
(2.257000) can0 1D8#293E000000002060
(2.259000) can0 1F8#1A000000
(2.261000) can0 221#610555550107A0DB
(2.263000) can0 129#8B26E95FFF1FFF3F
(2.265000) can0 1D5#290000000000807F
(2.267000) can0 3A3#1AC00000380DFC01
(2.269000) can0 281#0000FF1F0000
(2.274000) can0 201#006E6E0000E4FF00
(2.276000) can0 6A2#0000000000
(2.278000) can0 266#08000E310D007801
(2.280000) can0 3A1#884C0FCA0018A227
(2.282000) can0 261#B34C0A0000405594
(2.284000) can0 229#440100
(2.286000) can0 2C1#216B186402000000
(2.289000) can0 2E5#00000E320000DD00
(2.290000) can0 343#009260CE95000000
(2.291000) can0 682#0000004004113065
(2.293000) can0 129#1E29E95FFF1FFF3F
(2.293000) can0 1D5#290000000000E0DF
(2.296000) can0 201#0104980000000000
(2.296000) can0 3CC#0321831A000E0900
(2.297000) can0 2E5#00000E320000DD00
(2.300000) can0 126#1140380CBC
(2.302000) can0 318#1A06000D10263BB9
(2.304000) can0 458#00002000000000
(2.306000) can0 2E1#0400000000202600
(2.308000) can0 2E5#00000E320000DD00
(2.310000) can0 132#F58E73FF1E3F
(2.312000) can0 2F1#109E03EB13000000
(2.314000) can0 261#0522E4C99A427016
(2.317000) can0 242#55558600
(2.317000) can0 2E5#00000E320000DD00
(2.318000) can0 247#580EFF0000000000
(2.319000) can0 227#000000004D000080
(2.319000) can0 2D2#F22EB14E8813E822
(2.320000) can0 252#5B4B0E7B00FC0F00
(2.322000) can0 3B2#4500A00F00E401CB
(2.322000) can0 3F5#0000C838830C0000
(2.323000) can0 1D5#290000000000403F
(2.324000) can0 3E8#0100000000000000
(2.325000) can0 743#22
(2.326000) can0 1D8#293E000000000040
(2.326000) can0 224#0408004019011008
(2.327000) can0 2E5#00000E320000DD00
(2.328000) can0 266#08000E310D007801
(2.329000) can0 261#00101600FF4F80EA
(2.329000) can0 372#0E00000C067D0000
(2.332000) can0 129#2B2DE95F0020FF3F
(2.332000) can0 2D1#FF01
(2.335000) can0 1D5#290000000000605F
(2.335000) can0 1D8#293E000000002060
(2.337000) can0 266#08000E310D007801
(2.340000) can0 132#FB8E73FF163F
(2.342000) can0 283#000000004000
(2.342000) can0 441#CE00B6C358002D35
(2.343000) can0 272#0380610000000000
(2.344000) can0 421#021A0000002000
(2.344000) can0 737#02000000E0F080
(2.345000) can0 2C1#0400000000000000
(2.346000) can0 381#300000C000000000
(2.347000) can0 3C0#0900000000000000
(2.347000) can0 334#3F3F1408FF014213
(2.348000) can0 3FD#0000003C20000180
(2.350000) can0 718#00000000000000
(2.351000) can0 666#0000C800
(2.354000) can0 3C2#0055555500006A05
(2.356000) can0 1D8#293E0000000060A0
(2.358000) can0 39D#035BE12700
(2.360000) can0 132#EC8E72FF0F3F
(2.362000) can0 261#CA291102805CA27A
(2.364000) can0 234#3320032FBD04E0C1
(2.366000) can0 2F9#BCFB07100D1A8B84
(2.369000) can0 2E5#00000E320000DD00
(2.372000) can0 393#080002C907B00304
(2.372000) can0 6A1#0000000000
(2.375000) can0 1D5#290000000000E0DF
(2.375000) can0 1D8#293E00000000A0E0
(2.376000) can0 266#08000E310D007801
(2.377000) can0 20C#0098371E1801000E
(2.378000) can0 25D#3741012A04F08803
(2.379000) can0 3A1#884C0FCA0018C247
(2.380000) can0 552#000000000000B007
(2.381000) can0 381#1100000000000000
(2.381000) can0 2A8#010100000600C072
(2.382000) can0 129#BE22E95F0020FF3F
(2.383000) can0 54F#0000000000000000
(2.384000) can0 1D5#29000000000000FF
(2.384000) can0 2E1#FB1F97B997900900
(2.385000) can0 677#0000000000000000
(2.386000) can0 1E5#286C0400000040BE
(2.386000) can0 186#FE03000200341925
(2.387000) can0 1A5#00101F18ED
(2.388000) can0 266#08000E310D007801
(2.391000) can0 340#0500000000000000
(2.393000) can0 682#0000004004114075
(2.395000) can0 7AA#04000FC000260000
(2.397000) can0 1D8#294000000000E022
(2.399000) can0 3FD#01000A0000080280
(2.406000) can0 273#81ED3000C8021011
(2.409000) can0 118#E066950000C80400
(2.409000) can0 719#0D00000000000000
(2.410000) can0 7D7#321C000000000000
(2.411000) can0 221#605555155451D1B8
(2.411000) can0 129#9525E95F0120FF3F
(2.414000) can0 423#00001000000000
(2.416000) can0 207#0000000000000000
(2.416000) can0 266#08000E310D007801
(2.418000) can0 2E5#00000E320000DD00
(2.419000) can0 227#000000004D000080
(2.419000) can0 2C3#0000C04B010040CB
(2.420000) can0 212#5904000081FF7731
(2.423000) can0 409#00
(2.423000) can0 1D5#290000000000807F
(2.424000) can0 3E8#0200000000000000
(2.425000) can0 261#00101600FF4FE04A
(2.425000) can0 1D8#2940000000004082
(2.426000) can0 224#0408004019011008
(2.427000) can0 2B4#3F054B0E7A01
(2.428000) can0 118#1268950000C83400
(2.428000) can0 677#0100000000000000
(2.429000) can0 45A#FD07F8FF03001738
(2.431000) can0 37A#C10C000000000000
(2.433000) can0 129#F527E95F0020FF3F
(2.433000) can0 1D5#290000000000A09F
(2.436000) can0 225#5555FA00
(2.436000) can0 122#01000000003F0000
(2.437000) can0 257#F07D5E5202382F01
(2.438000) can0 545#010000000010409B
(2.438000) can0 132#F38E6FFF183F
(2.441000) can0 287#30322F31DA020000
(2.443000) can0 129#8F28E95F0120FF3F
(2.443000) can0 1D5#290000000000C0BF
(2.446000) can0 2C1#0400000000000000
(2.446000) can0 2E5#00000E320000DD00
(2.447000) can0 294#14C1400040000000
(2.448000) can0 266#09000E310D007801
(2.449000) can0 3FD#0200400000000090
(2.451000) can0 2E1#398D2AFF0F000000
(2.452000) can0 129#DA29E95F0120FF3F
(2.453000) can0 381#130000000020FCFF
(2.453000) can0 1D5#290000000000E0DF
(2.456000) can0 1D8#294000000000A0E2
(2.456000) can0 2E8#010100000600F0E2
(2.457000) can0 261#CA291102805C02DA
(2.460000) can0 132#E68E70FF183F
(2.460000) can0 221#610555550107E01B
(2.463000) can0 129#052AE95F0120FF3F
(2.463000) can0 1D5#29000000000000FF
(2.464000) can0 289#CA0C86429D003D0F
(2.465000) can0 2C1#D0687E00008A0200
(2.466000) can0 1D8#294000000000C002
(2.467000) can0 677#0200000000000000
(2.468000) can0 266#09000E310D007801
(2.469000) can0 263#89E6D1AFAF4F5F1F
(2.469000) can0 201#006E6D0000E4FF00
(2.472000) can0 545#020002000000509E
(2.472000) can0 6A1#0000000000
(2.475000) can0 1D5#290000000000201F
(2.475000) can0 1D8#294000000000E022
(2.476000) can0 39D#065EE12700
(2.477000) can0 20C#0098371E1801000E
(2.478000) can0 25D#3741012A04F08803
(2.478000) can0 3A1#884C0FCA0018E267
(2.479000) can0 339#02F1FE008007800F
(2.481000) can0 3FD#0000003C20000180
