(0.011000) can0 3FD#0000003C20400580
(0.064000) can0 3FD#0100020000080280
(0.114000) can0 3FD#0200560000000090
(0.510000) can0 3FD#0000003C20400580
(0.560000) can0 3FD#0100020000080280
(0.593000) can0 3FD#0000003C20400580
(0.643000) can0 3FD#0100020000080280
(0.694000) can0 3FD#0200560000000090
(1.011000) can0 3FD#0000003C20400580
(1.060000) can0 3FD#0100020000080280
(1.111000) can0 3FD#0200560000000090
(1.511000) can0 3FD#0000003C20400580
(1.561000) can0 3FD#0100020000080280
(1.593000) can0 3FD#0000003C20400580
(1.643000) can0 3FD#0100020000080280
(1.696000) can0 3FD#0200560000000090
(2.011000) can0 3FD#0000003C20400580
(2.066000) can0 3FD#0100020000080280
(2.115000) can0 3FD#0200560000000090
(2.203000) can0 247#DC0DFF0A00460100
(2.206000) can0 247#DE0DFF0A004B0100
(2.208000) can0 247#F20DFF0A00510100
(2.210000) can0 247#EB0DFF0A00560100
(2.212000) can0 247#E50DFF0A005C0100
(2.214000) can0 247#E10DFF0A00640100
(2.215000) can0 247#F50DFF0A006C0100
(2.217000) can0 247#F00DFF0A00700100
(2.219000) can0 247#D20DFF0A00780100
(2.222000) can0 247#D50DFF0A007C0100
(2.224000) can0 247#F50DFF0A00800100
(2.226000) can0 247#D10DFF0A00850100
(2.228000) can0 247#F00DFF0A008A0100
(2.230000) can0 247#EB0DFF0A00910100
(2.231000) can0 247#C80DFF0A00980100
(2.233000) can0 247#E70DFF0A009C0100
(2.236000) can0 247#D80DFF0A00A10100
(2.238000) can0 247#D00DFF0A00A80100
(2.240000) can0 247#CE0DFF0A00AC0100
(2.242000) can0 247#E40DFF0A00B20100
(2.244000) can0 247#DA0DFF0A00B70100
(2.245000) can0 247#DB0DFF0A00BB0100
(2.247000) can0 247#E90DFF0A00C30100
(2.250000) can0 247#D10DFF0A00C90100
(2.252000) can0 247#CA0DFF0A00D00100
(2.254000) can0 247#EC0DFF0A00D60100
(2.265000) can0 247#DA0DFF0A00DE0100
(2.272000) can0 247#D80DFF0A00E50100
(2.278000) can0 247#CD0DFF0A00ED0100
(2.285000) can0 247#F60DFF0A00F20100
(2.286000) can0 247#D60DFF0A00F90100
(2.291000) can0 247#CE0DFF0A00000200
(2.297000) can0 247#EA0DFF0A00080200
(2.301000) can0 247#CE0DFF0A000C0200
(2.305000) can0 247#EC0DFF0A00110200
(2.308000) can0 247#DB0DFF0A00160200
(2.310000) can0 247#CC0DFF0A001A0200
(2.313000) can0 247#CA0DFF0A001E0200
(2.315000) can0 247#DE0DFF0A00250200
(2.317000) can0 247#E00DFF0A002D0200
(2.319000) can0 247#EF0DFF0A00320200
(2.321000) can0 247#D00DFF0A00370200
(2.323000) can0 247#EC0DFF0A003C0200
(2.325000) can0 247#CC0DFF0A00440200
(2.327000) can0 247#F50DFF0A00480200
(2.330000) can0 247#EB0DFF0A00500200
(2.332000) can0 247#CD0DFF0A00560200
(2.338000) can0 247#E10DFF0A005A0200
(2.340000) can0 247#D20DFF0A005E0200
(2.342000) can0 247#C80DFF0A00640200
(2.343000) can0 247#D30DFF0A006A0200
(2.348000) can0 247#E80DFF0A00710200
(2.352000) can0 247#E20DFF0A00770200
(2.356000) can0 247#F70DFF0A007E0200
(2.360000) can0 247#CB0DFF0A00850200
(2.365000) can0 247#CB0DFF0A008A0200
(2.367000) can0 247#EA0DFF0A00910200
(2.369000) can0 247#DA0DFF0A00950200
(2.371000) can0 247#F20DFF0A009B0200
(2.374000) can0 247#CE0DFF0A00A00200
(2.376000) can0 247#DE0DFF0A00A40200
(2.378000) can0 247#D70DFF0A00AA0200
(2.380000) can0 247#DC0DFF0A00B10200
(2.381000) can0 247#D60DFF0A00B50200
(2.383000) can0 247#D60DFF0A00B90200
(2.386000) can0 247#DC0DFF0A00BE0200
(2.388000) can0 247#E00DFF0A00C30200
(2.390000) can0 247#E20DFF0A00CB0200
(2.392000) can0 247#EF0DFF0A00D10200
(2.394000) can0 247#DB0DFF0A00D80200
(2.395000) can0 247#D00DFF0A00E00200
(2.397000) can0 247#DF0DFF0A00E70200
(2.399000) can0 247#DD0DFF0A00EC0200
(2.401000) can0 247#F20DFF0A00F30200
(2.404000) can0 247#F30DFF0A00FA0200
(2.406000) can0 247#E30DFF0A00000300
(2.407000) can0 247#F20DFF0A00070300
(2.409000) can0 247#D00DFF0A000C0300
(2.412000) can0 247#DB0DFF0A00120300
(2.414000) can0 247#C80DFF0A00190300
(2.416000) can0 247#DB0DFF0A00210300
(2.422000) can0 247#DF0DFF0A00250300
(2.424000) can0 247#CC0DFF0A002B0300
(2.426000) can0 247#DE0DFF0A002F0300
(2.428000) can0 247#D60DFF0A00370300
(2.430000) can0 247#E30DFF0A003C0300
(2.432000) can0 247#DF0DFF0A00440300
(2.434000) can0 247#D40DFF0A00490300
(2.436000) can0 247#DD0DFF0A004E0300
(2.438000) can0 247#EF0DFF0A00550300
(2.440000) can0 247#F30DFF0A00590300
(2.442000) can0 247#DE0DFF0A005E0300
(2.445000) can0 247#CA0DFF0A00650300
(2.447000) can0 247#E70DFF0A00690300
(2.449000) can0 247#D80DFF0A00700300
(2.451000) can0 247#F30DFF0A00780300
(2.452000) can0 247#D70DFF0A007D0300
(2.454000) can0 247#D30DFF0A00850300
(2.456000) can0 247#F20DFF0A008A0300
(2.458000) can0 247#EA0DFF0A00920300
(2.460000) can0 247#DC0DFF0A00960300
(2.462000) can0 247#C90DFF0A009D0300
(2.465000) can0 247#CC0DFF0A00A20300
(2.467000) can0 247#E50DFF0A00A90300
(2.473000) can0 247#D50DFF0A00B00300
(2.475000) can0 247#DF0DFF0A00B60300
(2.479000) can0 247#E40DFF0A00BA0300
(2.483000) can0 247#CF0DFF0A00BE0300
(2.489000) can0 247#F00DFF0A00C50300
(2.493000) can0 247#F00DFF0A00CA0300
(2.497000) can0 247#F30DFF0A00CE0300
(2.499000) can0 247#E10DFF0A00D20300
(2.501000) can0 247#D60DFF0A00D70300
(2.502000) can0 247#F50DFF0A00DD0300
(2.504000) can0 247#E50DFF0A00E10300
(2.507000) can0 247#DB0DFF0A00E60300
(2.516000) can0 247#D80DFF0A00ED0300
(2.526000) can0 247#CC0DFF0A00F20300
(2.526000) can0 3FD#0000003C20400580
(2.529000) can0 247#EF0DFF0A00F80300
(2.532000) can0 247#E80DFF0A00FE0300
(2.534000) can0 247#E30DFF0A00060400
(2.536000) can0 247#CE0DFF0A000A0400
(2.538000) can0 247#F10DFF0A00110400
(2.540000) can0 247#E60DFF0A00150400
(2.542000) can0 247#D30DFF0A00190400
(2.543000) can0 247#F20DFF0A001E0400
(2.545000) can0 247#F50DFF0A00240400
(2.547000) can0 247#E10DFF0A00290400
(2.549000) can0 247#E10DFF0A002E0400
(2.551000) can0 247#C80DFF0A00360400
(2.553000) can0 247#DB0DFF0A003C0400
(2.556000) can0 247#CD0DFF0A00430400
(2.558000) can0 247#E80DFF0A00480400
(2.560000) can0 247#E50DFF0A004C0400
(2.562000) can0 247#F30DFF0A00500400
(2.564000) can0 247#F10DFF0A00540400
(2.566000) can0 247#E40DFF0A00580400
(2.568000) can0 247#DB0DFF0A00600400
(2.570000) can0 247#EF0DFF0A00680400
(2.570000) can0 3FD#0100020000080280
(2.573000) can0 247#D10DFF0A006D0400
(2.575000) can0 247#C90DFF0A00730400
(2.577000) can0 247#CF0DFF0A00790400
(2.579000) can0 247#D40DFF0A007E0400
(2.581000) can0 247#E60DFF0A00850400
(2.583000) can0 247#E80DFF0A008D0400
(2.585000) can0 247#DC0DFF0A00940400
(2.588000) can0 247#E30DFF0A009B0400
(2.590000) can0 247#D60DFF0A00A00400
(2.592000) can0 247#CD0DFF0A00A80400
(2.594000) can0 247#F00DFF0A00AC0400
(2.594000) can0 3FD#0000003C20400580
(2.597000) can0 247#C80DFF0A00B00400
(2.599000) can0 247#CD0DFF0A00B40400
(2.601000) can0 247#F70DFF0A00BB0400
(2.603000) can0 247#D50DFF0A00BF0400
(2.604000) can0 247#EF0DFF0A00C30400
(2.606000) can0 247#E60DFF0A00C70400
(2.609000) can0 247#E20DFF0A00CF0400
(2.610000) can0 247#C90DFF0A00D50400
(2.613000) can0 247#F50DFF0A00DB0400
(2.615000) can0 247#EF0DFF0A00DF0400
(2.618000) can0 247#D70DFF0A00E60400
(2.620000) can0 247#D00DFF0A00EE0400
(2.621000) can0 247#CC0DFF0A00F20400
(2.623000) can0 247#F70DFF0A00F90400
(2.625000) can0 247#F20DFF0A00010500
(2.627000) can0 247#EB0DFF0A00050500
(2.629000) can0 247#EF0DFF0A000A0500
(2.631000) can0 247#DF0DFF0A00120500
(2.633000) can0 247#F60DFF0A001A0500
(2.635000) can0 247#DB0DFF0A00210500
(2.637000) can0 247#EC0DFF0A00250500
(2.639000) can0 247#E40DFF0A00290500
(2.642000) can0 247#EF0DFF0A00300500
(2.644000) can0 247#CC0DFF0A00360500
(2.644000) can0 3FD#0100020000080280
(2.647000) can0 247#F40DFF0A003C0500
(2.649000) can0 247#CB0DFF0A00430500
(2.651000) can0 247#D50DFF0A004B0500
(2.653000) can0 247#E30DFF0A00500500
(2.661000) can0 247#D30DFF0A00580500
(2.665000) can0 247#CA0DFF0A005D0500
(2.669000) can0 247#CE0DFF0A00620500
(2.671000) can0 247#CF0DFF0A00680500
(2.673000) can0 247#EE0DFF0A006C0500
(2.675000) can0 247#E50DFF0A00720500
(2.677000) can0 247#EA0DFF0A007A0500
(2.681000) can0 247#D80DFF0A00820500
(2.685000) can0 247#F20DFF0A00870500
(2.691000) can0 247#E20DFF0A008C0500
(2.697000) can0 247#E00DFF0A00940500
(2.702000) can0 247#C80DFF0A009C0500
(2.702000) can0 3FD#0200560000000090
(2.717000) can0 247#E70DFF0A00A30500
(2.719000) can0 247#F30DFF0A00A90500
(2.721000) can0 247#EF0DFF0A00AF0500
(2.723000) can0 247#F30DFF0A00B30500
(2.725000) can0 247#D00DFF0A00BA0500
(2.727000) can0 247#EB0DFF0A00C10500
(2.729000) can0 247#E50DFF0A00C60500
(2.731000) can0 247#DC0DFF0A00CD0500
(2.733000) can0 247#E50DFF0A00D20500
(2.735000) can0 247#DD0DFF0A00D60500
(2.737000) can0 247#D20DFF0A00DA0500
(2.739000) can0 247#EB0DFF0A00DE0500
(2.742000) can0 247#F70DFF0A00E50500
(2.744000) can0 247#E80DFF0A00EB0500
(2.746000) can0 247#DB0DFF0A00F30500
(2.748000) can0 247#CA0DFF0A00FA0500
(2.750000) can0 247#CB0DFF0A00FF0500
(2.752000) can0 247#CB0DFF0A00070600
(2.754000) can0 247#DE0DFF0A000D0600
(2.759000) can0 247#F70DFF0A00140600
(2.768000) can0 247#E50DFF0A001B0600
(2.772000) can0 247#CA0DFF0A00200600
(2.780000) can0 247#EA0DFF0A00250600
(2.782000) can0 247#CA0DFF0A002C0600
(2.783000) can0 247#F70DFF0A00330600
(2.785000) can0 247#CE0DFF0A003A0600
(2.787000) can0 247#EB0DFF0A00410600
(2.790000) can0 247#E90DFF0A00480600
(2.792000) can0 247#EE0DFF0A004F0600
(2.794000) can0 247#CF0DFF0A00550600
(2.796000) can0 247#E80DFF0A005B0600
(2.797000) can0 247#F10DFF0A00600600
(2.799000) can0 247#DB0DFF0A00670600
(2.801000) can0 247#E80DFF0A006F0600
(2.803000) can0 247#D10DFF0A00740600
(2.805000) can0 247#DC0DFF0A007A0600
(2.807000) can0 247#E80DFF0A007F0600
(2.809000) can0 247#D30DFF0A00870600
(2.811000) can0 247#DE0DFF0A008C0600
(2.817000) can0 247#E20DFF0A00920600
(2.819000) can0 247#E00DFF0A009A0600
(2.822000) can0 247#D70DFF0A00A10600
(2.823000) can0 247#CE0DFF0A00A90600
(2.825000) can0 247#EB0DFF0A00B00600
(2.827000) can0 247#EC0DFF0A00B80600
(2.829000) can0 247#F10DFF0A00C00600
(2.831000) can0 247#E20DFF0A00C40600
(2.833000) can0 247#CE0DFF0A00CA0600
(2.835000) can0 247#E00DFF0A00D10600
(2.838000) can0 247#D00DFF0A00D90600
(2.840000) can0 247#F00DFF0A00DE0600
(2.842000) can0 247#D10DFF0A00E30600
(2.843000) can0 247#EC0DFF0A00EB0600
(2.845000) can0 247#F20DFF0A00EF0600
(2.847000) can0 247#F60DFF0A00F50600
(2.850000) can0 247#E50DFF0A00FC0600
(2.852000) can0 247#EC0DFF0A00010700
(2.854000) can0 247#CE0DFF0A00090700
(2.856000) can0 247#E90DFF0A00110700
(2.857000) can0 247#D90DFF0A00190700
(2.859000) can0 247#DC0DFF0A001D0700
(2.862000) can0 247#DE0DFF0A00220700
(2.863000) can0 247#C80DFF0A00260700
(2.866000) can0 247#E40DFF0A002A0700
(2.868000) can0 247#D90DFF0A00310700
(2.870000) can0 247#CB0DFF0A00360700
(2.872000) can0 247#DE0DFF0A003E0700
(2.874000) can0 247#CE0DFF0A00460700
(2.876000) can0 247#DD0DFF0A004E0700
(2.882000) can0 247#E70DFF0A00550700
(2.888000) can0 247#DD0DFF0A005A0700
(2.892000) can0 247#F10DFF0A005F0700
(2.896000) can0 247#D50DFF0A00670700
(2.898000) can0 247#D20DFF0A006F0700
(2.900000) can0 247#E20DFF0A00760700
(2.902000) can0 247#CF0DFF0A007D0700
(2.903000) can0 247#D60DFF0A00830700
(2.906000) can0 247#DB0DFF0A00890700
(2.908000) can0 247#D70DFF0A008E0700
(2.910000) can0 247#E10DFF0A00930700
(2.916000) can0 247#ED0DFF0A00990700
(2.918000) can0 247#DE0DFF0A009E0700
(2.920000) can0 247#F70DFF0A00A60700
(2.922000) can0 247#DD0DFF0A00AE0700
(2.924000) can0 247#EF0DFF0A00B30700
(2.926000) can0 247#D10DFF0A00BB0700
(2.928000) can0 247#D70DFF0A00C00700
(2.930000) can0 247#CC0DFF0A00C50700
(2.932000) can0 247#C90DFF0A00C90700
(2.934000) can0 247#CF0DFF0A00D10700
(2.936000) can0 247#D50DFF0A00D70700
(2.939000) can0 247#D10DFF0A00DE0700
(2.941000) can0 247#CE0DFF0A00E50700
(2.943000) can0 247#EE0DFF0A00E90700
(2.945000) can0 247#E90DFF0A00F00700
(2.947000) can0 247#E40DFF0A00F80700
(2.949000) can0 247#F20DFF0A00FF0700
(2.950000) can0 247#DF0DFF0A00070800
(2.953000) can0 247#E70DFF0A000E0800
(2.955000) can0 247#F70DFF0A00150800
(2.957000) can0 247#CA0DFF0A00190800
(2.959000) can0 247#ED0DFF0A001F0800
(2.961000) can0 247#E20DFF0A00230800
(2.963000) can0 247#E50DFF0A00270800
(2.965000) can0 247#D40DFF0A002E0800
(2.968000) can0 247#D40DFF0A00320800
(2.970000) can0 247#D00DFF0A00380800
(2.971000) can0 247#D30DFF0A003C0800
(2.978000) can0 247#D20DFF0A00440800
(2.980000) can0 247#F10DFF0A00480800
(2.982000) can0 247#F50DFF0A00500800
(2.984000) can0 247#E10DFF0A00570800
(2.986000) can0 247#E80DFF0A005B0800
(2.988000) can0 247#DC0DFF0A00620800
(2.990000) can0 247#ED0DFF0A00660800
(2.992000) can0 247#C80DFF0A006E0800
(2.994000) can0 247#D60DFF0A00760800
(2.996000) can0 247#DB0DFF0A007B0800
(2.998000) can0 247#D40DFF0A00830800
(3.000000) can0 247#D60DFF0A00870800
(3.002000) can0 247#D40DFF0A008B0800
(3.004000) can0 247#F00DFF0A00930800
(3.017000) can0 247#CC0DFF0A00970800
(3.017000) can0 3FD#0000003C20400580
(3.027000) can0 247#F70DFF0A009E0800
(3.031000) can0 247#CE0DFF0A00A20800
(3.035000) can0 247#CF0DFF0A00A80800
(3.042000) can0 247#ED0DFF0A00AE0800
(3.046000) can0 247#D60DFF0A00B40800
(3.048000) can0 247#CC0DFF0A00BA0800
(3.049000) can0 247#F70DFF0A00C10800
(3.051000) can0 247#DB0DFF0A00C70800
(3.055000) can0 247#E30DFF0A00CB0800
(3.061000) can0 247#CB0DFF0A00CF0800
(3.061000) can0 3FD#0100020000080280
(3.069000) can0 247#E70DFF0A00D50800
(3.073000) can0 247#ED0DFF0A00D90800
(3.075000) can0 247#EA0DFF0A00DD0800
(3.077000) can0 247#ED0DFF0A00E50800
(3.079000) can0 247#E50DFF0A00E90800
(3.081000) can0 247#E10DFF0A00F10800
(3.083000) can0 247#EB0DFF0A00F80800
(3.088000) can0 247#D80DFF0A00FF0800
(3.092000) can0 247#F70DFF0A00060900
(3.098000) can0 247#E90DFF0A000C0900
(3.103000) can0 247#CC0DFF0A00130900
(3.105000) can0 247#DC0DFF0A001B0900
(3.107000) can0 247#DD0DFF0A00200900
(3.109000) can0 247#F50DFF0A00280900
(3.111000) can0 247#E40DFF0A002D0900
(3.111000) can0 3FD#0200560000000090
(3.114000) can0 247#DD0DFF0A00340900
(3.120000) can0 247#CF0DFF0A003A0900
(3.122000) can0 247#E00DFF0A00420900
(3.124000) can0 247#ED0DFF0A00470900
(3.126000) can0 247#E10DFF0A004B0900
(3.128000) can0 247#DE0DFF0A00510900
(3.134000) can0 247#E20DFF0A00570900
(3.136000) can0 247#E10DFF0A005D0900
(3.139000) can0 247#D30DFF0A00650900
(3.141000) can0 247#CB0DFF0A006B0900
(3.143000) can0 247#D70DFF0A00700900
(3.145000) can0 247#D70DFF0A00780900
(3.147000) can0 247#F70DFF0A00800900
(3.149000) can0 247#D70DFF0A00850900
(3.151000) can0 247#CF0DFF0A00890900
(3.153000) can0 247#E00DFF0A00900900
(3.155000) can0 247#C90DFF0A00960900
(3.157000) can0 247#D40DFF0A009D0900
(3.159000) can0 247#E20DFF0A00A20900
(3.161000) can0 247#E90DFF0A00A70900
(3.162000) can0 247#C90DFF0A00AD0900
(3.165000) can0 247#F40DFF0A00B20900
(3.167000) can0 247#F70DFF0A00BA0900
(3.169000) can0 247#E00DFF0A00BE0900
(3.171000) can0 247#F20DFF0A00C60900
(3.173000) can0 247#E60DFF0A00CD0900
(3.175000) can0 247#D10DFF0A00D40900
(3.177000) can0 247#E00DFF0A00D90900
(3.179000) can0 247#DF0DFF0A00E00900
(3.181000) can0 247#DA0DFF0A00E60900
(3.183000) can0 247#CB0DFF0A00EE0900
(3.185000) can0 247#F60DFF0A00F40900
(3.187000) can0 247#F10DFF0A00FA0900
(3.189000) can0 247#E90DFF0A00020A00
(3.191000) can0 247#D20DFF0A000A0A00
(3.193000) can0 247#F70DFF0A00110A00
(3.195000) can0 247#F50DFF0A00190A00
(3.198000) can0 247#DC0DFF0A00200A00
(3.200000) can0 247#D50DFF0A00250A00
(3.202000) can0 247#EE0DFF0A002A0A00
(3.204000) can0 247#E50DFF0A00310A00
(3.206000) can0 247#DC0DFF0A00370A00
(3.208000) can0 247#F30DFF0A003B0A00
(3.210000) can0 247#CC0DFF0A00400A00
(3.212000) can0 247#E70DFF0A00450A00
(3.214000) can0 247#C90DFF0A00490A00
(3.216000) can0 247#D00DFF0A00500A00
(3.222000) can0 247#F70DFF0A00580A00
(3.224000) can0 247#D80DFF0A005E0A00
(3.227000) can0 247#F30DFF0A00620A00
(3.229000) can0 247#F50DFF0A00670A00
(3.231000) can0 247#D40DFF0A006F0A00
(3.233000) can0 247#E10DFF0A00750A00
(3.235000) can0 247#F40DFF0A007D0A00
(3.237000) can0 247#F70DFF0A00850A00
(3.239000) can0 247#CB0DFF0A008C0A00
(3.241000) can0 247#CE0DFF0A00920A00
(3.243000) can0 247#D00DFF0A00980A00
(3.245000) can0 247#E30DFF0A009F0A00
(3.247000) can0 247#DA0DFF0A00A70A00
(3.249000) can0 247#D30DFF0A00AE0A00
(3.251000) can0 247#D20DFF0A00B20A00
(3.253000) can0 247#CB0DFF0A00B80A00
(3.255000) can0 247#D50DFF0A00BD0A00
(3.259000) can0 247#D00DFF0A00C40A00
(3.265000) can0 247#D00DFF0A00CB0A00
(3.271000) can0 247#D50DFF0A00D30A00
(3.275000) can0 247#F50DFF0A00DB0A00
(3.281000) can0 247#D00DFF0A00E00A00
(3.285000) can0 247#CC0DFF0A00E40A00
(3.291000) can0 247#D40DFF0A00EB0A00
(3.296000) can0 247#D00DFF0A00F00A00
(3.298000) can0 247#EA0DFF0A00F70A00
(3.300000) can0 247#D00DFF0A00FD0A00
(3.302000) can0 247#CC0DFF0A00020B00
(3.304000) can0 247#CA0DFF0A00060B00
(3.306000) can0 247#EB0DFF0A000C0B00
(3.311000) can0 247#D00DFF0A00110B00
(3.316000) can0 247#F60DFF0A00150B00
(3.320000) can0 247#CC0DFF0A00190B00
(3.327000) can0 247#E50DFF0A00200B00
(3.329000) can0 247#DE0DFF0A00250B00
(3.331000) can0 247#D40DFF0A002D0B00
(3.333000) can0 247#E80DFF0A00310B00
(3.335000) can0 247#DA0DFF0A00370B00
(3.337000) can0 247#CA0DFF0A003E0B00
(3.338000) can0 247#E90DFF0A00460B00
(3.340000) can0 247#CE0DFF0A004D0B00
(3.342000) can0 247#F40DFF0A00550B00
(3.344000) can0 247#D90DFF0A005A0B00
(3.346000) can0 247#CF0DFF0A00620B00
(3.348000) can0 247#EA0DFF0A00670B00
(3.354000) can0 247#D50DFF0A006F0B00
(3.360000) can0 247#DF0DFF0A00740B00
(3.364000) can0 247#E30DFF0A007A0B00
(3.369000) can0 247#F00DFF0A007E0B00
(3.371000) can0 247#E40DFF0A00840B00
(3.372000) can0 247#E80DFF0A008C0B00
(3.374000) can0 247#D90DFF0A00940B00
(3.376000) can0 247#DF0DFF0A00980B00
(3.378000) can0 247#E80DFF0A009D0B00
(3.380000) can0 247#CF0DFF0A00A10B00
(3.382000) can0 247#DD0DFF0A00A50B00
(3.384000) can0 247#D30DFF0A00AC0B00
(3.386000) can0 247#DB0DFF0A00B40B00
(3.388000) can0 247#F60DFF0A00BA0B00
(3.390000) can0 247#D70DFF0A00C10B00
(3.393000) can0 247#DD0DFF0A00C60B00
(3.395000) can0 247#D80DFF0A00CD0B00
(3.397000) can0 247#F00DFF0A00D20B00
(3.399000) can0 247#CA0DFF0A00D80B00
(3.401000) can0 247#F40DFF0A00DD0B00
(3.403000) can0 247#D70DFF0A00E20B00
(3.405000) can0 247#CF0DFF0A00E80B00
(3.407000) can0 247#C80DFF0A00EC0B00
(3.409000) can0 247#EF0DFF0A00F40B00
(3.410000) can0 247#C80DFF0A00FA0B00
(3.412000) can0 247#E80DFF0A00FF0B00
(3.414000) can0 247#F70DFF0A00030C00
(3.420000) can0 247#F00DFF0A00070C00
(3.423000) can0 247#ED0DFF0A000D0C00
(3.426000) can0 247#E80DFF0A00120C00
(3.428000) can0 247#CA0DFF0A001A0C00
(3.430000) can0 247#D20DFF0A00210C00
(3.431000) can0 247#F70DFF0A00270C00
(3.433000) can0 247#EE0DFF0A002C0C00
(3.435000) can0 247#E30DFF0A00340C00
(3.437000) can0 247#E10DFF0A003C0C00
(3.439000) can0 247#E10DFF0A00420C00
(3.441000) can0 247#D70DFF0A00470C00
(3.443000) can0 247#E70DFF0A004D0C00
(3.445000) can0 247#D40DFF0A00520C00
(3.447000) can0 247#EA0DFF0A00570C00
(3.449000) can0 247#EF0DFF0A005C0C00
(3.452000) can0 247#F40DFF0A00640C00
(3.454000) can0 247#C90DFF0A006C0C00
(3.456000) can0 247#E80DFF0A00720C00
(3.458000) can0 247#ED0DFF0A00780C00
(3.460000) can0 247#DB0DFF0A007F0C00
(3.462000) can0 247#DA0DFF0A00870C00
(3.464000) can0 247#F20DFF0A008B0C00
(3.466000) can0 247#F60DFF0A00900C00
(3.468000) can0 247#D70DFF0A00950C00
(3.470000) can0 247#EB0DFF0A00990C00
(3.472000) can0 247#E30DFF0A00A00C00
(3.474000) can0 247#DF0DFF0A00A70C00
(3.476000) can0 247#D50DFF0A00AB0C00
(3.478000) can0 247#D80DFF0A00B30C00
(3.482000) can0 247#D00DFF0A00B90C00
(3.491000) can0 247#EC0DFF0A00C00C00
(3.497000) can0 247#F10DFF0A00C50C00
(3.499000) can0 247#DA0DFF0A00CB0C00
(3.501000) can0 247#D40DFF0A00D00C00
(3.503000) can0 247#D50DFF0A00D50C00
(3.505000) can0 247#D00DFF0A00DB0C00
(3.512000) can0 247#EA0DFF0A00E10C00
(3.512000) can0 3FD#0000003C20400580
(3.524000) can0 247#F00DFF0A00E50C00
(3.531000) can0 247#EB0DFF0A00E90C00
(3.533000) can0 247#E60DFF0A00EE0C00
(3.535000) can0 247#DE0DFF0A00F20C00
(3.538000) can0 247#E20DFF0A00F70C00
(3.540000) can0 247#D50DFF0A00FF0C00
(3.542000) can0 247#EE0DFF0A00040D00
(3.543000) can0 247#EA0DFF0A00080D00
(3.546000) can0 247#D40DFF0A000C0D00
(3.548000) can0 247#E80DFF0A00140D00
(3.550000) can0 247#E80DFF0A001C0D00
(3.552000) can0 247#E20DFF0A00220D00
(3.554000) can0 247#F70DFF0A00270D00
(3.556000) can0 247#E20DFF0A002D0D00
(3.558000) can0 247#E00DFF0A00320D00
(3.560000) can0 247#E90DFF0A00370D00
(3.562000) can0 247#DD0DFF0A003E0D00
(3.562000) can0 3FD#0100020000080280
(3.566000) can0 247#DC0DFF0A00440D00
(3.568000) can0 247#E30DFF0A00480D00
(3.570000) can0 247#F10DFF0A004C0D00
(3.572000) can0 247#DA0DFF0A00540D00
(3.574000) can0 247#F10DFF0A00580D00
(3.576000) can0 247#D80DFF0A005D0D00
(3.578000) can0 247#CF0DFF0A00620D00
(3.580000) can0 247#D00DFF0A00660D00
(3.582000) can0 247#C90DFF0A006D0D00
(3.584000) can0 247#E50DFF0A00730D00
(3.586000) can0 247#EA0DFF0A00790D00
(3.587000) can0 247#DF0DFF0A007E0D00
(3.589000) can0 247#F30DFF0A00830D00
(3.591000) can0 247#EF0DFF0A00890D00
(3.594000) can0 247#E80DFF0A008D0D00
(3.596000) can0 247#F20DFF0A00910D00
(3.596000) can0 3FD#0000003C20400580
(3.599000) can0 247#F40DFF0A00960D00
(3.601000) can0 247#E40DFF0A009E0D00
(3.603000) can0 247#CA0DFF0A00A40D00
(3.605000) can0 247#CD0DFF0A00AA0D00
(3.607000) can0 247#CF0DFF0A00B20D00
(3.609000) can0 247#CA0DFF0A00BA0D00
(3.611000) can0 247#CD0DFF0A00C20D00
(3.613000) can0 247#DD0DFF0A00C80D00
(3.615000) can0 247#E90DFF0A00CE0D00
(3.617000) can0 247#F40DFF0A00D30D00
(3.619000) can0 247#C90DFF0A00DA0D00
(3.621000) can0 247#F00DFF0A00E00D00
(3.624000) can0 247#F30DFF0A00E60D00
(3.626000) can0 247#F10DFF0A00EC0D00
(3.627000) can0 247#D90DFF0A00F10D00
(3.629000) can0 247#DB0DFF0A00F60D00
(3.631000) can0 247#D20DFF0A00FE0D00
(3.638000) can0 247#E80DFF0A00060E00
(3.640000) can0 247#E70DFF0A000C0E00
(3.642000) can0 247#D60DFF0A00100E00
(3.644000) can0 247#EC0DFF0A00160E00
(3.645000) can0 247#D10DFF0A001C0E00
(3.645000) can0 3FD#0100020000080280
(3.649000) can0 247#DA0DFF0A00240E00
(3.651000) can0 247#F30DFF0A002A0E00
(3.653000) can0 247#F20DFF0A00320E00
(3.659000) can0 247#F30DFF0A00370E00
(3.663000) can0 247#F60DFF0A003F0E00
(3.669000) can0 247#D30DFF0A00450E00
(3.672000) can0 247#EB0DFF0A004B0E00
(3.674000) can0 247#EB0DFF0A00500E00
(3.676000) can0 247#D00DFF0A00580E00
(3.678000) can0 247#E60DFF0A005D0E00
(3.683000) can0 247#E30DFF0A00640E00
(3.687000) can0 247#E70DFF0A006A0E00
(3.691000) can0 247#D30DFF0A006E0E00
(3.698000) can0 247#EB0DFF0A00720E00
(3.698000) can0 3FD#0200560000000090
(3.701000) can0 247#D70DFF0A00760E00
(3.705000) can0 247#EF0DFF0A007A0E00
(3.709000) can0 247#F70DFF0A00800E00
(3.715000) can0 247#D20DFF0A00850E00
(3.721000) can0 247#DF0DFF0A008D0E00
(3.723000) can0 247#F40DFF0A00950E00
(3.725000) can0 247#E10DFF0A009A0E00
(3.727000) can0 247#DC0DFF0A009F0E00
(3.729000) can0 247#F10DFF0A00A50E00
(3.731000) can0 247#DC0DFF0A00AB0E00
(3.733000) can0 247#E40DFF0A00B10E00
(3.736000) can0 247#D00DFF0A00B60E00
(3.738000) can0 247#F20DFF0A00BB0E00
(3.739000) can0 247#E70DFF0A00C30E00
(3.742000) can0 247#EC0DFF0A00CA0E00
(3.744000) can0 247#D00DFF0A00D00E00
(3.746000) can0 247#E00DFF0A00D70E00
(3.748000) can0 247#E90DFF0A00DE0E00
(3.750000) can0 247#D30DFF0A00E30E00
(3.751000) can0 247#DC0DFF0A00E90E00
(3.753000) can0 247#CC0DFF0A00ED0E00
(3.755000) can0 247#F70DFF0A00F20E00
(3.758000) can0 247#C80DFF0A00F60E00
(3.764000) can0 247#F50DFF0A00FB0E00
(3.768000) can0 247#CF0DFF0A00010F00
(3.775000) can0 247#CF0DFF0A00070F00
(3.779000) can0 247#C90DFF0A000F0F00
(3.780000) can0 247#DF0DFF0A00170F00
(3.783000) can0 247#DE0DFF0A001B0F00
(3.785000) can0 247#C80DFF0A001F0F00
(3.787000) can0 247#DB0DFF0A00260F00
(3.789000) can0 247#E70DFF0A002E0F00
(3.791000) can0 247#E30DFF0A00350F00
(3.793000) can0 247#D30DFF0A003B0F00
(3.795000) can0 247#ED0DFF0A00410F00
(3.797000) can0 247#D70DFF0A00450F00
(3.798000) can0 247#E10DFF0A00490F00
(3.800000) can0 247#D40DFF0A004D0F00
(3.802000) can0 247#F30DFF0A00550F00
(3.805000) can0 247#E40DFF0A00590F00
(3.807000) can0 247#CE0DFF0A00600F00
(3.809000) can0 247#E60DFF0A00660F00
(3.811000) can0 247#D50DFF0A006C0F00
(3.813000) can0 247#E20DFF0A00740F00
(3.815000) can0 247#DC0DFF0A007B0F00
(3.817000) can0 247#EB0DFF0A00810F00
(3.819000) can0 247#D60DFF0A00850F00
(3.821000) can0 247#E80DFF0A00890F00
(3.823000) can0 247#EF0DFF0A008D0F00
(3.825000) can0 247#F50DFF0A00930F00
(3.827000) can0 247#EE0DFF0A009B0F00
(3.829000) can0 247#E70DFF0A00A10F00
(3.830000) can0 247#D40DFF0A00A80F00
(3.833000) can0 247#F70DFF0A00AE0F00
(3.835000) can0 247#F70DFF0A00B30F00
(3.837000) can0 247#D20DFF0A00B70F00
(3.840000) can0 247#CE0DFF0A00BB0F00
(3.842000) can0 247#F10DFF0A00C30F00
(3.843000) can0 247#E60DFF0A00C70F00
(3.845000) can0 247#E00DFF0A00CD0F00
(3.847000) can0 247#E70DFF0A00D20F00
(3.849000) can0 247#D00DFF0A00D80F00
(3.851000) can0 247#CA0DFF0A00E00F00
(3.857000) can0 247#DF0DFF0A00E50F00
(3.859000) can0 247#CF0DFF0A00E90F00
(3.861000) can0 247#E00DFF0A00F00F00
(3.862000) can0 247#E20DFF0A00F40F00
(3.865000) can0 247#F60DFF0A00FA0F00
(3.867000) can0 247#D30DFF0A00011000
(3.869000) can0 247#F70DFF0A00061000
(3.873000) can0 247#F70DFF0A000B1000
(3.877000) can0 247#E60DFF0A00101000
(3.883000) can0 247#F00DFF0A00161000
(3.889000) can0 247#EF0DFF0A001D1000
(3.891000) can0 247#C80DFF0A00241000
(3.893000) can0 247#E10DFF0A00291000
(3.895000) can0 247#D10DFF0A00301000
(3.897000) can0 247#EC0DFF0A00381000
(3.899000) can0 247#EB0DFF0A003E1000
(3.901000) can0 247#CB0DFF0A00431000
(3.902000) can0 247#E40DFF0A004B1000
(3.905000) can0 247#EE0DFF0A00531000
(3.907000) can0 247#E40DFF0A005A1000
(3.909000) can0 247#CE0DFF0A00621000
(3.912000) can0 247#D70DFF0A006A1000
(3.914000) can0 247#F60DFF0A00701000
(3.916000) can0 247#E30DFF0A00741000
(3.918000) can0 247#D20DFF0A00781000
(3.920000) can0 247#F60DFF0A007F1000
(3.922000) can0 247#DD0DFF0A00871000
(3.924000) can0 247#F40DFF0A008F1000
(3.926000) can0 247#F50DFF0A00951000
(3.928000) can0 247#D50DFF0A009D1000
(3.930000) can0 247#F70DFF0A00A31000
(3.931000) can0 247#F10DFF0A00A71000
(3.934000) can0 247#E00DFF0A00AE1000
(3.936000) can0 247#DA0DFF0A00B31000
(3.939000) can0 247#D10DFF0A00B81000
(3.941000) can0 247#DF0DFF0A00C01000
(3.943000) can0 247#DC0DFF0A00C81000
(3.945000) can0 247#E90DFF0A00CD1000
(3.947000) can0 247#F20DFF0A00D11000
(3.949000) can0 247#DC0DFF0A00D71000
(3.951000) can0 247#CC0DFF0A00DC1000
(3.952000) can0 247#F20DFF0A00E01000
(3.954000) can0 247#CE0DFF0A00E71000
(3.956000) can0 247#D70DFF0A00EB1000
(3.958000) can0 247#D00DFF0A00F21000
(3.960000) can0 247#D70DFF0A00FA1000
(3.962000) can0 247#EC0DFF0A00021100
(3.965000) can0 247#EC0DFF0A00061100
(3.967000) can0 247#F40DFF0A000E1100
(3.969000) can0 247#DA0DFF0A00131100
(3.971000) can0 247#DE0DFF0A001A1100
(3.973000) can0 247#D30DFF0A00211100
(3.975000) can0 247#C90DFF0A00281100
(3.977000) can0 247#E10DFF0A002E1100
(3.979000) can0 247#E40DFF0A00331100
(3.981000) can0 247#E20DFF0A00371100
(3.982000) can0 247#F50DFF0A003B1100
(3.984000) can0 247#DC0DFF0A00411100
(3.986000) can0 247#D40DFF0A00461100
(3.988000) can0 247#E50DFF0A004B1100
(3.990000) can0 247#F50DFF0A00531100
(3.993000) can0 247#D70DFF0A00591100
(3.996000) can0 247#F70DFF0A005F1100
(3.997000) can0 247#ED0DFF0A00651100
(3.999000) can0 247#F70DFF0A006D1100
(4.001000) can0 247#C90DFF0A00721100
(4.003000) can0 247#E10DFF0A00781100
(4.005000) can0 247#EA0DFF0A007C1100
(4.012000) can0 247#CE0DFF0A00841100
(4.012000) can0 3FD#0000003C20400580
(4.022000) can0 247#EB0DFF0A00881100
(4.028000) can0 247#D40DFF0A008C1100
(4.032000) can0 247#DF0DFF0A00931100
(4.034000) can0 247#EB0DFF0A00991100
(4.036000) can0 247#DB0DFF0A009D1100
(4.038000) can0 247#F50DFF0A00A31100
(4.044000) can0 247#EB0DFF0A00AA1100
(4.050000) can0 247#D50DFF0A00B01100
(4.054000) can0 247#ED0DFF0A00B41100
(4.061000) can0 247#D50DFF0A00BC1100
(4.061000) can0 3FD#0100020000080280
(4.064000) can0 247#CB0DFF0A00C01100
(4.066000) can0 247#C90DFF0A00C51100
(4.068000) can0 247#F40DFF0A00CA1100
(4.070000) can0 247#DC0DFF0A00CE1100
(4.072000) can0 247#CF0DFF0A00D51100
(4.074000) can0 247#C90DFF0A00DC1100
(4.076000) can0 247#D10DFF0A00E21100
(4.078000) can0 247#D00DFF0A00E81100
(4.080000) can0 247#DE0DFF0A00ED1100
(4.084000) can0 247#E50DFF0A00F51100
(4.088000) can0 247#DF0DFF0A00F91100
(4.093000) can0 247#EC0DFF0A00FE1100
(4.099000) can0 247#EB0DFF0A00021200
(4.102000) can0 247#F70DFF0A00081200
(4.104000) can0 247#E00DFF0A000C1200
(4.106000) can0 247#D30DFF0A00101200
(4.108000) can0 247#CA0DFF0A00161200
(4.110000) can0 247#D10DFF0A001A1200
(4.110000) can0 3FD#0200560000000090
(4.113000) can0 247#D20DFF0A00201200
(4.115000) can0 247#ED0DFF0A00281200
(4.121000) can0 247#E70DFF0A00301200
(4.123000) can0 247#E80DFF0A00351200
(4.125000) can0 247#D30DFF0A003A1200
(4.127000) can0 247#D90DFF0A003E1200
(4.129000) can0 247#E80DFF0A00441200
(4.132000) can0 247#D30DFF0A004C1200
(4.134000) can0 247#DC0DFF0A00521200
(4.136000) can0 247#E40DFF0A005A1200
(4.138000) can0 247#D20DFF0A00601200
(4.140000) can0 247#CD0DFF0A00651200
(4.142000) can0 247#D10DFF0A006B1200
(4.144000) can0 247#EE0DFF0A00701200
(4.146000) can0 247#F50DFF0A00741200
(4.148000) can0 247#D40DFF0A007B1200
(4.150000) can0 247#ED0DFF0A00801200
(4.152000) can0 247#E40DFF0A00851200
(4.154000) can0 247#D90DFF0A008B1200
(4.156000) can0 247#DA0DFF0A00931200
(4.158000) can0 247#F40DFF0A009A1200
(4.161000) can0 247#EF0DFF0A00A01200
(4.162000) can0 247#C90DFF0A00A51200
(4.164000) can0 247#EB0DFF0A00AC1200
(4.166000) can0 247#DF0DFF0A00B41200
(4.168000) can0 247#E80DFF0A00B81200
(4.170000) can0 247#F20DFF0A00BC1200
(4.172000) can0 247#F40DFF0A00C21200
(4.174000) can0 247#DF0DFF0A00CA1200
(4.176000) can0 247#E60DFF0A00D21200
(4.178000) can0 247#D30DFF0A00DA1200
(4.181000) can0 247#E90DFF0A00E21200
(4.183000) can0 247#DB0DFF0A00E91200
(4.185000) can0 247#DC0DFF0A00F11200
(4.187000) can0 247#E40DFF0A00F61200
(4.190000) can0 247#DE0DFF0A00FE1200
(4.191000) can0 247#CE0DFF0A00041300
(4.193000) can0 247#E00DFF0A000A1300
(4.195000) can0 247#E40DFF0A00111300
(4.197000) can0 247#E00DFF0A00151300
(4.199000) can0 247#F00DFF0A001B1300
(4.201000) can0 247#C90DFF0A001F1300
(4.203000) can0 247#CD0DFF0A00231300
(4.205000) can0 247#F70DFF0A002B1300
(4.207000) can0 247#F20DFF0A002F1300
(4.210000) can0 247#F70DFF0A00351300
(4.211000) can0 247#CF0DFF0A003D1300
(4.213000) can0 247#DA0DFF0A00431300
(4.215000) can0 247#E60DFF0A00491300
(4.218000) can0 247#E70DFF0A00501300
(4.220000) can0 247#E90DFF0A00561300
(4.222000) can0 247#D70DFF0A005E1300
(4.224000) can0 247#EF0DFF0A00621300
(4.226000) can0 247#D00DFF0A006A1300
(4.227000) can0 247#DA0DFF0A00721300
(4.229000) can0 247#EB0DFF0A007A1300
(4.231000) can0 247#DA0DFF0A00811300
(4.233000) can0 247#ED0DFF0A00881300
(4.235000) can0 247#E10DFF0A008D1300
(4.238000) can0 247#CC0DFF0A00921300
(4.240000) can0 247#DA0DFF0A00971300
(4.242000) can0 247#DC0DFF0A009B1300
(4.244000) can0 247#F50DFF0A00A21300
(4.245000) can0 247#E90DFF0A00AA1300
(4.248000) can0 247#CD0DFF0A00B01300
(4.250000) can0 247#CE0DFF0A00B51300
(4.252000) can0 247#D30DFF0A00BC1300
(4.254000) can0 247#D70DFF0A00C11300
(4.256000) can0 247#D40DFF0A00C61300
(4.264000) can0 247#EF0DFF0A00CA1300
(4.273000) can0 247#EA0DFF0A00D01300
(4.277000) can0 247#F30DFF0A00D51300
(4.284000) can0 247#D70DFF0A00D91300
(4.288000) can0 247#CD0DFF0A00DE1300
(4.292000) can0 247#D50DFF0A00E41300
(4.298000) can0 247#CC0DFF0A00EA1300
(4.302000) can0 247#CD0DFF0A00EF1300
(4.306000) can0 247#C80DFF0A00F51300
(4.309000) can0 247#CB0DFF0A00FC1300
(4.311000) can0 247#F20DFF0A00001400
(4.312000) can0 247#F40DFF0A00051400
(4.314000) can0 247#D40DFF0A000C1400
(4.316000) can0 247#E10DFF0A00141400
(4.319000) can0 247#E00DFF0A00191400
(4.321000) can0 247#E20DFF0A001F1400
(4.322000) can0 247#E40DFF0A00241400
(4.324000) can0 247#EA0DFF0A00281400
(4.327000) can0 247#C90DFF0A002C1400
(4.329000) can0 247#D10DFF0A00321400
(4.331000) can0 247#EC0DFF0A00371400
(4.333000) can0 247#D90DFF0A003E1400
(4.335000) can0 247#EE0DFF0A00431400
(4.337000) can0 247#F60DFF0A00481400
(4.339000) can0 247#F00DFF0A004E1400
(4.341000) can0 247#CC0DFF0A00531400
(4.343000) can0 247#E90DFF0A00571400
(4.345000) can0 247#D80DFF0A005E1400
(4.347000) can0 247#CB0DFF0A00631400
(4.349000) can0 247#E50DFF0A00691400
(4.351000) can0 247#EE0DFF0A006F1400
(4.355000) can0 247#EA0DFF0A00761400
(4.359000) can0 247#D50DFF0A007E1400
(4.363000) can0 247#C80DFF0A00861400
(4.369000) can0 247#F50DFF0A008D1400
(4.374000) can0 247#EE0DFF0A00931400
(4.376000) can0 247#E30DFF0A009B1400
(4.378000) can0 247#C90DFF0A00A11400
(4.380000) can0 247#DC0DFF0A00A71400
(4.382000) can0 247#D10DFF0A00AF1400
(4.389000) can0 247#E10DFF0A00B31400
(4.391000) can0 247#CF0DFF0A00B71400
(4.393000) can0 247#F10DFF0A00BB1400
(4.395000) can0 247#F00DFF0A00C01400
(4.397000) can0 247#F10DFF0A00C81400
(4.399000) can0 247#C90DFF0A00CD1400
(4.401000) can0 247#F00DFF0A00D21400
(4.403000) can0 247#DD0DFF0A00D61400
(4.405000) can0 247#D30DFF0A00DE1400
(4.407000) can0 247#CF0DFF0A00E31400
(4.413000) can0 247#DD0DFF0A00E71400
(4.416000) can0 247#D50DFF0A00EC1400
(4.418000) can0 247#D90DFF0A00F21400
(4.420000) can0 247#C80DFF0A00F91400
(4.422000) can0 247#F30DFF0A00FE1400
(4.423000) can0 247#E50DFF0A00031500
(4.425000) can0 247#D50DFF0A00081500
(4.427000) can0 247#E20DFF0A000D1500
(4.429000) can0 247#F10DFF0A00121500
(4.432000) can0 247#D30DFF0A001A1500
(4.434000) can0 247#F60DFF0A00221500
(4.436000) can0 247#F20DFF0A002A1500
(4.438000) can0 247#E50DFF0A00321500
(4.440000) can0 247#DE0DFF0A00361500
(4.442000) can0 247#E50DFF0A003C1500
(4.444000) can0 247#F40DFF0A00421500
(4.446000) can0 247#D20DFF0A004A1500
(4.448000) can0 247#D80DFF0A00511500
(4.450000) can0 247#E20DFF0A00551500
(4.452000) can0 247#DD0DFF0A005D1500
(4.454000) can0 247#C90DFF0A00621500
(4.456000) can0 247#EB0DFF0A006A1500
(4.458000) can0 247#D40DFF0A00711500
(4.465000) can0 247#D40DFF0A00751500
(4.467000) can0 247#E40DFF0A00791500
(4.469000) can0 247#E70DFF0A007E1500
(4.470000) can0 247#E60DFF0A00831500
(4.473000) can0 247#DA0DFF0A00871500
(4.474000) can0 247#F50DFF0A008B1500
(4.476000) can0 247#D60DFF0A00911500
(4.483000) can0 247#F00DFF0A00961500
(4.489000) can0 247#D40DFF0A009C1500
(4.495000) can0 247#F70DFF0A00A41500
(4.497000) can0 247#D60DFF0A00A81500
(4.499000) can0 247#E70DFF0A00AF1500
(4.501000) can0 247#DA0DFF0A00B41500
(4.502000) can0 247#E40DFF0A00BB1500
(4.505000) can0 247#DB0DFF0A00C21500
(4.507000) can0 247#E50DFF0A00C71500
(4.512000) can0 247#F30DFF0A00CE1500
(4.512000) can0 3FD#0000003C20400580
(4.525000) can0 247#DC0DFF0A00D51500
(4.531000) can0 247#E20DFF0A00DC1500
(4.533000) can0 247#EF0DFF0A00E31500
(4.535000) can0 247#CA0DFF0A00E91500
(4.538000) can0 247#EB0DFF0A00ED1500
(4.540000) can0 247#E20DFF0A00F11500
(4.542000) can0 247#EB0DFF0A00F81500
(4.543000) can0 247#DD0DFF0A00FC1500
(4.545000) can0 247#D90DFF0A00031600
(4.547000) can0 247#E60DFF0A000A1600
(4.550000) can0 247#D60DFF0A00121600
(4.552000) can0 247#E30DFF0A001A1600
(4.554000) can0 247#EF0DFF0A00201600
(4.556000) can0 247#F00DFF0A00271600
(4.558000) can0 247#CA0DFF0A002C1600
(4.560000) can0 247#D30DFF0A00301600
(4.561000) can0 247#D20DFF0A00341600
(4.561000) can0 3FD#0100020000080280
(4.565000) can0 247#D40DFF0A00381600
(4.572000) can0 247#C80DFF0A003D1600
(4.574000) can0 247#CB0DFF0A00411600
(4.576000) can0 247#CF0DFF0A00451600
(4.578000) can0 247#DF0DFF0A004C1600
(4.581000) can0 247#E10DFF0A00511600
(4.582000) can0 247#E70DFF0A00581600
(4.584000) can0 247#E20DFF0A005C1600
(4.586000) can0 247#D60DFF0A00611600
(4.588000) can0 247#D30DFF0A00651600
(4.590000) can0 247#DF0DFF0A00691600
(4.592000) can0 247#EB0DFF0A006F1600
(4.595000) can0 247#C90DFF0A00771600
(4.595000) can0 3FD#0000003C20400580
(4.598000) can0 247#E20DFF0A007B1600
(4.600000) can0 247#F00DFF0A00821600
(4.602000) can0 247#F70DFF0A00891600
(4.604000) can0 247#F20DFF0A008E1600
(4.606000) can0 247#F60DFF0A00921600
(4.609000) can0 247#F30DFF0A00991600
(4.611000) can0 247#CB0DFF0A00A11600
(4.612000) can0 247#D60DFF0A00A51600
(4.614000) can0 247#D00DFF0A00AD1600
(4.616000) can0 247#EA0DFF0A00B31600
(4.618000) can0 247#F10DFF0A00BA1600
(4.620000) can0 247#EC0DFF0A00BE1600
(4.622000) can0 247#DC0DFF0A00C21600
(4.624000) can0 247#F20DFF0A00C81600
(4.626000) can0 247#F20DFF0A00D01600
(4.628000) can0 247#F70DFF0A00D41600
(4.630000) can0 247#D80DFF0A00D91600
(4.632000) can0 247#E60DFF0A00DE1600
(4.634000) can0 247#D50DFF0A00E31600
(4.637000) can0 247#F70DFF0A00E71600
(4.639000) can0 247#CC0DFF0A00EE1600
(4.641000) can0 247#DC0DFF0A00F51600
(4.643000) can0 247#E90DFF0A00F91600
(4.643000) can0 3FD#0100020000080280
(4.646000) can0 247#C90DFF0A00001700
(4.648000) can0 247#E60DFF0A00061700
(4.650000) can0 247#F60DFF0A000E1700
(4.652000) can0 247#D70DFF0A00141700
(4.656000) can0 247#F00DFF0A00191700
(4.662000) can0 247#DB0DFF0A00211700
(4.668000) can0 247#F00DFF0A00251700
(4.670000) can0 247#D60DFF0A00291700
(4.677000) can0 247#D20DFF0A002F1700
(4.684000) can0 247#CA0DFF0A00361700
(4.688000) can0 247#EB0DFF0A003C1700
(4.691000) can0 247#CA0DFF0A00441700
(4.698000) can0 247#C90DFF0A00481700
(4.698000) can0 3FD#0200560000000090
(4.705000) can0 247#F30DFF0A004F1700
(4.707000) can0 247#E90DFF0A00551700
(4.709000) can0 247#E60DFF0A005C1700
(4.711000) can0 247#CD0DFF0A00641700
(4.713000) can0 247#F60DFF0A006A1700
(4.714000) can0 247#E50DFF0A00711700
(4.717000) can0 247#E90DFF0A00771700
(4.719000) can0 247#DA0DFF0A007B1700
(4.720000) can0 247#CF0DFF0A00821700
(4.725000) can0 247#F00DFF0A00891700
(4.732000) can0 247#F40DFF0A008F1700
(4.738000) can0 247#D20DFF0A00961700
(4.741000) can0 247#C90DFF0A009D1700
(4.743000) can0 247#F70DFF0A00A21700
(4.745000) can0 247#D20DFF0A00A71700
(4.747000) can0 247#D40DFF0A00AB1700
(4.749000) can0 247#F10DFF0A00B31700
(4.751000) can0 247#E90DFF0A00B71700
(4.753000) can0 247#DF0DFF0A00BE1700
(4.755000) can0 247#DB0DFF0A00C21700
(4.757000) can0 247#D10DFF0A00C81700
(4.765000) can0 247#D50DFF0A00CE1700
(4.772000) can0 247#DC0DFF0A00D41700
(4.779000) can0 247#DC0DFF0A00DC1700
(4.784000) can0 247#DB0DFF0A00E31700
(4.788000) can0 247#D80DFF0A00EB1700
(4.790000) can0 247#E50DFF0A00F21700
(4.792000) can0 247#E80DFF0A00F61700
(4.793000) can0 247#EE0DFF0A00FE1700
(4.795000) can0 247#ED0DFF0A00061800
(4.797000) can0 247#D80DFF0A000C1800
(4.799000) can0 247#D30DFF0A00111800
(4.801000) can0 247#DD0DFF0A00151800
(4.803000) can0 247#D60DFF0A001D1800
(4.805000) can0 247#F40DFF0A00231800
(4.806000) can0 247#E50DFF0A00271800
(4.808000) can0 247#DF0DFF0A002E1800
(4.811000) can0 247#F10DFF0A00361800
(4.814000) can0 247#CA0DFF0A003C1800
(4.816000) can0 247#DD0DFF0A00441800
(4.818000) can0 247#CA0DFF0A004A1800
(4.820000) can0 247#F20DFF0A004E1800
(4.822000) can0 247#E50DFF0A00531800
(4.823000) can0 247#DA0DFF0A005A1800
(4.825000) can0 247#CB0DFF0A005F1800
(4.827000) can0 247#EA0DFF0A00631800
(4.829000) can0 247#ED0DFF0A006B1800
(4.831000) can0 247#E20DFF0A00711800
(4.833000) can0 247#DF0DFF0A00781800
(4.835000) can0 247#D30DFF0A007E1800
(4.838000) can0 247#F30DFF0A00831800
(4.840000) can0 247#E40DFF0A00881800
(4.843000) can0 247#EE0DFF0A008E1800
(4.844000) can0 247#CD0DFF0A00961800
(4.846000) can0 247#ED0DFF0A009A1800
(4.848000) can0 247#F30DFF0A00A21800
(4.850000) can0 247#E60DFF0A00A61800
(4.852000) can0 247#D30DFF0A00AE1800
(4.854000) can0 247#E90DFF0A00B61800
(4.856000) can0 247#DF0DFF0A00BB1800
(4.858000) can0 247#E50DFF0A00C11800
(4.864000) can0 247#EB0DFF0A00C61800
(4.866000) can0 247#CA0DFF0A00CE1800
(4.868000) can0 247#E20DFF0A00D61800
(4.872000) can0 247#E50DFF0A00DB1800
(4.878000) can0 247#E20DFF0A00E01800
(4.883000) can0 247#D90DFF0A00E81800
(4.889000) can0 247#EF0DFF0A00F01800
(4.891000) can0 247#C90DFF0A00F81800
(4.893000) can0 247#D60DFF0A00FE1800
(4.895000) can0 247#C80DFF0A00051900
(4.897000) can0 247#D60DFF0A000D1900
(4.899000) can0 247#D90DFF0A00121900
(4.900000) can0 247#CC0DFF0A00161900
(4.902000) can0 247#CA0DFF0A001D1900
(4.904000) can0 247#E60DFF0A00251900
(4.906000) can0 247#CF0DFF0A002D1900
(4.908000) can0 247#E70DFF0A00321900
(4.911000) can0 247#E50DFF0A003A1900
(4.913000) can0 247#C80DFF0A00421900
(4.915000) can0 247#EA0DFF0A00481900
(4.918000) can0 247#D70DFF0A004F1900
(4.919000) can0 247#CB0DFF0A00531900
(4.921000) can0 247#E90DFF0A005A1900
(4.923000) can0 247#EF0DFF0A00621900
(4.925000) can0 247#F70DFF0A00681900
(4.927000) can0 247#F20DFF0A006F1900
(4.929000) can0 247#DD0DFF0A00771900
(4.931000) can0 247#F00DFF0A007B1900
(4.933000) can0 247#EE0DFF0A007F1900
(4.935000) can0 247#ED0DFF0A00851900
(4.937000) can0 247#D50DFF0A008D1900
(4.940000) can0 247#D90DFF0A00911900
(4.941000) can0 247#F60DFF0A00951900
(4.943000) can0 247#D20DFF0A009C1900
(4.946000) can0 247#E70DFF0A00A41900
(4.948000) can0 247#E90DFF0A00AB1900
(4.950000) can0 247#EC0DFF0A00B01900
(4.952000) can0 247#ED0DFF0A00B71900
(4.953000) can0 247#CF0DFF0A00BD1900
(4.955000) can0 247#C80DFF0A00C41900
(4.957000) can0 247#E70DFF0A00C81900
(4.959000) can0 247#F40DFF0A00CC1900
(4.961000) can0 247#E90DFF0A00D41900
(4.963000) can0 247#D50DFF0A00D81900
(4.965000) can0 247#EF0DFF0A00DE1900
(4.968000) can0 247#F00DFF0A00E31900
(4.970000) can0 247#E60DFF0A00EA1900
(4.972000) can0 247#F50DFF0A00F01900
(4.974000) can0 247#D50DFF0A00F81900
(4.976000) can0 247#F00DFF0A00FE1900
(4.978000) can0 247#DC0DFF0A00031A00
(4.980000) can0 247#EA0DFF0A000B1A00
(4.982000) can0 247#E80DFF0A00121A00
(4.984000) can0 247#CE0DFF0A00161A00
(4.986000) can0 247#D00DFF0A001E1A00
(4.988000) can0 247#DE0DFF0A00221A00
(4.990000) can0 247#D80DFF0A00291A00
(4.992000) can0 247#DE0DFF0A002D1A00
(4.994000) can0 247#D00DFF0A00331A00
(4.996000) can0 247#F20DFF0A00381A00
(4.998000) can0 247#F60DFF0A003E1A00
(5.000000) can0 247#D30DFF0A00431A00
(5.003000) can0 247#F00DFF0A004A1A00
(5.005000) can0 247#D60DFF0A00521A00
(5.007000) can0 247#E60DFF0A005A1A00
(5.014000) can0 247#EB0DFF0A00601A00
(5.014000) can0 3FD#0000003C20400580
(5.024000) can0 247#DA0DFF0A00671A00
(5.033000) can0 247#F60DFF0A006F1A00
(5.037000) can0 247#DD0DFF0A00751A00
(5.041000) can0 247#EC0DFF0A007C1A00
(5.047000) can0 247#F10DFF0A00841A00
(5.053000) can0 247#D90DFF0A008C1A00
(5.059000) can0 247#EE0DFF0A00941A00
(5.065000) can0 247#E40DFF0A009B1A00
(5.065000) can0 3FD#0100020000080280
(5.071000) can0 247#D90DFF0A00A01A00
(5.073000) can0 247#DE0DFF0A00A51A00
(5.075000) can0 247#CF0DFF0A00AB1A00
(5.080000) can0 247#D70DFF0A00B11A00
(5.084000) can0 247#CA0DFF0A00B71A00
(5.088000) can0 247#D40DFF0A00BB1A00
(5.092000) can0 247#E30DFF0A00C21A00
(5.097000) can0 247#EA0DFF0A00C91A00
(5.099000) can0 247#DC0DFF0A00D01A00
(5.101000) can0 247#CC0DFF0A00D61A00
(5.104000) can0 247#F10DFF0A00DC1A00
(5.106000) can0 247#F40DFF0A00E31A00
(5.107000) can0 247#ED0DFF0A00E71A00
(5.109000) can0 247#DC0DFF0A00EE1A00
(5.111000) can0 247#D80DFF0A00F41A00
(5.111000) can0 3FD#0200560000000090
(5.115000) can0 247#C80DFF0A00FA1A00
(5.117000) can0 247#EA0DFF0A00021B00
(5.119000) can0 247#D40DFF0A00091B00
(5.121000) can0 247#CF0DFF0A000D1B00
(5.123000) can0 247#D60DFF0A00111B00
(5.125000) can0 247#E90DFF0A00161B00
(5.127000) can0 247#E90DFF0A001A1B00
(5.129000) can0 247#CA0DFF0A00221B00
(5.132000) can0 247#EC0DFF0A002A1B00
(5.134000) can0 247#E30DFF0A00301B00
(5.135000) can0 247#DF0DFF0A00371B00
(5.138000) can0 247#EE0DFF0A003C1B00
(5.140000) can0 247#F60DFF0A00421B00
(5.141000) can0 247#F50DFF0A00491B00
(5.143000) can0 247#ED0DFF0A004E1B00
(5.145000) can0 247#E80DFF0A00541B00
(5.148000) can0 247#DE0DFF0A00591B00
(5.150000) can0 247#E30DFF0A005F1B00
(5.152000) can0 247#CC0DFF0A00641B00
(5.154000) can0 247#D10DFF0A006C1B00
(5.156000) can0 247#D00DFF0A00731B00
(5.157000) can0 247#D50DFF0A00781B00
(5.165000) can0 247#CB0DFF0A00801B00
(5.167000) can0 247#E60DFF0A00881B00
(5.169000) can0 247#E60DFF0A008E1B00
(5.171000) can0 247#F10DFF0A00921B00
(5.172000) can0 247#F40DFF0A009A1B00
(5.174000) can0 247#F10DFF0A009F1B00
(5.176000) can0 247#ED0DFF0A00A51B00
(5.178000) can0 247#DF0DFF0A00AC1B00
(5.181000) can0 247#E30DFF0A00B21B00
(5.183000) can0 247#CD0DFF0A00B91B00
(5.185000) can0 247#E40DFF0A00BE1B00
(5.187000) can0 247#D20DFF0A00C51B00
(5.189000) can0 247#EA0DFF0A00CC1B00
(5.191000) can0 247#F30DFF0A00D41B00
(5.194000) can0 247#F60DFF0A00DA1B00
(5.195000) can0 247#ED0DFF0A00E01B00
(5.197000) can0 247#EE0DFF0A00E41B00
(5.199000) can0 247#D80DFF0A00EA1B00
(5.201000) can0 247#D10DFF0A00EE1B00
(5.203000) can0 247#DB0DFF0A00F31B00
(5.205000) can0 247#D20DFF0A00FA1B00
(5.207000) can0 247#C80DFF0A00FE1B00
(5.209000) can0 247#F50DFF0A00061C00
(5.211000) can0 247#D90DFF0A000A1C00
(5.217000) can0 247#E30DFF0A00121C00
(5.219000) can0 247#D60DFF0A00191C00
(5.221000) can0 247#E20DFF0A001F1C00
(5.223000) can0 247#DC0DFF0A00231C00
(5.225000) can0 247#CB0DFF0A00291C00
(5.227000) can0 247#E10DFF0A002E1C00
(5.229000) can0 247#DB0DFF0A00361C00
(5.231000) can0 247#F40DFF0A003D1C00
(5.233000) can0 247#E00DFF0A00441C00
(5.235000) can0 247#D30DFF0A004C1C00
(5.237000) can0 247#F40DFF0A00531C00
(5.239000) can0 247#D20DFF0A005A1C00
(5.241000) can0 247#E00DFF0A00611C00
(5.244000) can0 247#CF0DFF0A00661C00
(5.246000) can0 247#EA0DFF0A006B1C00
(5.248000) can0 247#E70DFF0A00701C00
(5.250000) can0 247#CB0DFF0A00761C00
(5.252000) can0 247#DC0DFF0A007C1C00
(5.254000) can0 247#D50DFF0A00841C00
(5.256000) can0 247#E10DFF0A00891C00
(5.258000) can0 247#C80DFF0A008F1C00
(5.265000) can0 247#EA0DFF0A00931C00
(5.271000) can0 247#DE0DFF0A00991C00
(5.275000) can0 247#E10DFF0A00A01C00
(5.279000) can0 247#E00DFF0A00A61C00
(5.283000) can0 247#EC0DFF0A00AA1C00
(5.289000) can0 247#E50DFF0A00AE1C00
(5.296000) can0 247#D00DFF0A00B61C00
(5.300000) can0 247#CA0DFF0A00BC1C00
(5.305000) can0 247#DA0DFF0A00C11C00
(5.307000) can0 247#C90DFF0A00C71C00
(5.311000) can0 247#CE0DFF0A00CB1C00
(5.317000) can0 247#D40DFF0A00CF1C00
(5.323000) can0 247#EA0DFF0A00D71C00
(5.327000) can0 247#E30DFF0A00DE1C00
(5.329000) can0 247#F30DFF0A00E41C00
(5.331000) can0 247#F50DFF0A00EA1C00
(5.333000) can0 247#DE0DFF0A00F11C00
(5.335000) can0 247#DE0DFF0A00F81C00
(5.337000) can0 247#DF0DFF0A00001D00
(5.339000) can0 247#D80DFF0A00071D00
(5.342000) can0 247#F40DFF0A000F1D00
(5.344000) can0 247#DD0DFF0A00171D00
(5.346000) can0 247#F40DFF0A001D1D00
(5.348000) can0 247#D10DFF0A00241D00
(5.352000) can0 247#E80DFF0A002C1D00
(5.358000) can0 247#DB0DFF0A00311D00
(5.364000) can0 247#DD0DFF0A00381D00
(5.368000) can0 247#D70DFF0A003E1D00
(5.370000) can0 247#DF0DFF0A00441D00
(5.372000) can0 247#DA0DFF0A004C1D00
(5.374000) can0 247#D40DFF0A00511D00
(5.376000) can0 247#CC0DFF0A00581D00
(5.378000) can0 247#DD0DFF0A005D1D00
(5.380000) can0 247#D30DFF0A00651D00
(5.382000) can0 247#D30DFF0A006B1D00
(5.384000) can0 247#EE0DFF0A00711D00
(5.386000) can0 247#F50DFF0A00771D00
(5.388000) can0 247#ED0DFF0A007E1D00
(5.390000) can0 247#D60DFF0A00841D00
(5.392000) can0 247#E00DFF0A008B1D00
(5.394000) can0 247#DE0DFF0A00901D00
(5.396000) can0 247#D90DFF0A00941D00
(5.398000) can0 247#D90DFF0A00981D00
(5.400000) can0 247#E00DFF0A009F1D00
(5.402000) can0 247#D60DFF0A00A51D00
(5.404000) can0 247#CA0DFF0A00AD1D00
(5.406000) can0 247#E40DFF0A00B41D00
(5.408000) can0 247#D00DFF0A00BC1D00
(5.410000) can0 247#E70DFF0A00C11D00
(5.413000) can0 247#D80DFF0A00C71D00
(5.415000) can0 247#D60DFF0A00CF1D00
(5.421000) can0 247#D40DFF0A00D61D00
(5.424000) can0 247#CA0DFF0A00DB1D00
(5.426000) can0 247#F50DFF0A00E01D00
(5.428000) can0 247#D90DFF0A00E81D00
(5.429000) can0 247#DD0DFF0A00EC1D00
(5.431000) can0 247#DD0DFF0A00F21D00
(5.433000) can0 247#D30DFF0A00F91D00
(5.435000) can0 247#C90DFF0A00FE1D00
(5.437000) can0 247#D60DFF0A00021E00
(5.439000) can0 247#E10DFF0A000A1E00
(5.441000) can0 247#E10DFF0A00101E00
(5.444000) can0 247#D80DFF0A00151E00
(5.446000) can0 247#DE0DFF0A001A1E00
(5.448000) can0 247#CB0DFF0A00221E00
(5.450000) can0 247#F10DFF0A002A1E00
(5.453000) can0 247#D50DFF0A00311E00
(5.455000) can0 247#D10DFF0A00391E00
(5.461000) can0 247#D30DFF0A003E1E00
(5.463000) can0 247#CC0DFF0A00421E00
(5.465000) can0 247#EB0DFF0A00491E00
(5.466000) can0 247#C90DFF0A004E1E00
(5.468000) can0 247#D20DFF0A00541E00
(5.471000) can0 247#D00DFF0A005A1E00
(5.473000) can0 247#DC0DFF0A005E1E00
(5.474000) can0 247#DD0DFF0A00631E00
(5.476000) can0 247#CF0DFF0A00671E00
(5.483000) can0 247#D10DFF0A006F1E00
(5.489000) can0 247#CB0DFF0A00771E00
(5.494000) can0 247#F40DFF0A007E1E00
(5.498000) can0 247#E90DFF0A00861E00
(5.499000) can0 247#F10DFF0A008C1E00
(5.501000) can0 247#D30DFF0A00941E00
(5.503000) can0 247#F50DFF0A009C1E00
(5.505000) can0 247#D20DFF0A00A01E00
(5.507000) can0 247#DD0DFF0A00A41E00
(5.509000) can0 247#EB0DFF0A00AA1E00
(5.509000) can0 3FD#0000003C20400580
(5.513000) can0 247#F40DFF0A00B11E00
(5.519000) can0 247#F10DFF0A00B61E00
(5.525000) can0 247#CF0DFF0A00BB1E00
(5.529000) can0 247#F50DFF0A00C31E00
(5.534000) can0 247#C80DFF0A00CB1E00
(5.536000) can0 247#E70DFF0A00D31E00
(5.538000) can0 247#E50DFF0A00DB1E00
(5.540000) can0 247#EE0DFF0A00E11E00
(5.542000) can0 247#DE0DFF0A00E71E00
(5.544000) can0 247#DF0DFF0A00EC1E00
(5.546000) can0 247#E30DFF0A00F11E00
(5.548000) can0 247#EF0DFF0A00F91E00
(5.550000) can0 247#D50DFF0A00FE1E00
(5.551000) can0 247#CC0DFF0A00041F00
(5.553000) can0 247#F10DFF0A00081F00
(5.555000) can0 247#D00DFF0A00101F00
(5.557000) can0 247#CB0DFF0A00181F00
(5.559000) can0 247#CF0DFF0A001D1F00
(5.561000) can0 247#EB0DFF0A00221F00
(5.561000) can0 3FD#0100020000080280
(5.565000) can0 247#EC0DFF0A00291F00
(5.567000) can0 247#E10DFF0A00301F00
(5.569000) can0 247#ED0DFF0A00361F00
(5.571000) can0 247#CB0DFF0A003C1F00
(5.577000) can0 247#CF0DFF0A00441F00
(5.579000) can0 247#E10DFF0A00481F00
(5.581000) can0 247#F10DFF0A00501F00
(5.583000) can0 247#CE0DFF0A00551F00
(5.584000) can0 247#DD0DFF0A005D1F00
(5.586000) can0 247#E00DFF0A00621F00
(5.588000) can0 247#DE0DFF0A006A1F00
(5.590000) can0 247#D90DFF0A00711F00
(5.592000) can0 247#D50DFF0A00751F00
(5.595000) can0 247#F30DFF0A007A1F00
(5.595000) can0 3FD#0000003C20400580
(5.599000) can0 247#DF0DFF0A00811F00
(5.601000) can0 247#E60DFF0A00891F00
(5.603000) can0 247#CA0DFF0A00901F00
(5.604000) can0 247#F10DFF0A00941F00
(5.606000) can0 247#F60DFF0A00981F00
(5.608000) can0 247#C80DFF0A00A01F00
(5.610000) can0 247#E40DFF0A00A41F00
(5.612000) can0 247#F00DFF0A00A91F00
(5.614000) can0 247#E60DFF0A00B11F00
(5.616000) can0 247#F30DFF0A00B71F00
(5.618000) can0 247#D70DFF0A00BE1F00
(5.620000) can0 247#E60DFF0A00C51F00
(5.622000) can0 247#D80DFF0A00CA1F00
(5.624000) can0 247#DC0DFF0A00CF1F00
(5.627000) can0 247#E20DFF0A00D51F00
(5.629000) can0 247#E10DFF0A00DB1F00
(5.631000) can0 247#F30DFF0A00E11F00
(5.633000) can0 247#E20DFF0A00E91F00
(5.635000) can0 247#F70DFF0A00F01F00
(5.637000) can0 247#C90DFF0A00F71F00
(5.639000) can0 247#D30DFF0A00FE1F00
(5.641000) can0 247#F70DFF0A00042000
(5.643000) can0 247#E00DFF0A00092000
(5.643000) can0 3FD#0100020000080280
(5.646000) can0 247#DF0DFF0A00102000
(5.648000) can0 247#D80DFF0A00142000
(5.650000) can0 247#EE0DFF0A00192000
(5.652000) can0 247#EF0DFF0A00202000
(5.657000) can0 247#C80DFF0A00262000
(5.661000) can0 247#EB0DFF0A002A2000
(5.668000) can0 247#EF0DFF0A00312000
(5.670000) can0 247#F10DFF0A00392000
(5.672000) can0 247#E70DFF0A003D2000
(5.674000) can0 247#CB0DFF0A00452000
(5.676000) can0 247#E10DFF0A004D2000
(5.678000) can0 247#F10DFF0A00552000
(5.680000) can0 247#F40DFF0A005A2000
(5.682000) can0 247#F50DFF0A005F2000
(5.684000) can0 247#E80DFF0A00662000
(5.688000) can0 247#CF0DFF0A006D2000
(5.692000) can0 247#EA0DFF0A00742000
(5.696000) can0 247#CC0DFF0A007C2000
(5.696000) can0 3FD#0200540000000090
(5.705000) can0 247#C80DFF0A00842000
(5.707000) can0 247#E90DFF0A008B2000
(5.712000) can0 247#D70DFF0A00932000
(5.718000) can0 247#D40DFF0A009B2000
(5.724000) can0 247#E30DFF0A00A12000
(5.728000) can0 247#EA0DFF0A00A52000
(5.730000) can0 247#F20DFF0A00AC2000
(5.731000) can0 247#EA0DFF0A00B02000
(5.733000) can0 247#D10DFF0A00B82000
(5.735000) can0 247#C90DFF0A00C02000
(5.738000) can0 247#E00DFF0A00C82000
(5.740000) can0 247#D70DFF0A00CD2000
(5.742000) can0 247#DF0DFF0A00D52000
(5.744000) can0 247#E90DFF0A00DB2000
(5.746000) can0 247#DA0DFF0A00DF2000
(5.748000) can0 247#D40DFF0A00E42000
(5.750000) can0 247#E50DFF0A00E92000
(5.753000) can0 247#F40DFF0A00EF2000
(5.754000) can0 247#F00DFF0A00F72000
(5.756000) can0 247#E40DFF0A00FB2000
(5.758000) can0 247#F50DFF0A00032100
(5.760000) can0 247#F10DFF0A00082100
(5.765000) can0 247#E70DFF0A000D2100
(5.771000) can0 247#DC0DFF0A00142100
(5.776000) can0 247#EA0DFF0A001A2100
(5.780000) can0 247#E20DFF0A00202100
(5.784000) can0 247#F70DFF0A00272100
(5.789000) can0 247#E30DFF0A002D2100
(5.791000) can0 247#DC0DFF0A00342100
(5.793000) can0 247#D60DFF0A00392100
(5.795000) can0 247#DC0DFF0A003F2100
(5.798000) can0 247#EC0DFF0A00442100
(5.800000) can0 247#F10DFF0A00492100
(5.801000) can0 247#ED0DFF0A00512100
(5.803000) can0 247#F30DFF0A00562100
(5.805000) can0 247#DB0DFF0A005D2100
(5.807000) can0 247#F40DFF0A00612100
(5.809000) can0 247#DA0DFF0A00662100
(5.812000) can0 247#E50DFF0A006C2100
(5.814000) can0 247#C80DFF0A00742100
(5.816000) can0 247#F00DFF0A00782100
(5.817000) can0 247#F10DFF0A00802100
(5.824000) can0 247#C80DFF0A00842100
(5.826000) can0 247#D00DFF0A00892100
(5.828000) can0 247#E80DFF0A008D2100
(5.830000) can0 247#E20DFF0A00932100
(5.832000) can0 247#E90DFF0A009A2100
(5.834000) can0 247#DD0DFF0A009E2100
(5.836000) can0 247#F30DFF0A00A62100
(5.838000) can0 247#E90DFF0A00AE2100
(5.840000) can0 247#E50DFF0A00B32100
(5.842000) can0 247#EF0DFF0A00BB2100
(5.845000) can0 247#E20DFF0A00BF2100
(5.846000) can0 247#ED0DFF0A00C62100
(5.848000) can0 247#E00DFF0A00CE2100
(5.850000) can0 247#ED0DFF0A00D62100
(5.852000) can0 247#ED0DFF0A00DC2100
(5.854000) can0 247#F60DFF0A00E42100
(5.856000) can0 247#DA0DFF0A00EC2100
(5.858000) can0 247#F60DFF0A00F32100
(5.861000) can0 247#D90DFF0A00FB2100
(5.863000) can0 247#E30DFF0A00022200
(5.865000) can0 247#EF0DFF0A00062200
(5.867000) can0 247#F70DFF0A000C2200
(5.869000) can0 247#E50DFF0A00102200
(5.870000) can0 247#EE0DFF0A00142200
(5.875000) can0 247#DC0DFF0A001B2200
(5.879000) can0 247#D90DFF0A001F2200
(5.883000) can0 247#D70DFF0A00252200
(5.889000) can0 247#CA0DFF0A002A2200
(5.893000) can0 247#DD0DFF0A00322200
(5.895000) can0 247#D20DFF0A00392200
(5.897000) can0 247#F50DFF0A003F2200
(5.898000) can0 247#C80DFF0A00442200
(5.901000) can0 247#E30DFF0A004A2200
(5.903000) can0 247#C80DFF0A00522200
(5.905000) can0 247#D40DFF0A00582200
(5.907000) can0 247#F50DFF0A005F2200
(5.913000) can0 247#CD0DFF0A00642200
(5.916000) can0 247#E00DFF0A006C2200
(5.918000) can0 247#F30DFF0A00722200
(5.920000) can0 247#D10DFF0A00782200
(5.922000) can0 247#D60DFF0A007D2200
(5.924000) can0 247#ED0DFF0A00842200
(5.926000) can0 247#CE0DFF0A008A2200
(5.927000) can0 247#E30DFF0A008E2200
(5.930000) can0 247#CF0DFF0A00932200
(5.931000) can0 247#D60DFF0A00982200
(5.934000) can0 247#D90DFF0A00A02200
(5.936000) can0 247#E50DFF0A00A82200
(5.938000) can0 247#F70DFF0A00B02200
(5.940000) can0 247#D30DFF0A00B42200
(5.942000) can0 247#D60DFF0A00B82200
(5.945000) can0 247#EA0DFF0A00BC2200
(5.946000) can0 247#DA0DFF0A00C22200
(5.948000) can0 247#EF0DFF0A00C62200
(5.950000) can0 247#F20DFF0A00CB2200
(5.952000) can0 247#DD0DFF0A00CF2200
(5.954000) can0 247#E20DFF0A00D72200
(5.956000) can0 247#D70DFF0A00DB2200
(5.958000) can0 247#F40DFF0A00E02200
(5.964000) can0 247#D60DFF0A00E72200
(5.967000) can0 247#E20DFF0A00ED2200
(5.968000) can0 247#EE0DFF0A00F52200
(5.970000) can0 247#D50DFF0A00FB2200
(5.972000) can0 247#DB0DFF0A00022300
(5.974000) can0 247#F30DFF0A00062300
(5.977000) can0 247#F60DFF0A000B2300
(5.979000) can0 247#ED0DFF0A00122300
(5.981000) can0 247#E20DFF0A00182300
(5.983000) can0 247#D40DFF0A001F2300
(5.985000) can0 247#DC0DFF0A00262300
(5.987000) can0 247#EE0DFF0A002B2300
(5.989000) can0 247#F00DFF0A00312300
(5.990000) can0 247#F20DFF0A00352300
(5.992000) can0 247#F20DFF0A003D2300
(5.995000) can0 247#CA0DFF0A00452300
(5.997000) can0 247#D00DFF0A004D2300
(5.999000) can0 247#E90DFF0A00532300
(6.001000) can0 247#D40DFF0A005B2300
(6.003000) can0 247#DB0DFF0A00612300
(6.005000) can0 247#E50DFF0A00672300
(6.007000) can0 247#F50DFF0A006B2300
(6.009000) can0 247#F30DFF0A00732300
(6.011000) can0 247#DB0DFF0A00792300
(6.011000) can0 3FD#0000003C20400580
(6.023000) can0 247#C80DFF0A007E2300
(6.029000) can0 247#D50DFF0A00842300
(6.033000) can0 247#F60DFF0A008C2300
(6.037000) can0 247#F10DFF0A00942300
(6.041000) can0 247#E90DFF0A00982300
(6.050000) can0 247#E20DFF0A009F2300
(6.056000) can0 247#E70DFF0A00A72300
(6.061000) can0 247#DE0DFF0A00AE2300
(6.061000) can0 3FD#0100020000080280
(6.070000) can0 247#F20DFF0A00B62300
(6.076000) can0 247#DD0DFF0A00BA2300
(6.080000) can0 247#F00DFF0A00BF2300
(6.084000) can0 247#E40DFF0A00C32300
(6.088000) can0 247#F20DFF0A00CB2300
(6.090000) can0 247#CA0DFF0A00D22300
(6.092000) can0 247#F50DFF0A00D72300
(6.094000) can0 247#F20DFF0A00DB2300
(6.096000) can0 247#E00DFF0A00DF2300
(6.098000) can0 247#DA0DFF0A00E42300
(6.100000) can0 247#F10DFF0A00EC2300
(6.105000) can0 247#E90DFF0A00F12300
(6.109000) can0 247#DA0DFF0A00F52300
(6.115000) can0 247#CC0DFF0A00FD2300
(6.115000) can0 3FD#0200540000000090
(6.122000) can0 247#EA0DFF0A00022400
(6.124000) can0 247#D30DFF0A00082400
(6.126000) can0 247#D60DFF0A000C2400
(6.128000) can0 247#E90DFF0A00102400
(6.130000) can0 247#E10DFF0A00162400
(6.132000) can0 247#DD0DFF0A001A2400
(6.134000) can0 247#CA0DFF0A00222400
(6.136000) can0 247#F10DFF0A00262400
(6.138000) can0 247#F40DFF0A002A2400
(6.139000) can0 247#D40DFF0A002E2400
(6.141000) can0 247#C90DFF0A00342400
(6.144000) can0 247#D50DFF0A00382400
(6.146000) can0 247#E40DFF0A003F2400
(6.149000) can0 247#D40DFF0A00472400
(6.151000) can0 247#E90DFF0A004D2400
(6.153000) can0 247#CF0DFF0A00552400
(6.154000) can0 247#D90DFF0A005A2400
(6.156000) can0 247#D30DFF0A00602400
(6.158000) can0 247#E20DFF0A00672400
(6.160000) can0 247#D00DFF0A006F2400
(6.164000) can0 247#D80DFF0A00772400
(6.166000) can0 247#D60DFF0A007E2400
(6.167000) can0 247#F60DFF0A00842400
(6.169000) can0 247#EE0DFF0A008B2400
(6.171000) can0 247#E70DFF0A00922400
(6.177000) can0 247#D00DFF0A009A2400
(6.180000) can0 247#C80DFF0A009F2400
(6.182000) can0 247#F20DFF0A00A32400
(6.184000) can0 247#E60DFF0A00A72400
(6.186000) can0 247#DD0DFF0A00AB2400
(6.188000) can0 247#D50DFF0A00B22400
(6.190000) can0 247#E00DFF0A00B82400
(6.192000) can0 247#E50DFF0A00BF2400
(6.193000) can0 247#EF0DFF0A00C32400
(6.195000) can0 247#E30DFF0A00C82400
(6.197000) can0 247#D10DFF0A00CE2400
(6.199000) can0 247#CF0DFF0A00D32400
(6.201000) can0 247#E60DFF0A00D82400
(6.203000) can0 247#D40DFF0A00DC2400
(6.205000) can0 247#EF0DFF0A00E12400
(6.208000) can0 247#DF0DFF0A00E52400
(6.210000) can0 247#DC0DFF0A00EA2400
(6.212000) can0 247#E30DFF0A00F22400
(6.214000) can0 247#D50DFF0A00F62400
(6.220000) can0 247#E00DFF0A00FC2400
(6.222000) can0 247#D20DFF0A00022500
(6.224000) can0 247#F40DFF0A00072500
(6.226000) can0 247#E90DFF0A000D2500
(6.228000) can0 247#D60DFF0A00122500
(6.230000) can0 247#F70DFF0A00182500
(6.231000) can0 247#E60DFF0A001C2500
(6.233000) can0 247#DF0DFF0A00212500
(6.235000) can0 247#E90DFF0A00272500
(6.237000) can0 247#CC0DFF0A002E2500
(6.240000) can0 247#DB0DFF0A00322500
(6.242000) can0 247#C90DFF0A00392500
(6.244000) can0 247#E60DFF0A003D2500
(6.246000) can0 247#CB0DFF0A00442500
(6.248000) can0 247#CD0DFF0A004A2500
(6.250000) can0 247#DC0DFF0A00512500
(6.252000) can0 247#F30DFF0A00572500
(6.254000) can0 247#EF0DFF0A005E2500
(6.256000) can0 247#DE0DFF0A00622500
(6.257000) can0 247#E60DFF0A00672500
(6.259000) can0 247#E30DFF0A006B2500
(6.261000) can0 247#E30DFF0A00732500
(6.264000) can0 247#D80DFF0A00772500
(6.272000) can0 247#D50DFF0A007E2500
(6.280000) can0 247#DC0DFF0A00852500
(6.283000) can0 247#CB0DFF0A00892500
(6.285000) can0 247#F50DFF0A00902500
(6.287000) can0 247#DB0DFF0A00962500
(6.289000) can0 247#D00DFF0A009A2500
(6.291000) can0 247#D70DFF0A009F2500
(6.293000) can0 247#D70DFF0A00A32500
(6.295000) can0 247#D20DFF0A00AA2500
(6.297000) can0 247#E40DFF0A00B02500
(6.299000) can0 247#F10DFF0A00B42500
(6.301000) can0 247#EB0DFF0A00BB2500
(6.303000) can0 247#CB0DFF0A00C22500
(6.305000) can0 247#CF0DFF0A00C82500
(6.307000) can0 247#E10DFF0A00CE2500
(6.312000) can0 247#D80DFF0A00D52500
(6.318000) can0 247#CD0DFF0A00DD2500
(6.324000) can0 247#CC0DFF0A00E42500
(6.328000) can0 247#D10DFF0A00E92500
(6.330000) can0 247#C80DFF0A00F12500
(6.331000) can0 247#D50DFF0A00F82500
(6.333000) can0 247#EA0DFF0A00002600
(6.335000) can0 247#ED0DFF0A00072600
(6.337000) can0 247#F30DFF0A000D2600
(6.339000) can0 247#F10DFF0A00112600
(6.341000) can0 247#F20DFF0A00192600
(6.343000) can0 247#D70DFF0A00212600
(6.345000) can0 247#F40DFF0A00292600
(6.347000) can0 247#E80DFF0A00312600
(6.351000) can0 247#F00DFF0A00392600
(6.358000) can0 247#F30DFF0A003D2600
(6.364000) can0 247#D10DFF0A00442600
(6.368000) can0 247#CD0DFF0A00492600
(6.371000) can0 247#DC0DFF0A00502600
(6.373000) can0 247#F20DFF0A00572600
(6.374000) can0 247#DF0DFF0A005F2600
(6.376000) can0 247#E30DFF0A00642600
(6.378000) can0 247#E50DFF0A006C2600
(6.380000) can0 247#F00DFF0A00712600
(6.382000) can0 247#F20DFF0A00782600
(6.384000) can0 247#E00DFF0A007E2600
(6.386000) can0 247#EF0DFF0A00832600
(6.389000) can0 247#F10DFF0A008A2600
(6.392000) can0 247#D80DFF0A00912600
(6.393000) can0 247#C80DFF0A00962600
(6.395000) can0 247#DF0DFF0A009B2600
(6.397000) can0 247#DA0DFF0A00A12600
(6.399000) can0 247#E70DFF0A00A92600
(6.401000) can0 247#DF0DFF0A00AF2600
(6.403000) can0 247#F70DFF0A00B72600
(6.405000) can0 247#D60DFF0A00BF2600
(6.407000) can0 247#F00DFF0A00C62600
(6.409000) can0 247#DF0DFF0A00CA2600
(6.411000) can0 247#E50DFF0A00D02600
(6.412000) can0 247#DE0DFF0A00D82600
(6.414000) can0 247#ED0DFF0A00DC2600
(6.421000) can0 247#F50DFF0A00E22600
(6.423000) can0 247#CF0DFF0A00E92600
(6.425000) can0 247#F00DFF0A00ED2600
(6.427000) can0 247#E80DFF0A00F12600
(6.429000) can0 247#D40DFF0A00F82600
(6.431000) can0 247#E40DFF0A00FD2600
(6.433000) can0 247#E40DFF0A00042700
(6.435000) can0 247#D80DFF0A000C2700
(6.437000) can0 247#DC0DFF0A00122700
(6.439000) can0 247#ED0DFF0A00182700
(6.440000) can0 247#D30DFF0A001D2700
(6.442000) can0 247#CD0DFF0A00222700
(6.444000) can0 247#DF0DFF0A00272700
(6.446000) can0 247#E90DFF0A002E2700
(6.449000) can0 247#E20DFF0A00322700
(6.451000) can0 247#E70DFF0A00362700
(6.453000) can0 247#D10DFF0A003B2700
(6.455000) can0 247#F20DFF0A00422700
(6.457000) can0 247#C80DFF0A00482700
(6.459000) can0 247#D70DFF0A004C2700
(6.461000) can0 247#F20DFF0A00512700
(6.463000) can0 247#CB0DFF0A00572700
(6.465000) can0 247#F70DFF0A005F2700
(6.467000) can0 247#DF0DFF0A00642700
(6.469000) can0 247#CF0DFF0A006C2700
(6.471000) can0 247#EC0DFF0A00722700
(6.473000) can0 247#EC0DFF0A00772700
(6.475000) can0 247#EF0DFF0A007C2700
(6.481000) can0 247#D20DFF0A00832700
(6.485000) can0 247#DD0DFF0A00882700
(6.491000) can0 247#F70DFF0A008E2700
(6.497000) can0 247#D80DFF0A00932700
(6.498000) can0 247#D50DFF0A00982700
(6.500000) can0 247#DB0DFF0A009F2700
(6.502000) can0 247#CC0DFF0A00A42700
(6.504000) can0 247#E60DFF0A00AA2700
(6.506000) can0 247#C90DFF0A00AF2700
(6.508000) can0 247#F10DFF0A00B42700
(6.510000) can0 247#D20DFF0A00BB2700
(6.510000) can0 3FD#0000003C20400580
(6.513000) can0 247#E60DFF0A00C02700
(6.517000) can0 247#DC0DFF0A00C82700
(6.526000) can0 247#E10DFF0A00D02700
(6.532000) can0 247#D10DFF0A00D62700
(6.538000) can0 247#E00DFF0A00DA2700
(6.540000) can0 247#DB0DFF0A00E12700
(6.542000) can0 247#E10DFF0A00E82700
(6.544000) can0 247#E40DFF0A00F02700
(6.546000) can0 247#DC0DFF0A00F62700
(6.548000) can0 247#F40DFF0A00FB2700
(6.550000) can0 247#E40DFF0A00FF2700
(6.552000) can0 247#D40DFF0A00052800
(6.554000) can0 247#D60DFF0A000C2800
(6.556000) can0 247#D90DFF0A00132800
(6.558000) can0 247#EC0DFF0A00182800
(6.560000) can0 247#E70DFF0A001C2800
(6.560000) can0 3FD#0100020000080280
(6.564000) can0 247#EB0DFF0A00212800
(6.566000) can0 247#E50DFF0A00282800
(6.568000) can0 247#E50DFF0A002E2800
(6.570000) can0 247#C80DFF0A00332800
(6.572000) can0 247#F30DFF0A00382800
(6.574000) can0 247#DF0DFF0A00402800
(6.576000) can0 247#F60DFF0A00472800
(6.578000) can0 247#F40DFF0A004F2800
(6.580000) can0 247#D30DFF0A00562800
(6.582000) can0 247#D50DFF0A005D2800
(6.584000) can0 247#CC0DFF0A00642800
(6.586000) can0 247#F70DFF0A006A2800
(6.588000) can0 247#E80DFF0A00712800
(6.590000) can0 247#E30DFF0A00782800
(6.592000) can0 247#D60DFF0A007C2800
(6.592000) can0 3FD#0000003C20400580
(6.595000) can0 247#C80DFF0A00812800
(6.597000) can0 247#D40DFF0A00892800
(6.599000) can0 247#EF0DFF0A00912800
(6.602000) can0 247#D90DFF0A00962800
(6.604000) can0 247#F60DFF0A009B2800
(6.605000) can0 247#E30DFF0A00A22800
(6.607000) can0 247#D80DFF0A00A92800
(6.609000) can0 247#DD0DFF0A00AD2800
(6.611000) can0 247#F20DFF0A00B32800
(6.613000) can0 247#EA0DFF0A00B82800
(6.616000) can0 247#CF0DFF0A00C02800
(6.618000) can0 247#DB0DFF0A00C62800
(6.620000) can0 247#F20DFF0A00CE2800
(6.622000) can0 247#E90DFF0A00D52800
(6.624000) can0 247#EC0DFF0A00D92800
(6.626000) can0 247#F40DFF0A00DE2800
(6.628000) can0 247#E10DFF0A00E32800
(6.630000) can0 247#E50DFF0A00E72800
(6.632000) can0 247#F00DFF0A00ED2800
(6.634000) can0 247#E00DFF0A00F32800
(6.636000) can0 247#F50DFF0A00F72800
(6.638000) can0 247#C90DFF0A00FC2800
(6.640000) can0 247#F20DFF0A00032900
(6.642000) can0 247#EB0DFF0A000A2900
(6.642000) can0 3FD#0100020000080280
(6.646000) can0 247#CB0DFF0A000E2900
(6.648000) can0 247#DE0DFF0A00132900
(6.649000) can0 247#EC0DFF0A001A2900
(6.651000) can0 247#E10DFF0A00212900
(6.653000) can0 247#E20DFF0A00262900
(6.659000) can0 247#F40DFF0A002E2900
(6.663000) can0 247#CB0DFF0A00332900
(6.669000) can0 247#CB0DFF0A00382900
(6.673000) can0 247#F30DFF0A003F2900
(6.675000) can0 247#E50DFF0A00442900
(6.676000) can0 247#CF0DFF0A00482900
(6.678000) can0 247#F20DFF0A004D2900
(6.680000) can0 247#ED0DFF0A00552900
(6.689000) can0 247#D90DFF0A00592900
(6.693000) can0 247#D90DFF0A00612900
(6.699000) can0 247#DC0DFF0A00682900
(6.699000) can0 3FD#0200540000000090
(6.706000) can0 247#EF0DFF0A006C2900
(6.708000) can0 247#D60DFF0A00742900
(6.710000) can0 247#F40DFF0A007C2900
(6.712000) can0 247#F40DFF0A00812900
(6.714000) can0 247#DC0DFF0A00862900
(6.720000) can0 247#D90DFF0A008A2900
(6.725000) can0 247#CC0DFF0A008E2900
(6.729000) can0 247#D70DFF0A00952900
(6.733000) can0 247#E90DFF0A009B2900
(6.740000) can0 247#E20DFF0A00A22900
(6.743000) can0 247#F70DFF0A00A62900
(6.745000) can0 247#E00DFF0A00AD2900
(6.747000) can0 247#DD0DFF0A00B52900
(6.749000) can0 247#DC0DFF0A00BA2900
(6.751000) can0 247#F20DFF0A00C02900
(6.753000) can0 247#D10DFF0A00C62900
(6.755000) can0 247#EB0DFF0A00CD2900
(6.761000) can0 247#C80DFF0A00D32900
(6.763000) can0 247#D60DFF0A00DA2900
(6.773000) can0 247#E40DFF0A00E12900
(6.779000) can0 247#E50DFF0A00E72900
(6.783000) can0 247#C80DFF0A00EF2900
(6.787000) can0 247#DC0DFF0A00F42900
(6.791000) can0 247#D10DFF0A00F82900
(6.798000) can0 247#DB0DFF0A00FC2900
(6.800000) can0 247#EF0DFF0A00032A00
(6.802000) can0 247#D50DFF0A000B2A00
(6.803000) can0 247#CC0DFF0A00132A00
(6.805000) can0 247#F30DFF0A00192A00
(6.807000) can0 247#E20DFF0A001D2A00
(6.809000) can0 247#DB0DFF0A00242A00
(6.811000) can0 247#CE0DFF0A002C2A00
(6.817000) can0 247#DD0DFF0A00302A00
(6.819000) can0 247#F70DFF0A00372A00
(6.821000) can0 247#E20DFF0A003E2A00
(6.823000) can0 247#D60DFF0A00432A00
(6.825000) can0 247#EC0DFF0A00482A00
(6.828000) can0 247#EE0DFF0A00502A00
(6.830000) can0 247#E90DFF0A00562A00
(6.832000) can0 247#F20DFF0A005C2A00
(6.833000) can0 247#D10DFF0A00642A00
(6.835000) can0 247#D40DFF0A00682A00
(6.837000) can0 247#DC0DFF0A006E2A00
(6.839000) can0 247#F60DFF0A00752A00
(6.841000) can0 247#CF0DFF0A007A2A00
(6.843000) can0 247#CE0DFF0A00822A00
(6.845000) can0 247#CF0DFF0A00862A00
(6.848000) can0 247#F10DFF0A008D2A00
(6.850000) can0 247#E40DFF0A00952A00
(6.851000) can0 247#E80DFF0A00992A00
(6.853000) can0 247#CC0DFF0A009D2A00
(6.856000) can0 247#CD0DFF0A00A12A00
(6.858000) can0 247#DE0DFF0A00A92A00
(6.864000) can0 247#EF0DFF0A00B12A00
(6.866000) can0 247#D60DFF0A00B52A00
(6.868000) can0 247#D10DFF0A00BD2A00
(6.870000) can0 247#DB0DFF0A00C32A00
(6.871000) can0 247#DC0DFF0900CB2A00
(6.873000) can0 247#EA0DFF0900D12A00
(6.875000) can0 247#CC0DFF0900D72A00
(6.877000) can0 247#E10DFF0900DF2A00
(6.884000) can0 247#F20DFF0900E62A00
(6.888000) can0 247#F00DFF0900EA2A00
(6.894000) can0 247#EB0DFF0900EE2A00
(6.898000) can0 247#DE0DFF0900F52A00
(6.900000) can0 247#F20DFF0900F92A00
(6.902000) can0 247#EA0DFF0900FE2A00
(6.904000) can0 247#DC0DFF0900032B00
(6.906000) can0 247#E80DFF09000B2B00
(6.908000) can0 247#D60DFF0900102B00
(6.910000) can0 247#EE0DFF0900142B00
(6.912000) can0 247#E90DFF0900192B00
(6.914000) can0 247#F00DFF09001F2B00
(6.916000) can0 247#EE0DFF0900272B00
(6.918000) can0 247#DE0DFF09002C2B00
(6.920000) can0 247#C80DFF0900312B00
(6.922000) can0 247#E70DFF0900392B00
(6.924000) can0 247#CD0DFF09003E2B00
(6.926000) can0 247#CA0DFF0900432B00
(6.929000) can0 247#ED0DFF0900472B00
(6.931000) can0 247#E70DFF09004B2B00
(6.933000) can0 247#D80DFF09004F2B00
(6.935000) can0 247#EA0DFF0900542B00
(6.937000) can0 247#D90DFF09005B2B00
(6.938000) can0 247#D70DFF0900612B00
(6.940000) can0 247#C80DFF0900672B00
(6.942000) can0 247#CB0DFF09006F2B00
(6.944000) can0 247#F20DFF0900772B00
(6.946000) can0 247#E40DFF09007C2B00
(6.948000) can0 247#EA0DFF0900802B00
(6.951000) can0 247#CB0DFF0900862B00
(6.953000) can0 247#F40DFF09008C2B00
(6.954000) can0 247#E60DFF0900932B00
(6.957000) can0 247#D50DFF09009A2B00
(6.963000) can0 247#F20DFF0900A12B00
(6.965000) can0 247#D90DFF0900A52B00
(6.967000) can0 247#F50DFF0900AB2B00
(6.969000) can0 247#E00DFF0900B02B00
(6.971000) can0 247#EA0DFF0900B82B00
(6.973000) can0 247#ED0DFF0900BF2B00
(6.974000) can0 247#DF0DFF0900C32B00
(6.976000) can0 247#CE0DFF0900CB2B00
(6.978000) can0 247#E00DFF0900D32B00
(6.981000) can0 247#CF0DFF0900D82B00
(6.983000) can0 247#D50DFF0900E02B00
(6.985000) can0 247#D90DFF0900E82B00
(6.987000) can0 247#CA0DFF0900EE2B00
(6.989000) can0 247#E30DFF0900F62B00
(6.991000) can0 247#E90DFF0900FB2B00
(6.993000) can0 247#E10DFF0900032C00
(6.995000) can0 247#EF0DFF0900092C00
(6.997000) can0 247#D30DFF0900112C00
(6.999000) can0 247#E30DFF0900192C00
(7.001000) can0 247#F30DFF09001F2C00
(7.003000) can0 247#D40DFF0900252C00
(7.005000) can0 247#DC0DFF0900292C00
(7.006000) can0 247#DB0DFF0900312C00
(7.009000) can0 247#DD0DFF0900362C00
(7.013000) can0 247#E70DFF09003D2C00
(7.013000) can0 3FD#0000003C20400580
(7.028000) can0 247#E80DFF0900452C00
(7.037000) can0 247#C90DFF09004A2C00
(7.041000) can0 247#D50DFF0900502C00
(7.048000) can0 247#D00DFF0900542C00
(7.050000) can0 247#F70DFF09005B2C00
(7.052000) can0 247#DE0DFF0900622C00
(7.053000) can0 247#D20DFF0900692C00
(7.055000) can0 247#D90DFF09006F2C00
(7.057000) can0 247#D70DFF0900742C00
(7.059000) can0 247#D50DFF0900792C00
(7.061000) can0 247#F40DFF09007F2C00
(7.061000) can0 3FD#0100020000080280
(7.064000) can0 247#F10DFF0900872C00
(7.066000) can0 247#D20DFF09008C2C00
(7.070000) can0 247#EA0DFF0900912C00
(7.071000) can0 247#DE0DFF0900962C00
(7.073000) can0 247#D70DFF09009B2C00
(7.075000) can0 247#DA0DFF09009F2C00
(7.077000) can0 247#E00DFF0900A32C00
(7.079000) can0 247#F50DFF0900A82C00
(7.081000) can0 247#D40DFF0900AC2C00
(7.083000) can0 247#D10DFF0900B32C00
(7.085000) can0 247#E20DFF0900B82C00
(7.086000) can0 247#D50DFF0900BF2C00
(7.088000) can0 247#DD0DFF0900C32C00
(7.090000) can0 247#EC0DFF0900C72C00
(7.092000) can0 247#D40DFF0900CB2C00
(7.094000) can0 247#E10DFF0900CF2C00
(7.100000) can0 247#C80DFF0900D72C00
(7.104000) can0 247#E30DFF0900DF2C00
(7.110000) can0 247#E40DFF0900E62C00
(7.110000) can0 3FD#0200540000000090
(7.116000) can0 247#DF0DFF0900EB2C00
(7.118000) can0 247#C80DFF0900F22C00
(7.120000) can0 247#DC0DFF0900F82C00
(7.122000) can0 247#D60DFF0900FE2C00
(7.124000) can0 247#EE0DFF0900042D00
(7.126000) can0 247#CD0DFF09000A2D00
(7.128000) can0 247#D20DFF09000E2D00
(7.130000) can0 247#CD0DFF0900162D00
(7.132000) can0 247#E00DFF09001C2D00
(7.134000) can0 247#F40DFF0900212D00
(7.136000) can0 247#D30DFF0900262D00
(7.139000) can0 247#DF0DFF09002A2D00
(7.141000) can0 247#E20DFF09002E2D00
(7.143000) can0 247#F10DFF0900332D00
(7.145000) can0 247#DD0DFF0900392D00
(7.147000) can0 247#CB0DFF09003D2D00
(7.149000) can0 247#EC0DFF0900432D00
(7.151000) can0 247#F10DFF0900472D00
(7.153000) can0 247#EE0DFF09004F2D00
(7.154000) can0 247#EC0DFF0900562D00
(7.156000) can0 247#D50DFF09005E2D00
(7.158000) can0 247#CB0DFF0900662D00
(7.160000) can0 247#DA0DFF09006B2D00
(7.162000) can0 247#C80DFF0900712D00
(7.169000) can0 247#F20DFF0900782D00
(7.171000) can0 247#E20DFF09007D2D00
(7.173000) can0 247#F30DFF0900822D00
(7.175000) can0 247#F40DFF0900882D00
(7.177000) can0 247#CE0DFF09008E2D00
(7.179000) can0 247#CC0DFF0900922D00
(7.181000) can0 247#DF0DFF0900982D00
(7.183000) can0 247#E70DFF0900A02D00
(7.185000) can0 247#CA0DFF0900A52D00
(7.186000) can0 247#EF0DFF0900AA2D00
(7.188000) can0 247#F60DFF0900B12D00
(7.190000) can0 247#E90DFF0900B82D00
(7.192000) can0 247#EF0DFF0900BC2D00
(7.194000) can0 247#DF0DFF0900C02D00
(7.197000) can0 247#D20DFF0900C62D00
(7.199000) can0 247#F00DFF0900CB2D00
(7.201000) can0 247#F10DFF0900D02D00
(7.203000) can0 247#E90DFF0900D42D00
(7.205000) can0 247#F50DFF0900DA2D00
(7.207000) can0 247#E20DFF0900DE2D00
(7.209000) can0 247#C90DFF0900E22D00
(7.211000) can0 247#EE0DFF0900E72D00
(7.213000) can0 247#F70DFF0900EB2D00
(7.215000) can0 247#EC0DFF0900F22D00
(7.221000) can0 247#E40DFF0900F62D00
(7.223000) can0 247#E20DFF0900FE2D00
(7.225000) can0 247#CE0DFF0900042E00
(7.227000) can0 247#E20DFF0900082E00
(7.229000) can0 247#E80DFF09000F2E00
(7.231000) can0 247#E10DFF0900162E00
(7.241000) can0 247#D40DFF09001A2E00
(7.243000) can0 247#CD0DFF09001E2E00
(7.245000) can0 247#F10DFF0900232E00
(7.247000) can0 247#CD0DFF0900292E00
(7.249000) can0 247#EE0DFF0900302E00
(7.251000) can0 247#E80DFF0900382E00
(7.253000) can0 247#DB0DFF09003E2E00
(7.255000) can0 247#D70DFF0900452E00
(7.257000) can0 247#E90DFF0900492E00
(7.263000) can0 247#DA0DFF0900512E00
(7.268000) can0 247#D50DFF0900552E00
(7.275000) can0 247#CB0DFF09005D2E00
(7.279000) can0 247#C90DFF0900652E00
(7.283000) can0 247#DC0DFF09006B2E00
(7.288000) can0 247#F40DFF0900712E00
(7.293000) can0 247#F30DFF0900792E00
(7.295000) can0 247#D10DFF09007D2E00
(7.297000) can0 247#F60DFF0900842E00
(7.299000) can0 247#E20DFF09008B2E00
(7.301000) can0 247#DC0DFF09008F2E00
(7.302000) can0 247#E00DFF0900932E00
(7.304000) can0 247#D90DFF09009B2E00
(7.306000) can0 247#F20DFF0900A02E00
(7.308000) can0 247#D70DFF0900A52E00
(7.310000) can0 247#D70DFF0900A92E00
(7.314000) can0 247#D50DFF0900B02E00
(7.320000) can0 247#CF0DFF0900B42E00
(7.326000) can0 247#D50DFF0900B92E00
(7.331000) can0 247#DD0DFF0900BF2E00
(7.333000) can0 247#DC0DFF0900C32E00
(7.335000) can0 247#D60DFF0900CB2E00
(7.337000) can0 247#E90DFF0900D12E00
(7.339000) can0 247#CB0DFF0900D92E00
(7.341000) can0 247#D00DFF0900DE2E00
(7.343000) can0 247#DC0DFF0900E32E00
(7.345000) can0 247#D90DFF0900E72E00
(7.347000) can0 247#CF0DFF0900EC2E00
(7.349000) can0 247#EB0DFF0900F42E00
(7.351000) can0 247#EF0DFF0900F92E00
(7.355000) can0 247#CC0DFF0900FD2E00
(7.359000) can0 247#E80DFF0900052F00
(7.365000) can0 247#DE0DFF09000D2F00
(7.370000) can0 247#D90DFF0900112F00
(7.374000) can0 247#EA0DFF0900152F00
(7.376000) can0 247#C80DFF09001B2F00
(7.377000) can0 247#EA0DFF0900212F00
(7.379000) can0 247#CD0DFF0900252F00
(7.381000) can0 247#DE0DFF0900292F00
(7.383000) can0 247#D00DFF09002D2F00
(7.385000) can0 247#EA0DFF0900352F00
(7.387000) can0 247#DD0DFF09003C2F00
(7.389000) can0 247#EF0DFF0900422F00
(7.390000) can0 247#D00DFF09004A2F00
(7.393000) can0 247#C80DFF0900502F00
(7.395000) can0 247#D30DFF0900562F00
(7.397000) can0 247#E10DFF09005E2F00
(7.400000) can0 247#D50DFF0900632F00
(7.401000) can0 247#E00DFF09006A2F00
(7.403000) can0 247#D80DFF09006F2F00
(7.405000) can0 247#D40DFF0900762F00
(7.407000) can0 247#F20DFF09007E2F00
(7.413000) can0 247#F40DFF0900852F00
(7.415000) can0 247#C90DFF09008B2F00
(7.417000) can0 247#CD0DFF0900912F00
(7.419000) can0 247#E10DFF0900972F00
(7.421000) can0 247#DA0DFF09009D2F00
(7.423000) can0 247#D90DFF0900A52F00
(7.426000) can0 247#CF0DFF0900AD2F00
(7.427000) can0 247#C90DFF0900B12F00
(7.429000) can0 247#D40DFF0900B72F00
(7.432000) can0 247#F10DFF0900BF2F00
(7.434000) can0 247#EE0DFF0900C62F00
(7.436000) can0 247#EF0DFF0900CE2F00
(7.438000) can0 247#F20DFF0900D62F00
(7.440000) can0 247#ED0DFF0900DA2F00
(7.442000) can0 247#F30DFF0900DF2F00
(7.443000) can0 247#E20DFF0900E42F00
(7.445000) can0 247#EE0DFF0900E92F00
(7.447000) can0 247#E20DFF0900F02F00
(7.449000) can0 247#F20DFF0900F52F00
(7.451000) can0 247#CE0DFF0900FA2F00
(7.458000) can0 247#CD0DFF0900003000
(7.464000) can0 247#F20DFF0900063000
(7.470000) can0 247#CB0DFF09000A3000
(7.477000) can0 247#E40DFF09000E3000
(7.481000) can0 247#F40DFF0900133000
(7.485000) can0 247#E40DFF0900173000
(7.490000) can0 247#D80DFF09001D3000
(7.492000) can0 247#F10DFF0900243000
(7.494000) can0 247#CD0DFF09002C3000
(7.496000) can0 247#EC0DFF0900303000
(7.498000) can0 247#F20DFF0900383000
(7.500000) can0 247#D40DFF09003F3000
(7.502000) can0 247#E20DFF0900453000
(7.504000) can0 247#F20DFF09004B3000
(7.506000) can0 247#EC0DFF0900533000
(7.508000) can0 247#EE0DFF0900593000
(7.510000) can0 247#D00DFF0900613000
(7.510000) can0 3FD#0000003C20400580
(7.514000) can0 247#D90DFF0900683000
(7.519000) can0 247#E50DFF0900703000
(7.529000) can0 247#CF0DFF0900743000
(7.533000) can0 247#DE0DFF0900793000
(7.539000) can0 247#F30DFF0900803000
(7.543000) can0 247#D00DFF0900863000
(7.545000) can0 247#D10DFF09008B3000
(7.547000) can0 247#D90DFF0900913000
(7.549000) can0 247#F60DFF0900963000
(7.552000) can0 247#D50DFF09009C3000
(7.554000) can0 247#F00DFF0900A03000
(7.556000) can0 247#E60DFF0900A63000
(7.562000) can0 247#DE0DFF0900AC3000
(7.562000) can0 3FD#0100020000080280
(7.565000) can0 247#F20DFF0900B13000
(7.567000) can0 247#EC0DFF0900B53000
(7.570000) can0 247#DD0DFF0900BD3000
(7.572000) can0 247#F00DFF0900C53000
(7.574000) can0 247#D00DFF0900CA3000
(7.576000) can0 247#EB0DFF0900D03000
(7.577000) can0 247#EB0DFF0900D53000
(7.580000) can0 247#DE0DFF0900DA3000
(7.581000) can0 247#DA0DFF0900DF3000
(7.584000) can0 247#F40DFF0900E53000
(7.586000) can0 247#CA0DFF0900EB3000
(7.588000) can0 247#C80DFF0900F33000
(7.590000) can0 247#DC0DFF0900F83000
(7.592000) can0 247#D30DFF0900FF3000
(7.594000) can0 247#F40DFF0900053100
(7.594000) can0 3FD#0000003C20400580
(7.597000) can0 247#F00DFF09000D3100
(7.599000) can0 247#C90DFF0900133100
(7.601000) can0 247#CD0DFF0900183100
(7.603000) can0 247#EE0DFF09001F3100
(7.605000) can0 247#D00DFF0900253100
(7.607000) can0 247#D90DFF0900293100
(7.609000) can0 247#F60DFF09002F3100
(7.612000) can0 247#F40DFF0900333100
(7.618000) can0 247#C90DFF0900373100
(7.620000) can0 247#EE0DFF09003D3100
(7.622000) can0 247#D70DFF0900453100
(7.624000) can0 247#DE0DFF09004A3100
(7.626000) can0 247#CE0DFF0900523100
(7.628000) can0 247#CA0DFF09005A3100
(7.629000) can0 247#C90DFF0900623100
(7.631000) can0 247#D50DFF0900693100
(7.634000) can0 247#E30DFF09006D3100
(7.636000) can0 247#ED0DFF0900723100
(7.638000) can0 247#EC0DFF0900783100
(7.640000) can0 247#D10DFF0900803100
(7.642000) can0 247#CF0DFF0900873100
(7.644000) can0 247#CD0DFF09008C3100
(7.644000) can0 3FD#0100020000080280
(7.648000) can0 247#EC0DFF0900913100
(7.649000) can0 247#F00DFF0900973100
(7.651000) can0 247#DD0DFF09009D3100
(7.659000) can0 247#D20DFF0900A53100
(7.665000) can0 247#F30DFF0900AC3100
(7.669000) can0 247#E90DFF0900B23100
(7.671000) can0 247#F50DFF0900BA3100
(7.673000) can0 247#D20DFF0900C23100
(7.680000) can0 247#ED0DFF0900C73100
(7.684000) can0 247#E30DFF0900CB3100
(7.688000) can0 247#EE0DFF0900D13100
(7.693000) can0 247#E70DFF0900D73100
(7.693000) can0 3FD#0200540000000090
(7.699000) can0 247#F30DFF0900DE3100
(7.703000) can0 247#F40DFF0900E63100
(7.707000) can0 247#D60DFF0900ED3100
(7.713000) can0 247#D80DFF0900F23100
(7.717000) can0 247#E20DFF0900F73100
(7.719000) can0 247#F40DFF0900FD3100
(7.721000) can0 247#F60DFF0900033200
(7.723000) can0 247#F20DFF09000A3200
(7.724000) can0 247#E20DFF0900113200
(7.726000) can0 247#F20DFF0900153200
(7.729000) can0 247#D80DFF09001B3200
(7.731000) can0 247#D70DFF0900213200
(7.734000) can0 247#F40DFF0900283200
(7.736000) can0 247#DA0DFF0900303200
(7.738000) can0 247#F50DFF0900373200
(7.740000) can0 247#D00DFF09003C3200
(7.742000) can0 247#F50DFF0900443200
(7.744000) can0 247#D40DFF09004C3200
(7.745000) can0 247#CB0DFF0900523200
(7.747000) can0 247#F30DFF0900573200
(7.749000) can0 247#CC0DFF09005C3200
(7.751000) can0 247#E20DFF0900643200
(7.753000) can0 247#D40DFF09006A3200
(7.755000) can0 247#D30DFF0900703200
(7.758000) can0 247#F60DFF0900743200
(7.760000) can0 247#D40DFF09007A3200
(7.763000) can0 247#DA0DFF0900813200
(7.765000) can0 247#C80DFF0900863200
(7.777000) can0 247#D60DFF09008C3200
(7.784000) can0 247#E90DFF0900923200
(7.788000) can0 247#E10DFF0900983200
(7.794000) can0 247#E30DFF09009C3200
(7.799000) can0 247#E80DFF0900A33200
(7.801000) can0 247#D10DFF0900AB3200
(7.803000) can0 247#F00DFF0900B23200
(7.805000) can0 247#F60DFF0900B73200
(7.807000) can0 247#D70DFF0900BD3200
(7.813000) can0 247#CE0DFF0900C33200
(7.816000) can0 247#E70DFF0900C73200
(7.818000) can0 247#F50DFF0900CD3200
(7.825000) can0 247#D50DFF0900D23200
(7.827000) can0 247#C80DFF0900D83200
(7.829000) can0 247#E10DFF0900DE3200
(7.830000) can0 247#EC0DFF0900E53200
(7.832000) can0 247#F50DFF0900E93200
(7.834000) can0 247#F00DFF0900EF3200
(7.836000) can0 247#F10DFF0900F33200
(7.838000) can0 247#DC0DFF0900FA3200
(7.840000) can0 247#E10DFF0900003300
(7.841000) can0 247#F60DFF0900043300
(7.843000) can0 247#C90DFF09000B3300
(7.845000) can0 247#D60DFF0900123300
(7.848000) can0 247#F00DFF09001A3300
(7.850000) can0 247#CC0DFF09001E3300
(7.852000) can0 247#D50DFF0900243300
(7.854000) can0 247#D60DFF0900283300
(7.856000) can0 247#CC0DFF0900303300
(7.858000) can0 247#D60DFF0900363300
(7.860000) can0 247#E50DFF09003D3300
(7.862000) can0 247#D60DFF0900413300
(7.864000) can0 247#F70DFF0900473300
(7.866000) can0 247#EA0DFF09004B3300
(7.868000) can0 247#DA0DFF0900513300
(7.869000) can0 247#D90DFF0900583300
(7.871000) can0 247#D70DFF09005C3300
(7.873000) can0 247#F60DFF0900633300
(7.875000) can0 247#CF0DFF0900683300
(7.880000) can0 247#CF0DFF09006D3300
(7.885000) can0 247#E40DFF0900753300
(7.889000) can0 247#E10DFF0900793300
(7.896000) can0 247#D50DFF09007E3300
(7.898000) can0 247#DB0DFF0900823300
(7.900000) can0 247#D10DFF0900863300
(7.902000) can0 247#EB0DFF09008B3300
(7.904000) can0 247#CC0DFF0900933300
(7.906000) can0 247#C80DFF09009B3300
(7.907000) can0 247#F30DFF0900A23300
(7.909000) can0 247#D70DFF0900A83300
(7.911000) can0 247#CA0DFF0900B03300
(7.913000) can0 247#F10DFF0900B63300
(7.920000) can0 247#CA0DFF0900BC3300
(7.922000) can0 247#F30DFF0900C13300
(7.925000) can0 247#DE0DFF0900C53300
(7.927000) can0 247#EC0DFF0900CB3300
(7.929000) can0 247#F20DFF0900CF3300
(7.930000) can0 247#CB0DFF0900D33300
(7.932000) can0 247#F30DFF0900DA3300
(7.934000) can0 247#DA0DFF0900E03300
(7.936000) can0 247#ED0DFF0900E73300
(7.938000) can0 247#E80DFF0900ED3300
(7.940000) can0 247#D80DFF0900F53300
(7.942000) can0 247#CE0DFF0900FD3300
(7.944000) can0 247#D00DFF0900023400
(7.946000) can0 247#CF0DFF0900083400
(7.948000) can0 247#F30DFF09000F3400
(7.951000) can0 247#F50DFF0900133400
(7.953000) can0 247#D20DFF0900173400
(7.955000) can0 247#EA0DFF09001D3400
(7.957000) can0 247#EB0DFF0900213400
(7.959000) can0 247#DF0DFF0900263400
(7.961000) can0 247#D20DFF09002B3400
(7.963000) can0 247#D10DFF0900323400
(7.965000) can0 247#CF0DFF0900383400
(7.967000) can0 247#D50DFF09003C3400
(7.968000) can0 247#C80DFF0900403400
(7.970000) can0 247#E10DFF0900453400
(7.972000) can0 247#D00DFF09004D3400
(7.974000) can0 247#EA0DFF0900513400
(7.976000) can0 247#D90DFF0900553400
(7.979000) can0 247#DB0DFF0900593400
(7.982000) can0 247#DC0DFF09005D3400
(7.983000) can0 247#DD0DFF0900633400
(7.986000) can0 247#E20DFF09006A3400
(7.987000) can0 247#E60DFF09006F3400
(7.989000) can0 247#DB0DFF0900753400
(7.991000) can0 247#DC0DFF09007C3400
(7.993000) can0 247#CB0DFF0900843400
(7.995000) can0 247#D00DFF0900883400
(7.997000) can0 247#CB0DFF09008F3400
(7.999000) can0 247#EB0DFF0900943400
(8.001000) can0 247#CF0DFF0900993400
(8.003000) can0 247#D70DFF09009D3400
(8.005000) can0 247#DD0DFF0900A33400
(8.009000) can0 247#EE0DFF0900A83400
(8.016000) can0 247#E60DFF0900AF3400
(8.016000) can0 3FD#0000003C20400580
(8.036000) can0 247#EA0DFF0900B53400
(8.040000) can0 247#F00DFF0900BA3400
(8.046000) can0 247#CB0DFF0900C13400
(8.052000) can0 247#DF0DFF0900C73400
(8.058000) can0 247#DF0DFF0900CB3400
(8.062000) can0 247#E20DFF0900CF3400
(8.062000) can0 3FD#0100020000080280
(8.067000) can0 247#F60DFF0900D53400
(8.068000) can0 247#CE0DFF0900DD3400
(8.070000) can0 247#DD0DFF0900E43400
(8.072000) can0 247#C80DFF0900E93400
(8.076000) can0 247#E20DFF0900F03400
(8.080000) can0 247#E20DFF0900F73400
(8.084000) can0 247#D40DFF0900FC3400
(8.089000) can0 247#E70DFF0900043500
(8.093000) can0 247#ED0DFF09000B3500
(8.097000) can0 247#E80DFF0900103500
(8.099000) can0 247#E50DFF0900153500
(8.101000) can0 247#D70DFF09001A3500
(8.103000) can0 247#CA0DFF0900203500
(8.105000) can0 247#F50DFF0900273500
(8.107000) can0 247#E30DFF09002B3500
(8.109000) can0 247#CD0DFF09002F3500
(8.111000) can0 247#F30DFF0900363500
(8.111000) can0 3FD#0200540000000090
(8.115000) can0 247#D10DFF09003E3500
(8.117000) can0 247#E50DFF0900443500
(8.119000) can0 247#E30DFF0900493500
(8.121000) can0 247#D70DFF0900503500
(8.123000) can0 247#E10DFF0900583500
(8.125000) can0 247#F60DFF09005F3500
(8.127000) can0 247#F70DFF0900643500
(8.129000) can0 247#E10DFF0900693500
(8.131000) can0 247#E50DFF09006D3500
(8.133000) can0 247#CF0DFF0900713500
(8.135000) can0 247#EB0DFF0900753500
(8.137000) can0 247#D70DFF09007D3500
(8.139000) can0 247#DF0DFF0900843500
(8.141000) can0 247#F40DFF0900893500
(8.143000) can0 247#F00DFF09008D3500
(8.145000) can0 247#ED0DFF0900943500
(8.147000) can0 247#CC0DFF09009A3500
(8.149000) can0 247#D90DFF0900A13500
(8.152000) can0 247#F00DFF0900A63500
(8.154000) can0 247#D80DFF0900AE3500
(8.155000) can0 247#E00DFF0900B33500
(8.157000) can0 247#CA0DFF0900B83500
(8.164000) can0 247#D90DFF0900BD3500
(8.166000) can0 247#EF0DFF0900C33500
(8.168000) can0 247#D60DFF0900C73500
(8.169000) can0 247#CE0DFF0900CF3500
(8.171000) can0 247#F20DFF0900D43500
(8.179000) can0 247#C80DFF0900D83500
(8.181000) can0 247#D80DFF0900E03500
(8.183000) can0 247#DB0DFF0900E73500
(8.185000) can0 247#DE0DFF0900EB3500
(8.186000) can0 247#F10DFF0900F03500
(8.189000) can0 247#E70DFF0900F43500
(8.191000) can0 247#DD0DFF0900FA3500
(8.193000) can0 247#C80DFF0900FE3500
(8.195000) can0 247#DC0DFF0900063600
(8.197000) can0 247#CA0DFF09000D3600
(8.199000) can0 247#DD0DFF0900143600
(8.201000) can0 247#EA0DFF09001B3600
(8.203000) can0 247#E80DFF0900233600
(8.205000) can0 247#F50DFF09002A3600
(8.207000) can0 247#D40DFF09002E3600
(8.209000) can0 247#EB0DFF0900333600
(8.211000) can0 247#E10DFF09003A3600
(8.217000) can0 247#E90DFF0900423600
(8.219000) can0 247#E00DFF0900493600
(8.221000) can0 247#DB0DFF0900513600
(8.223000) can0 247#E80DFF0900593600
(8.225000) can0 247#D20DFF09005F3600
(8.227000) can0 247#D30DFF0900663600
(8.229000) can0 247#D50DFF09006E3600
(8.231000) can0 247#F30DFF0900733600
(8.233000) can0 247#DB0DFF09007A3600
(8.235000) can0 247#DA0DFF09007E3600
(8.237000) can0 247#DC0DFF0900833600
(8.240000) can0 247#EE0DFF0900883600
(8.241000) can0 247#C80DFF0900903600
(8.243000) can0 247#EA0DFF0900983600
(8.245000) can0 247#DB0DFF09009D3600
(8.247000) can0 247#F00DFF0900A53600
(8.250000) can0 247#CD0DFF0900AD3600
(8.252000) can0 247#CA0DFF0900B13600
(8.254000) can0 247#E20DFF0900B73600
(8.255000) can0 247#E60DFF0900BE3600
(8.257000) can0 247#D60DFF0900C53600
(8.263000) can0 247#D70DFF0900C93600
(8.265000) can0 247#F50DFF0900D03600
(8.271000) can0 247#E40DFF0900D73600
(8.283000) can0 247#F50DFF0900DF3600
(8.293000) can0 247#EC0DFF0900E43600
(8.299000) can0 247#D50DFF0900EA3600
(8.304000) can0 247#F00DFF0900F13600
(8.305000) can0 247#F10DFF0900F73600
(8.307000) can0 247#C90DFF0900FB3600
(8.314000) can0 247#E30DFF0900FF3600
(8.320000) can0 247#E50DFF0900043700
(8.324000) can0 247#EA0DFF09000B3700
(8.328000) can0 247#CA0DFF0900103700
(8.330000) can0 247#F70DFF0900173700
(8.331000) can0 247#EF0DFF09001F3700
(8.333000) can0 247#D70DFF0900233700
(8.335000) can0 247#D30DFF0900293700
(8.337000) can0 247#DC0DFF0900303700
(8.341000) can0 247#D30DFF0900373700
(8.347000) can0 247#E20DFF09003F3700
(8.351000) can0 247#DF0DFF0900433700
(8.358000) can0 247#E80DFF0900483700
(8.360000) can0 247#F70DFF09004C3700
(8.363000) can0 247#EF0DFF0900533700
(8.365000) can0 247#D10DFF0900573700
(8.366000) can0 247#F40DFF09005F3700
(8.368000) can0 247#EF0DFF0900663700
(8.370000) can0 247#CC0DFF09006B3700
(8.372000) can0 247#CC0DFF0900713700
(8.374000) can0 247#EB0DFF0900793700
(8.376000) can0 247#F70DFF09007D3700
(8.378000) can0 247#EB0DFF0900813700
(8.381000) can0 247#CE0DFF0900853700
(8.383000) can0 247#DC0DFF09008C3700
(8.385000) can0 247#DD0DFF0900923700
(8.387000) can0 247#D50DFF0900983700
(8.388000) can0 247#F20DFF09009C3700
(8.391000) can0 247#D70DFF0900A23700
(8.393000) can0 247#EB0DFF0900A63700
(8.395000) can0 247#C80DFF0900AA3700
(8.397000) can0 247#EA0DFF0900AF3700
(8.399000) can0 247#D20DFF0900B43700
(8.401000) can0 247#EE0DFF0900BC3700
(8.402000) can0 247#EF0DFF0900C33700
(8.404000) can0 247#CF0DFF0900CB3700
(8.407000) can0 247#E90DFF0900D13700
(8.409000) can0 247#E10DFF0900D83700
(8.411000) can0 247#D20DFF0900E03700
(8.413000) can0 247#D50DFF0900E43700
(8.415000) can0 247#E70DFF0900EB3700
(8.417000) can0 247#F70DFF0900F33700
(8.419000) can0 247#DF0DFF0900F83700
(8.425000) can0 247#D70DFF0900FF3700
(8.427000) can0 247#E90DFF0900073800
(8.429000) can0 247#CC0DFF09000C3800
(8.431000) can0 247#C80DFF0900143800
(8.433000) can0 247#F40DFF09001B3800
(8.435000) can0 247#EE0DFF0900233800
(8.437000) can0 247#CE0DFF09002B3800
(8.440000) can0 247#D60DFF0900313800
(8.442000) can0 247#E70DFF0900363800
(8.444000) can0 247#DB0DFF09003A3800
(8.445000) can0 247#DB0DFF0900413800
(8.447000) can0 247#CB0DFF0900483800
(8.449000) can0 247#ED0DFF09004D3800
(8.451000) can0 247#DF0DFF0900553800
(8.454000) can0 247#F70DFF0900593800
(8.456000) can0 247#DE0DFF0900613800
(8.458000) can0 247#E20DFF0900693800
(8.460000) can0 247#E90DFF0900713800
(8.462000) can0 247#CA0DFF0900763800
(8.463000) can0 247#EC0DFF09007B3800
(8.465000) can0 247#CA0DFF0900813800
(8.468000) can0 247#CC0DFF0900883800
(8.470000) can0 247#DC0DFF0900903800
(8.472000) can0 247#D60DFF0900963800
(8.474000) can0 247#C80DFF09009B3800
(8.476000) can0 247#D60DFF0900A33800
(8.478000) can0 247#CA0DFF0900AB3800
(8.480000) can0 247#CE0DFF0900B13800
(8.484000) can0 247#E20DFF0900B73800
(8.488000) can0 247#E70DFF0900BD3800
(8.494000) can0 247#CC0DFF0900C13800
(8.498000) can0 247#F10DFF0900C53800
(8.502000) can0 247#DA0DFF0900CC3800
(8.504000) can0 247#EC0DFF0900D43800
(8.505000) can0 247#F30DFF0900DB3800
(8.509000) can0 247#F10DFF0900E03800
(8.511000) can0 247#F60DFF0900E63800
(8.511000) can0 3FD#0000003C20400580
(8.514000) can0 247#F20DFF0900EA3800
(8.516000) can0 247#CF0DFF0900EF3800
(8.518000) can0 247#CB0DFF0900F33800
(8.520000) can0 247#CC0DFF0900F93800
(8.526000) can0 247#D40DFF0900FE3800
(8.529000) can0 247#D50DFF0900053900
(8.538000) can0 247#EE0DFF0900093900
(8.544000) can0 247#DB0DFF0900103900
(8.552000) can0 247#F30DFF0900153900
(8.558000) can0 247#F30DFF09001C3900
(8.564000) can0 247#EB0DFF0900203900
(8.564000) can0 3FD#0100020000080280
(8.568000) can0 247#E70DFF0900283900
(8.569000) can0 247#CF0DFF09002C3900
(8.571000) can0 247#F30DFF0900323900
(8.578000) can0 247#E30DFF0900393900
(8.580000) can0 247#E30DFF0900403900
(8.582000) can0 247#C80DFF0900473900
(8.584000) can0 247#CB0DFF09004E3900
(8.586000) can0 247#D60DFF0900543900
(8.592000) can0 247#F30DFF0900583900
(8.595000) can0 247#CB0DFF0900603900
(8.595000) can0 3FD#0000003C20400580
(8.598000) can0 247#EF0DFF0900673900
(8.600000) can0 247#EA0DFF09006D3900
(8.602000) can0 247#D30DFF0900723900
(8.605000) can0 247#E70DFF0900773900
(8.607000) can0 247#E20DFF09007F3900
(8.608000) can0 247#DC0DFF0900853900
(8.610000) can0 247#D50DFF09008A3900
(8.612000) can0 247#D60DFF0900913900
(8.614000) can0 247#D40DFF0900973900
(8.616000) can0 247#DF0DFF09009F3900
(8.618000) can0 247#D50DFF0900A43900
(8.620000) can0 247#DD0DFF0900AB3900
(8.622000) can0 247#D70DFF0900B23900
(8.624000) can0 247#CA0DFF0900B83900
(8.626000) can0 247#EF0DFF0900BC3900
(8.629000) can0 247#E20DFF0900C43900
(8.631000) can0 247#E10DFF0900CA3900
(8.633000) can0 247#D10DFF0900D03900
(8.634000) can0 247#D70DFF0900D73900
(8.636000) can0 247#F30DFF0900DC3900
(8.638000) can0 247#DE0DFF0900E33900
(8.640000) can0 247#D00DFF0900E83900
(8.642000) can0 247#F40DFF0900EC3900
(8.644000) can0 247#F30DFF0900F13900
(8.646000) can0 247#DB0DFF0900F83900
(8.646000) can0 3FD#0100020000080280
(8.649000) can0 247#DB0DFF0900003A00
(8.651000) can0 247#F50DFF0900083A00
(8.653000) can0 247#F30DFF09000D3A00
(8.662000) can0 247#D30DFF0900133A00
(8.668000) can0 247#EC0DFF0900173A00
(8.671000) can0 247#D40DFF09001D3A00
(8.673000) can0 247#F40DFF0900213A00
(8.675000) can0 247#EB0DFF0900283A00
(8.677000) can0 247#EC0DFF09002C3A00
(8.679000) can0 247#C80DFF0900343A00
(8.681000) can0 247#E30DFF0900383A00
(8.683000) can0 247#E60DFF09003E3A00
(8.685000) can0 247#E90DFF0900463A00
(8.687000) can0 247#F30DFF09004C3A00
(8.688000) can0 247#D40DFF0900523A00
(8.690000) can0 247#E70DFF0900583A00
(8.692000) can0 247#E70DFF09005F3A00
(8.700000) can0 247#D30DFF0900653A00
(8.700000) can0 3FD#0200540000000090
(8.708000) can0 247#E00DFF09006D3A00
(8.713000) can0 247#E50DFF0900713A00
(8.715000) can0 247#CA0DFF0900783A00
(8.717000) can0 247#CD0DFF09007C3A00
(8.719000) can0 247#E30DFF0900843A00
(8.721000) can0 247#DE0DFF09008A3A00
(8.722000) can0 247#F70DFF09008F3A00
(8.729000) can0 247#DB0DFF0900953A00
(8.731000) can0 247#E80DFF0900993A00
(8.733000) can0 247#DA0DFF0900A13A00
(8.735000) can0 247#DE0DFF0900A83A00
(8.737000) can0 247#F30DFF0900AF3A00
(8.741000) can0 247#E00DFF0900B53A00
(8.747000) can0 247#D70DFF0900BB3A00
(8.754000) can0 247#DD0DFF0900C03A00
(8.758000) can0 247#D40DFF0900C53A00
(8.760000) can0 247#DA0DFF0900CA3A00
(8.762000) can0 247#D40DFF0900CE3A00
(8.764000) can0 247#CD0DFF0900D33A00
(8.766000) can0 247#D80DFF0900D93A00
(8.772000) can0 247#D50DFF0900E13A00
(8.774000) can0 247#E90DFF0900E93A00
(8.776000) can0 247#CA0DFF0900EE3A00
(8.784000) can0 247#E10DFF0900F43A00
(8.791000) can0 247#D50DFF0900FB3A00
(8.797000) can0 247#E30DFF0900013B00
(8.805000) can0 247#F30DFF0900053B00
(8.807000) can0 247#DD0DFF09000C3B00
(8.809000) can0 247#E50DFF0900113B00
(8.816000) can0 247#DC0DFF0900183B00
(8.818000) can0 247#CF0DFF09001C3B00
(8.820000) can0 247#E90DFF0900203B00
(8.822000) can0 247#F10DFF0900283B00
(8.823000) can0 247#D50DFF09002F3B00
(8.825000) can0 247#C80DFF0900333B00
(8.827000) can0 247#E40DFF09003B3B00
(8.829000) can0 247#D30DFF0900423B00
(8.831000) can0 247#EB0DFF0900473B00
(8.833000) can0 247#CE0DFF09004B3B00
(8.835000) can0 247#D00DFF0900503B00
(8.838000) can0 247#F60DFF0900553B00
(8.840000) can0 247#E70DFF09005C3B00
(8.842000) can0 247#E00DFF0900603B00
(8.844000) can0 247#F40DFF0900653B00
(8.846000) can0 247#CC0DFF09006A3B00
(8.848000) can0 247#CF0DFF0900723B00
(8.850000) can0 247#E90DFF0900783B00
(8.852000) can0 247#C80DFF0900803B00
(8.854000) can0 247#DC0DFF0900883B00
(8.855000) can0 247#CC0DFF09008D3B00
(8.857000) can0 247#DB0DFF0900933B00
(8.859000) can0 247#DB0DFF0900973B00
(8.861000) can0 247#EA0DFF09009B3B00
(8.863000) can0 247#EB0DFF0900A03B00
(8.866000) can0 247#F30DFF0900A53B00
(8.868000) can0 247#D80DFF0900A93B00
(8.871000) can0 247#C90DFF0900B03B00
(8.873000) can0 247#F20DFF0900B43B00
(8.875000) can0 247#C90DFF0900B83B00
(8.877000) can0 247#CA0DFF0900BF3B00
(8.879000) can0 247#D40DFF0900C43B00
(8.880000) can0 247#EC0DFF0900C83B00
(8.882000) can0 247#DF0DFF0900CC3B00
(8.884000) can0 247#D00DFF0900D33B00
(8.886000) can0 247#DC0DFF0900D83B00
(8.888000) can0 247#DB0DFF0900DC3B00
(8.890000) can0 247#E30DFF0900E03B00
(8.894000) can0 247#E30DFF0900E83B00
(8.900000) can0 247#CF0DFF0900F03B00
(8.904000) can0 247#E60DFF0900F63B00
(8.909000) can0 247#D30DFF0900FD3B00
(8.913000) can0 247#EF0DFF0900053C00
(8.915000) can0 247#E90DFF09000A3C00
(8.917000) can0 247#D90DFF09000F3C00
(8.919000) can0 247#E90DFF0900143C00
(8.921000) can0 247#CA0DFF09001C3C00
(8.922000) can0 247#F30DFF0900203C00
(8.924000) can0 247#CA0DFF0900283C00
(8.926000) can0 247#DC0DFF0900303C00
(8.928000) can0 247#E90DFF0900373C00
(8.930000) can0 247#E80DFF09003E3C00
(8.933000) can0 247#E30DFF0900423C00
(8.935000) can0 247#F10DFF09004A3C00
(8.937000) can0 247#E10DFF0900513C00
(8.939000) can0 247#ED0DFF0900583C00
(8.941000) can0 247#EF0DFF09005D3C00
(8.943000) can0 247#DA0DFF0900653C00
(8.945000) can0 247#F50DFF09006B3C00
(8.947000) can0 247#CA0DFF0900733C00
(8.949000) can0 247#E90DFF0900783C00
(8.951000) can0 247#C80DFF09007C3C00
(8.953000) can0 247#D20DFF0900823C00
(8.955000) can0 247#CE0DFF0900863C00
(8.957000) can0 247#D20DFF09008A3C00
(8.963000) can0 247#DC0DFF0900903C00
(8.966000) can0 247#D70DFF0900973C00
(8.967000) can0 247#EA0DFF09009B3C00
(8.969000) can0 247#EC0DFF0900A03C00
(8.971000) can0 247#CF0DFF0900A73C00
(8.974000) can0 247#D40DFF0900AC3C00
(8.976000) can0 247#F70DFF0900B23C00
(8.978000) can0 247#F00DFF0900B63C00
(8.980000) can0 247#EF0DFF0900BD3C00
(8.982000) can0 247#D70DFF0900C23C00
(8.984000) can0 247#EE0DFF0900C73C00
(8.986000) can0 247#EC0DFF0900CB3C00
(8.992000) can0 247#EE0DFF0900D03C00
(8.994000) can0 247#E00DFF0900D73C00
(8.996000) can0 247#F00DFF0900DB3C00
(8.998000) can0 247#D70DFF0900DF3C00
(9.000000) can0 247#EA0DFF0900E53C00
(9.002000) can0 247#F00DFF0900EC3C00
(9.004000) can0 247#E80DFF0900F03C00
(9.005000) can0 247#C80DFF0900F53C00
(9.010000) can0 247#DC0DFF0900FB3C00
(9.010000) can0 3FD#0000003C20400580
(9.020000) can0 247#DC0DFF0900023D00
(9.025000) can0 247#DE0DFF0900093D00
(9.027000) can0 247#CE0DFF0900103D00
(9.030000) can0 247#F70DFF0900183D00
(9.038000) can0 247#D60DFF09001D3D00
(9.044000) can0 247#DF0DFF0900253D00
(9.048000) can0 247#D30DFF09002D3D00
(9.051000) can0 247#E10DFF0900353D00
(9.053000) can0 247#F60DFF09003B3D00
(9.055000) can0 247#EA0DFF0900403D00
(9.057000) can0 247#E70DFF0900443D00
(9.059000) can0 247#D30DFF0900493D00
(9.061000) can0 247#E20DFF0900513D00
(9.061000) can0 3FD#0100020000080280
(9.065000) can0 247#D30DFF0900593D00
(9.067000) can0 247#E20DFF0900603D00
(9.069000) can0 247#F40DFF0900683D00
(9.071000) can0 247#DA0DFF09006D3D00
(9.073000) can0 247#F50DFF0900723D00
(9.074000) can0 247#EC0DFF0900783D00
(9.076000) can0 247#DA0DFF09007D3D00
(9.080000) can0 247#C80DFF0900833D00
(9.084000) can0 247#CC0DFF0900883D00
(9.088000) can0 247#C80DFF09008F3D00
(9.094000) can0 247#F40DFF0900953D00
(9.099000) can0 247#D30DFF09009B3D00
(9.101000) can0 247#EA0DFF0900A23D00
(9.103000) can0 247#CC0DFF0900A83D00
(9.105000) can0 247#CA0DFF0900B03D00
(9.107000) can0 247#E70DFF0900B63D00
(9.109000) can0 247#E00DFF0900BB3D00
(9.109000) can0 3FD#0200540000000090
(9.116000) can0 247#DB0DFF0900C13D00
(9.118000) can0 247#ED0DFF0900C73D00
(9.120000) can0 247#DC0DFF0900CE3D00
(9.122000) can0 247#D40DFF0900D63D00
(9.124000) can0 247#DE0DFF0900DD3D00
(9.126000) can0 247#F50DFF0900E23D00
(9.128000) can0 247#F50DFF0900E83D00
(9.130000) can0 247#ED0DFF0900F03D00
(9.132000) can0 247#E20DFF0900F43D00
(9.134000) can0 247#DC0DFF0900F93D00
(9.136000) can0 247#CE0DFF0900013E00
(9.139000) can0 247#E70DFF0900093E00
(9.141000) can0 247#DD0DFF09000E3E00
(9.143000) can0 247#DD0DFF0900123E00
(9.145000) can0 247#F20DFF0900183E00
(9.147000) can0 247#D40DFF09001C3E00
(9.149000) can0 247#CF0DFF0900213E00
(9.151000) can0 247#EE0DFF0900263E00
(9.153000) can0 247#F10DFF09002B3E00
(9.155000) can0 247#E50DFF0900323E00
(9.157000) can0 247#E60DFF0900383E00
(9.159000) can0 247#CD0DFF09003D3E00
(9.161000) can0 247#CD0DFF0900443E00
(9.165000) can0 247#DF0DFF0900493E00
(9.166000) can0 247#F70DFF09004F3E00
(9.169000) can0 247#E40DFF0900543E00
(9.171000) can0 247#DB0DFF0900593E00
(9.173000) can0 247#CA0DFF0900613E00
(9.175000) can0 247#EE0DFF0900653E00
(9.177000) can0 247#CF0DFF09006D3E00
(9.179000) can0 247#CD0DFF0900733E00
(9.181000) can0 247#D30DFF0900793E00
(9.183000) can0 247#ED0DFF09007E3E00
(9.185000) can0 247#CF0DFF0900823E00
(9.187000) can0 247#EC0DFF0900883E00
(9.189000) can0 247#DC0DFF09008F3E00
(9.191000) can0 247#ED0DFF0900953E00
(9.193000) can0 247#F10DFF0900993E00
(9.195000) can0 247#E20DFF0900A13E00
(9.197000) can0 247#CB0DFF0900A73E00
(9.199000) can0 247#D00DFF0900AE3E00
(9.201000) can0 247#F40DFF0900B63E00
(9.203000) can0 247#CA0DFF0900BB3E00
(9.205000) can0 247#EA0DFF0900BF3E00
(9.208000) can0 247#EB0DFF0900C33E00
(9.209000) can0 247#E90DFF0900C83E00
(9.216000) can0 247#D30DFF0900CE3E00
