(0.000000) can0 2E5#000010320000DD00
(0.003000) can0 1A5#00101F481D
(0.007000) can0 283#000000004000
(0.009000) can0 39A#2013EF7A0B2FEB7E
(0.011000) can0 201#0300000000000000
(0.013000) can0 677#0400000000000000
(0.015000) can0 1E5#286C0400000040BE
(0.017000) can0 129#9F2CE75F0120FF3F
(0.020000) can0 399#000000
(0.022000) can0 6A2#0000000000
(0.022000) can0 227#0000000053000080
(0.023000) can0 22B#FFFFFF3F00FEFFFF
(0.024000) can0 132#0C90B1FF9F3F
(0.024000) can0 289#CA0C0683A1003D0F
(0.025000) can0 221#610555550107C0FB
(0.027000) can0 381#EFFFFFCD0300A609
(0.030000) can0 3F9#0100000000000000
(0.032000) can0 281#0000FF1F0000
(0.032000) can0 1E5#286C04000000007E
(0.035000) can0 263#89E6D1A7B74F5F1F
(0.035000) can0 2A8#01010000060040F2
(0.038000) can0 552#0000000000003087
(0.040000) can0 1D5#290000000000A09F
(0.042000) can0 3A2#72A7FFFF04000000
(0.044000) can0 118#956B950000C8B400
(0.046000) can0 1D6#02080000CA7FF707
(0.048000) can0 401#182A319611961096
(0.050000) can0 2C1#216B186402000000
(0.052000) can0 2C2#5523AA0680C112AA
(0.056000) can0 186#FD0A0002002A1B25
(0.056000) can0 343#009260EE95000000
(0.057000) can0 439#0000000000185A04
(0.058000) can0 727#0300
(0.058000) can0 207#0000000000000000
(0.059000) can0 201#0104980000000000
(0.060000) can0 2E2#01000025020B0000
(0.061000) can0 284#300000004008100E
(0.061000) can0 381#300000C000000000
(0.062000) can0 1D8#291A00000000E0FC
(0.063000) can0 1E5#286C0400000060DE
(0.064000) can0 257#EE1F635702883101
(0.064000) can0 401#192A139615961796
(0.065000) can0 2E1#1021040010000004
(0.067000) can0 1FA#1AC001
(0.067000) can0 3AE#04400008000071BE
(0.070000) can0 2C1#0219160000D09201
(0.072000) can0 383#A7181E00CD80E20B
(0.072000) can0 1E5#286C04000000007E
(0.075000) can0 118#B86E950000C8D400
(0.075000) can0 221#605555155451D1B8
(0.076000) can0 54F#0000000000000000
(0.079000) can0 423#00001000000000
(0.081000) can0 211#BC18710F1001
(0.081000) can0 224#0408004019011008
(0.082000) can0 1D8#291A00000000203C
(0.083000) can0 1E5#286C04000000209E
(0.083000) can0 243#04FC73F1657CFFFF
(0.084000) can0 257#DF10635702883101
(0.086000) can0 129#9223E65FFE1FFF3F
(0.086000) can0 37A#D10C000000000000
(0.087000) can0 22B#FFFFFF3F00FCFFFF
(0.088000) can0 2EC#570045
(0.089000) can0 261#B2291A02805C02CB
(0.089000) can0 2C1#531A900000000000
(0.092000) can0 3A1#C1FFFF353D00D0C1
(0.092000) can0 1E5#286C0400000040BE
(0.093000) can0 359#0A00000000000000
(0.094000) can0 132#1590B2FFA13F
(0.094000) can0 45A#FD07F8FF0300450E
(0.095000) can0 212#5904000081FF7731
(0.096000) can0 2D2#F02EB24E8813E822
(0.097000) can0 782#48D600CD59385E07
(0.098000) can0 381#1100000000000000
(0.099000) can0 1D5#290000000000605F
(0.102000) can0 272#080003D107B00304
(0.102000) can0 118#6B61950000C89400
(0.103000) can0 257#E011635702883101
(0.104000) can0 132#1490B3FFA83F
(0.104000) can0 228#0106184C00605146
(0.105000) can0 283#000000004000
(0.108000) can0 3A2#0110200000000000
(0.108000) can0 282#943CF20814040324
(0.109000) can0 1D5#290000000000807F
(0.110000) can0 3C2#0055555500006A05
(0.110000) can0 285#61018E0308002E00
(0.111000) can0 3C0#0000000000000000
(0.113000) can0 1D8#291A00000000809C
(0.114000) can0 263#700ED29FA74F5F1F
(0.114000) can0 118#6C62950000C89400
(0.115000) can0 719#140000000000B500
(0.118000) can0 103#22B38804A2F02032
(0.118000) can0 75D#068F000000000000
(0.119000) can0 1D5#290000000000A09F
(0.120000) can0 25D#3741012A04F08803
(0.120000) can0 261#9401B04B004024EA
(0.121000) can0 2F9#BCFB072800000000
(0.122000) can0 1D8#291A00000000A0BC
(0.123000) can0 227#0000000053000080
(0.123000) can0 123#01000000003F0000
(0.124000) can0 257#E112635702883101
(0.126000) can0 129#2527E55FFD1FFF3F
(0.129000) can0 288#0106184C0060A1F6
(0.129000) can0 1D5#290000000000C0BF
(0.130000) can0 4E2#0600000000000000
(0.133000) can0 2E5#000010320000DD00
(0.133000) can0 263#89E6D1A7B74F5F1F
(0.134000) can0 201#006F6D0000E4FF00
(0.135000) can0 129#5F28E55FFC1FFF3F
(0.135000) can0 339#02F1FE008007800F
(0.136000) can0 552#0000000000004097
(0.139000) can0 22B#FFFFFF7F00FCFFFF
(0.139000) can0 3A2#62A7FFFF04000000
(0.142000) can0 3A1#884C0FCA0014E263
(0.143000) can0 118#3F65950000C86400
(0.144000) can0 126#09403854FC
(0.144000) can0 243#02FCBB0D05D90000
(0.145000) can0 279#41BAFC01C4056502
(0.146000) can0 395#091211610902037D
(0.147000) can0 422#700010000000
(0.147000) can0 545#010000000010F04B
(0.150000) can0 2C1#216B186402000000
(0.150000) can0 2C2#2040404B010080CB
(0.153000) can0 2E5#000010320000DD00
(0.153000) can0 195#000000000A002706
(0.154000) can0 113#019701
(0.155000) can0 261#00100200FF4F4096
(0.155000) can0 7F4#01
(0.156000) can0 266#03000E310D005301
(0.158000) can0 340#0200000000000000
(0.158000) can0 441#3D8589003200381E
(0.159000) can0 7D5#3200000000000000
(0.160000) can0 313#02646405000010F5
(0.161000) can0 319#20000000FFFFFFFF
(0.161000) can0 3A8#FCE07FB1FC0F0000
(0.162000) can0 2E1#1021040010000004
(0.163000) can0 2E5#000010320000DD00
(0.164000) can0 1E5#286C04000000209E
(0.164000) can0 132#1190B8FF9D3F
(0.165000) can0 320#0300000000000000
(0.166000) can0 3DB#0400001705000000
(0.167000) can0 39D#FA52E12700
(0.167000) can0 757#2C003E0000000000
(0.169000) can0 23E#00003AC002FF7FBA
(0.169000) can0 381#130000000020FCFF
(0.172000) can0 310#14050000AC625233
(0.172000) can0 1E5#286C0400000040BE
(0.175000) can0 263#0300000000000000
(0.175000) can0 221#605555155451F1D8
(0.176000) can0 54F#0000000000000000
(0.177000) can0 2E1#398D2AFF0F000000
(0.177000) can0 545#020002000000004E
(0.180000) can0 1D5#290000000000605F
(0.180000) can0 2C4#0400000000C0B84E
(0.181000) can0 264#3E000000A000
(0.182000) can0 3E8#0000000000000000
(0.182000) can0 1E5#286C0400000060DE
(0.184000) can0 257#E415635702883101
(0.185000) can0 2E5#000010320000DD00
(0.185000) can0 364#3C823402
(0.186000) can0 3F5#0000C838820C0000
(0.189000) can0 22B#FFFFFF7F00FCFFFF
(0.191000) can0 3A1#C1FFFF2B3D00F0D7
(0.191000) can0 2E3#A0000029020B00
(0.192000) can0 1D8#291800000000809A
(0.193000) can0 3AE#024000080000C00B
(0.193000) can0 263#04000000901C0000
(0.194000) can0 359#8C3F000002000002
(0.195000) can0 129#512EE55FFF1FFF3F
(0.196000) can0 292#487E082593010000
(0.196000) can0 392#0111A467000A0300
(0.198000) can0 712#0500000000000000
(0.199000) can0 1D5#290000000000A09F
(0.202000) can0 261#8B4C0A000040758C
(0.202000) can0 118#856B950000C8A400
(0.203000) can0 257#ED16635702903101
(0.204000) can0 132#0490BBFFAB3F
(0.204000) can0 381#54104006000000FE
(0.205000) can0 283#000000004000
(0.206000) can0 39D#FB53E12700
(0.207000) can0 441#E100B6C358003D58
(0.207000) can0 421#021A0000002000
(0.208000) can0 234#2EE103804300F464
(0.209000) can0 201#0300000000000000
(0.210000) can0 2C1#0400000000000000
(0.210000) can0 3C2#0055555500006A05
(0.212000) can0 443#7A0FFF030000
(0.213000) can0 1E5#286C0400000040BE
(0.213000) can0 677#0400000000000000
(0.214000) can0 118#466C950000C86400
(0.215000) can0 129#4520E55FFF1FFF3F
(0.218000) can0 261#9401A84B00408442
(0.220000) can0 21D#0400B50000000000
(0.220000) can0 448#20001010000010
(0.221000) can0 2F9#BCFB07030D1A8B84
(0.222000) can0 2E5#000010320000DD00
(0.222000) can0 118#B76D950000C8D400
(0.223000) can0 266#03000E310D005301
(0.224000) can0 232#8A008F0EC6040000
(0.225000) can0 289#CA0C060388003D0F
(0.226000) can0 249#2A020000
(0.227000) can0 288#0106184C0060B106
(0.230000) can0 3F9#0300000000000008
(0.232000) can0 281#0000FF1F0000
(0.232000) can0 1E5#286C04000000007E
(0.233000) can0 261#0522CBC99A42901D
(0.234000) can0 132#1A90BBFFA03F
(0.234000) can0 266#03000E310D005301
(0.235000) can0 2A8#0101000006006012
(0.236000) can0 393#080002C107B00304
(0.239000) can0 20E#140400
(0.241000) can0 2E1#65800800A64E316A
(0.243000) can0 20C#0098371C1E01000E
(0.245000) can0 266#03000E310D005301
(0.248000) can0 268#1E0EA101FF
(0.250000) can0 23E#00003AC002FF9FDA
(0.252000) can0 2C2#5523AA0680C112AA
(0.257000) can0 7FF#0800000100000000
(0.259000) can0 2E1#1021040010000004
(0.261000) can0 1D5#290000000000605F
(0.263000) can0 2E5#000010320000DD00
(0.265000) can0 1E5#286C0400000060DE
(0.267000) can0 261#3140CDFF9349BAC9
(0.269000) can0 2C1#0219160000D09201
(0.272000) can0 3AA#0000000000000000
(0.273000) can0 682#000000400411E015
(0.274000) can0 118#1C62950000C84400
(0.274000) can0 129#4726E55FFF1FFF3F
(0.277000) can0 229#490C00
(0.279000) can0 423#00001000000000
(0.281000) can0 211#BE1A710F1001
(0.283000) can0 261#B2291A02805CC28B
(0.285000) can0 266#03000E310D005201
(0.287000) can0 372#0C0000FF0F000000
(0.289000) can0 22B#FFFFFF7F00FCFFFF
(0.291000) can0 1D5#290000000000C0BF
(0.293000) can0 2E5#000010320000DD00
(0.294000) can0 118#FE64950000C82400
(0.295000) can0 122#01000000003F0000
(0.296000) can0 292#487E082593010000
(0.296000) can0 352#010013017A06BE03
(0.297000) can0 261#8B4C0A000040D5EC
(0.299000) can0 400#00E0FBBEEFFB00
(0.299000) can0 225#5555FA00
(0.302000) can0 272#080002D107B00304
(0.302000) can0 118#5F65950000C88400
(0.303000) can0 266#03000E310D005201
(0.304000) can0 132#0A90C1FFB13F
(0.304000) can0 3A2#0110200000000000
(0.305000) can0 283#000000004000
(0.308000) can0 441#E100B6C358000520
(0.308000) can0 282#8C3CF20818040324
(0.309000) can0 1D5#29000000000000FF
(0.310000) can0 361#2C0E190200
(0.310000) can0 473#0000030000000000
(0.311000) can0 3B3#8C8004300100A800
(0.312000) can0 3C0#0200000000000000
(0.313000) can0 2E5#000010320000DD00
(0.314000) can0 266#02000E310D005201
(0.315000) can0 719#0003140F14070E00
(0.316000) can0 7AA#32080DFA7D082100
(0.319000) can0 103#22B38804A2F02032
(0.319000) can0 788#0240C50700030000
(0.320000) can0 25D#3741012A04F08803
(0.321000) can0 2E1#0400000000202600
(0.321000) can0 2E5#000010320000DD00
(0.322000) can0 118#4167950000C86400
(0.323000) can0 247#770EFF0000000000
(0.324000) can0 132#1C90C5FFC93F
(0.324000) can0 289#CA0C06C385003D0F
(0.325000) can0 249#D3040000
(0.329000) can0 288#0106184C0060C116
(0.329000) can0 1D5#290000000000403F
(0.330000) can0 4E2#013B0E0100002800
(0.331000) can0 281#0000FF1F0000
(0.331000) can0 2E5#000010320000DD00
(0.332000) can0 1E5#286C0400000040BE
(0.335000) can0 263#89E6D1A7B74F5F1F
(0.335000) can0 2A8#0101000006007022
(0.338000) can0 552#00000000000060B7
(0.340000) can0 1D5#290000000000605F
(0.342000) can0 3A1#884C0FCA001422A3
(0.342000) can0 1F9#0000000000000000
(0.343000) can0 266#02000E310D005201
(0.344000) can0 3AE#024000080000014C
(0.345000) can0 1D6#02080000CA7FF707
(0.346000) can0 279#43BCFC01C4056502
(0.347000) can0 397#032000861CFE0700
(0.348000) can0 45A#A4C0BFC05F2B4837
(0.350000) can0 2C1#216B186402000000
(0.350000) can0 2C2#2040404B010080CB
(0.353000) can0 2E5#000010320000DD00
(0.353000) can0 420#2801404B00000006
(0.354000) can0 1E5#286C04000000007E
(0.355000) can0 263#0200C0860D363621
(0.355000) can0 266#02000E310D005301
(0.356000) can0 340#0400000000000000
(0.357000) can0 7D5#2B773F0000000000
(0.358000) can0 207#0000000000000000
(0.359000) can0 7D5#3200000000000000
(0.360000) can0 3FD#0000003C20000180
(0.362000) can0 3C3#5555550100000000
(0.363000) can0 118#E56B950000C80400
(0.363000) can0 257#052E635702903101
(0.364000) can0 241#7474141D1D4500
(0.365000) can0 129#F92FE45FFE1FFF3F
(0.366000) can0 553#000000000000F048
(0.366000) can0 39D#FF57E12700
(0.369000) can0 23E#00003AC002FFCF0A
(0.369000) can0 2E1#398D2AFF0F000000
(0.372000) can0 78A#0100000020130E0D
(0.372000) can0 1E5#286C0400000040BE
(0.375000) can0 263#0300000000000000
(0.376000) can0 229#2F0D00
(0.377000) can0 261#B2291A02805C22EB
(0.377000) can0 25B#D38000056A868023
(0.378000) can0 3AE#014000080000206A
(0.379000) can0 1D5#290000000000E0DF
(0.380000) can0 211#BF1B710F1001
(0.380000) can0 204#010000FF00000010
(0.381000) can0 264#3E000000A000
(0.382000) can0 1D8#291000000000E0F2
(0.383000) can0 2E5#000010320000DD00
(0.383000) can0 257#062F635702903101
(0.384000) can0 243#04FC73F1657CFFFF
(0.385000) can0 129#4121E35FFD1FFF3F
(0.386000) can0 3F5#0000C838820C0000
(0.387000) can0 37A#C00D000000000000
(0.388000) can0 2EC#573075
(0.389000) can0 2C1#531A900000000000
(0.391000) can0 3A1#C1FFFF293D003015
(0.391000) can0 2E3#01000023020B00
(0.392000) can0 1D8#290E000000000010
(0.393000) can0 261#8B4C0A000040354C
(0.393000) can0 118#686E950000C88400
(0.394000) can0 263#04000000901C0000
(0.395000) can0 129#0822E35FFD1FFF3F
(0.396000) can0 292#487E082593010000
(0.396000) can0 3B2#31FF7F2615515B2D
(0.399000) can0 400#00E0FBBEEFFB00
(0.399000) can0 225#5555FA00
(0.402000) can0 2E1#FB1F9159978A0900
(0.403000) can0 1D8#290E000000002030
(0.404000) can0 266#01000E310D005301
(0.405000) can0 132#2090D1FFE53F
(0.405000) can0 228#0106184C00608176
(0.406000) can0 283#000000004000
(0.407000) can0 441#E200B6C358000D29
(0.407000) can0 421#021A0000002000
(0.408000) can0 234#2EE10380430034A4
(0.409000) can0 1D5#290000000000403F
(0.410000) can0 261#9401A84B00404402
(0.410000) can0 3FD#01000A0000080280
(0.412000) can0 3C2#0055555500006A05
(0.413000) can0 718#00000000000000
(0.414000) can0 118#AA60950000C8D400
(0.416000) can0 737#01000000E0F080
(0.418000) can0 2E1#0400000000202600
(0.418000) can0 31E#0100000000000000
(0.419000) can0 1D5#290000000000605F
(0.420000) can0 25D#3741012A04F08803
(0.420000) can0 381#1A00000000000000
(0.421000) can0 2F9#BCFB07100D1A8B84
(0.422000) can0 1D8#290E000000006070
(0.423000) can0 227#0000000053000080
(0.423000) can0 123#00001392D2000000
(0.424000) can0 257#F821635702903101
(0.425000) can0 129#5625E35FFE1FFF3F
(0.426000) can0 261#0522CBC99A4250DD
(0.429000) can0 288#0106184C0060D126
(0.430000) can0 3A3#12C00000380DFC01
(0.431000) can0 31F#794D7E4B7E4B7E4A
(0.432000) can0 2E5#000010320000DD00
(0.432000) can0 1E5#286C04000000007E
(0.435000) can0 263#89E6D1A7B74F5F1F
(0.435000) can0 2A8#0101000006008032
(0.438000) can0 552#00000000000070C7
(0.440000) can0 1D5#290000000000A09F
(0.442000) can0 261#00100000FF4F60B4
(0.444000) can0 1D8#290E00000000A0B0
(0.446000) can0 257#F922635702903101
(0.448000) can0 279#44BDFC01C4056502
(0.450000) can0 2C1#216B186402000000
(0.452000) can0 2C2#5523AA0680C112AA
(0.456000) can0 1D8#290E00000000C0D0
(0.457000) can0 7D5#2B713F0000000000
(0.457000) can0 207#0000000000000000
(0.458000) can0 261#3140BCFF8F497A74
(0.459000) can0 7D5#3200000000000000
(0.460000) can0 201#0104980000000000
(0.460000) can0 3C3#0000000000A50000
(0.461000) can0 3FD#0200580000000090
(0.463000) can0 1D8#290E00000000E0F0
(0.464000) can0 243#0300008029462600
(0.465000) can0 257#FA23635702903101
(0.465000) can0 2E1#398D2AFF0F000000
(0.466000) can0 1FA#1AC001
(0.469000) can0 2C1#0219160000D09201
(0.470000) can0 78A#01000100B85C845D
(0.473000) can0 383#A7181E00CD80E20B
(0.473000) can0 118#6066950000C88400
(0.474000) can0 263#0300000000000000
(0.475000) can0 129#6B2AE35FFF1FFF3F
(0.475000) can0 249#5E070000
(0.476000) can0 7AA#04000FC000260000
(0.479000) can0 423#00001000000000
(0.481000) can0 2C4#6708C290810C0307
(0.481000) can0 224#0408004019011008
(0.482000) can0 1D8#290C00000000202E
(0.483000) can0 266#02000E310D005201
(0.483000) can0 243#04FC73F1657CFFFF
(0.484000) can0 2C3#0000C04B010040CB
(0.486000) can0 129#9A2BE35FFF1FFF3F
(0.487000) can0 39D#025AE12700
(0.487000) can0 102#22B3480494FAA009
(0.488000) can0 2EC#574085
(0.489000) can0 261#8B4C0A00004095AC
(0.489000) can0 2C1#531A900000000000
(0.492000) can0 3A1#C1FFFF1F3D00502B
(0.492000) can0 1E5#286C0400000040BE
(0.493000) can0 381#C104001095949400
(0.494000) can0 118#C268950000C8E400
(0.494000) can0 122#01000000003F0000
(0.495000) can0 252#B34B377D00FC0F00
(0.496000) can0 2F2#1201
(0.497000) can0 2D1#FF01
(0.499000) can0 400#00E0FBBEEFFB00
(0.500000) can0 225#5555FA00
(0.506000) can0 272#080002D107B00304
(0.510000) can0 441#E100B6C358001530
(0.512000) can0 61D#04BB7A1C8A29010C
(0.514000) can0 2E8#010100000600B0A2
(0.516000) can0 129#372EE35FFF1FFF3F
(0.518000) can0 103#22B38804A2F02032
(0.520000) can0 75D#0100000000000080
(0.522000) can0 448#20001010000010
(0.525000) can0 118#256B950000C84400
(0.528000) can0 288#0106184C0060E136
(0.528000) can0 3F9#0600000000000000
(0.529000) can0 39D#035BE12700
(0.530000) can0 381#22A2F027F1200400
(0.531000) can0 4E2#03B0010000002800
(0.532000) can0 2E5#000010320000DD00
(0.535000) can0 118#956C950000C8B4FF
(0.535000) can0 2A8#0101000006009042
(0.536000) can0 3A2#62A7FFFF04000000
(0.537000) can0 261#00100000FF4FC014
(0.540000) can0 6A1#0000000000
(0.540000) can0 407#1207000000000000
(0.541000) can0 3A1#884C0FCA001462E3
(0.542000) can0 2E5#000010320000DD00
(0.542000) can0 3AE#01400008000071BB
(0.543000) can0 22B#FFFFFF3F00F8FFFF
(0.544000) can0 132#1A90CEFFDD3F
(0.545000) can0 126#074038741A
(0.546000) can0 1D6#02080000CA7FF707
(0.547000) can0 397#130000861C000000
(0.548000) can0 22B#FFFFFF3F00F0FFFF
(0.548000) can0 7AA#0522880C50081600
(0.549000) can0 119#00000000
(0.552000) can0 2C2#2040404B010080CB
(0.552000) can0 1D8#290C00000000000E
(0.553000) can0 195#000000000A002706
(0.554000) can0 420#2801404B00000007
(0.554000) can0 118#586E950000C87400
(0.555000) can0 266#01000E310D005201
(0.556000) can0 129#7D22E35FFF1FFF3F
(0.557000) can0 207#0000000000000000
(0.557000) can0 439#0000000000185A04
(0.559000) can0 7D5#3200000000000000
(0.560000) can0 284#300000004008201E
(0.560000) can0 323#3B141E0204
(0.561000) can0 3C3#5555550100000000
(0.562000) can0 2E1#398D2AFF0F000000
(0.563000) can0 1D8#290C00000000202E
(0.563000) can0 257#0028635802903101
(0.564000) can0 241#7574541D1D4500
(0.565000) can0 372#001F002882110C24
(0.566000) can0 401#002A299628962696
(0.566000) can0 39D#045CE12700
(0.567000) can0 1FA#1AC001
(0.568000) can0 23E#00003AC002FF1F5A
(0.569000) can0 3AE#01400008000080CA
(0.569000) can0 2C1#0219160000D09201
(0.571000) can0 677#0300000000000000
(0.572000) can0 2E5#000010320000DD00
(0.572000) can0 1E5#286C0400000040BE
(0.573000) can0 682#0000004004111045
(0.574000) can0 132#1F90D3FFEE3F
(0.574000) can0 129#8524E35F0020FF3F
(0.575000) can0 2F1#05DA2A8142000100
(0.578000) can0 2E1#026D66021D790000
(0.578000) can0 39B#0310DF80B00C612D
(0.579000) can0 1D5#290000000000605F
(0.580000) can0 211#C11D710F1001
(0.580000) can0 204#010000FF00000010
(0.581000) can0 264#40000000A000
(0.582000) can0 2E5#000010320000DD00
(0.583000) can0 118#AB61950000C8D400
(0.584000) can0 257#0129635802903101
(0.585000) can0 129#FB25E35FFF1FFF3F
(0.586000) can0 3F5#0000C838820C0000
(0.586000) can0 3F5#0000C838830C0000
(0.587000) can0 102#22B3480494FAA009
(0.588000) can0 2EC#575095
(0.589000) can0 2C1#531A900000000000
(0.591000) can0 3A1#C1FFFF1F3D00704B
(0.591000) can0 2E3#02000045020B00
(0.592000) can0 1D8#290A00000000808C
(0.593000) can0 2E1#FB1F9059978A0900
(0.593000) can0 263#04000000901C0000
(0.594000) can0 2B3#018D817D79817F74
(0.597000) can0 129#4826E35F0020FF3F
(0.599000) can0 292#487E082593010000
(0.601000) can0 225#5555FA00
(0.603000) can0 272#0380610000000000
(0.605000) can0 257#022A635802903101
(0.607000) can0 283#000000004000
(0.609000) can0 39A#200FEF760F33EB7E
(0.611000) can0 201#0300000000000000
(0.613000) can0 373#0645240256E3101F
(0.614000) can0 132#0F90CFFFCE3F
(0.615000) can0 266#02000E310D005201
(0.615000) can0 719#0300000000000000
(0.618000) can0 261#0522CBC99A42109D
(0.618000) can0 31E#0300000000000000
(0.620000) can0 1D5#290000000000E0DF
(0.621000) can0 6E8#2C7C00F412200C00
(0.621000) can0 2F9#BCFB072000000000
(0.622000) can0 1D8#290C00000000E0EE
(0.623000) can0 289#CA0C060388003D0F
(0.624000) can0 123#00001392D2000000
(0.624000) can0 266#01000E310D005201
(0.625000) can0 129#DD29E35F0020FF3F
(0.626000) can0 2E1#65800800A64E316A
(0.629000) can0 288#0106184C0060F146
(0.629000) can0 3A3#1AC00000380DFC01
(0.632000) can0 281#0000FF1F0000
(0.632000) can0 1E5#286C04000000007E
(0.635000) can0 118#1066950000C83400
(0.636000) can0 2A8#010100000600A052
(0.637000) can0 381#0500000000CF6408
(0.638000) can0 6A1#0000000000
(0.640000) can0 1D5#290000000000201F
(0.642000) can0 2E1#1021040010000004
(0.644000) can0 118#2167950000C84400
(0.646000) can0 128#0000EC0A02
(0.648000) can0 397#130000861C000000
(0.650000) can0 23E#00003AC002FF3F7A
(0.652000) can0 2C2#5523AA0680C112AA
(0.655000) can0 348#16000198CF070110
(0.656000) can0 263#0200C0860D363621
(0.657000) can0 318#1A06370D101839E0
(0.657000) can0 129#FA2CE35FFF1FFF3F
(0.658000) can0 207#0000000000000000
(0.660000) can0 7D5#2B702F0000000000
(0.660000) can0 234#3320032EB904805C
(0.661000) can0 1D5#290000000000605F
(0.662000) can0 2E2#0000006F020B0000
(0.663000) can0 2E5#000010320000DD00
(0.663000) can0 757#2C003E0000000000
(0.664000) can0 266#01000E310D005301
(0.665000) can0 241#7574541D1D4500
(0.666000) can0 129#E82DE35FFF1FFF3F
(0.666000) can0 43B#017F00FF00000000
(0.667000) can0 719#140000000000B500
(0.670000) can0 3AE#014000080000B1FB
(0.672000) can0 383#A7181E00CDA0E20B
(0.673000) can0 1E5#286C04000000007E
(0.674000) can0 132#2590D1FFDD3F
(0.675000) can0 129#372EE35FFF1FFF3F
(0.675000) can0 2F1#06DA338142000100
(0.676000) can0 54F#0000000000000000
(0.679000) can0 423#00001000000000
(0.681000) can0 211#C21E710F1001
(0.681000) can0 224#0408004019011008
(0.682000) can0 2E5#000010320000DD00
(0.683000) can0 118#E56B950000C80400
(0.683000) can0 257#062E635802903101
(0.684000) can0 243#04FC73F1657CFFFF
(0.685000) can0 129#AF2FE35F0020FF3F
(0.686000) can0 3F5#0000C838820C0000
(0.686000) can0 39D#075FE12700
(0.688000) can0 102#22B3480494FAA009
(0.689000) can0 2E1#FB1F9559978E0900
(0.689000) can0 2C1#531A900000000000
(0.692000) can0 3A1#C1FFFF1D3D009069
(0.692000) can0 1E5#286C0400000040BE
(0.693000) can0 359#923FDA11434B010C
(0.694000) can0 132#1D90CFFFE33F
(0.694000) can0 45A#FD07F8FF0300430F
(0.695000) can0 212#5904000081FF7731
(0.696000) can0 2D2#F02EB24E8813E822
(0.697000) can0 392#000B000000000000
(0.697000) can0 3B2#324B1AF44C4F1450
(0.700000) can0 22B#FFFFFF3F00F0FFFF
(0.700000) can0 3A2#0110200000000000
(0.702000) can0 272#080002D107B00304
(0.703000) can0 1E5#286C0400000060DE
(0.703000) can0 3C8#0600000000000000
(0.704000) can0 132#1E90D0FFD43F
(0.705000) can0 129#5D21E35F0020FF3F
(0.705000) can0 7AA#07CDFFCDFFABFF48
(0.708000) can0 441#E100B6C358002540
(0.708000) can0 282#943CF20818040324
(0.709000) can0 1D5#29000000000000FF
(0.710000) can0 3DF#0000C00002D0001B
(0.710000) can0 381#0700000000000000
(0.711000) can0 2AA#573033
(0.712000) can0 2E5#000010320000DD00
(0.713000) can0 1E5#286C04000000007E
(0.714000) can0 263#700ED29FA74F5F1F
(0.717000) can0 719#150003AD00000000
(0.717000) can0 103#22B38804A2F02032
(0.720000) can0 53E#0D0100005A0D5D73
(0.720000) can0 75D#523EAE000000004A
(0.721000) can0 2E1#65800800A74E316A
(0.722000) can0 2E5#000010320000DD00
(0.722000) can0 1E5#286C04000000209E
(0.723000) can0 227#0000000053000080
(0.724000) can0 243#01FC374836005B5B
(0.725000) can0 401#082A2C9625962396
(0.725000) can0 249#3A0C0000
(0.728000) can0 288#0106184C00600156
(0.728000) can0 3F9#0800000000000000
(0.730000) can0 39D#F850E12700
(0.730000) can0 281#0000FF1F0000
(0.733000) can0 2E5#000010320000DD00
(0.733000) can0 118#AA60950000C8D400
(0.734000) can0 263#89E6D1A7B74F5F1F
(0.735000) can0 129#EC24E35FFF1FFF3F
(0.735000) can0 339#02F1FE008007800F
(0.736000) can0 552#000000000000A0F7
(0.739000) can0 20E#110100
(0.741000) can0 3A1#884C0FCA0014A223
(0.741000) can0 20C#0078371C1E01000E
(0.742000) can0 1D8#290E000000006070
(0.743000) can0 1F9#0000000000000000
(0.743000) can0 108#1B70003A00281B25
(0.745000) can0 1D6#02080000CA7FF707
(0.746000) can0 2B6#000300
(0.746000) can0 395#091211610902037D
(0.747000) can0 422#700010000000
(0.748000) can0 4E3#00AC010000002800
(0.749000) can0 2C1#216B186402000000
(0.749000) can0 119#00000000
(0.750000) can0 2C2#2040404B010080CB
(0.754000) can0 2E5#000010320000DD00
(0.759000) can0 118#4C62950000C87400
(0.761000) can0 1D5#290000000000A09F
(0.763000) can0 2E5#000010320000DD00
(0.765000) can0 3FD#0000003C20000180
(0.769000) can0 285#2445605872000000
(0.771000) can0 1D5#290000000000C0BF
(0.775000) can0 383#A7181E00CDA0E20B
(0.776000) can0 54F#0000000000000000
(0.776000) can0 261#8B4C0A000040B5CC
(0.777000) can0 423#00001000000000
(0.780000) can0 25B#D38000056A86C063
(0.780000) can0 2C4#6A008117721F0C00
(0.781000) can0 264#3E000000A000
(0.782000) can0 2E5#000010320000DD00
(0.782000) can0 118#3F65950000C86400
(0.783000) can0 257#FB23635802903101
(0.784000) can0 201#0200000000000000
(0.785000) can0 401#0B2A1F962D962196
(0.785000) can0 7AA#0800000018011B0E
(0.786000) can0 3F5#0000C838830C0000
(0.788000) can0 102#22B3480494FAA009
(0.788000) can0 2C1#531A900000000000
(0.791000) can0 3A1#C1FFFF1D3D00B089
(0.791000) can0 2E3#03000021020B00
(0.792000) can0 1D8#290E000000000010
(0.793000) can0 261#9401A84B0040C482
(0.793000) can0 263#04000000901C0000
(0.794000) can0 266#02000E310D005101
(0.795000) can0 129#022AE35F0020FF3F
(0.796000) can0 292#487E082593010000
(0.796000) can0 712#012A871466140014
(0.799000) can0 400#00E0FBBEEFFB00
(0.799000) can0 225#5555FA00
(0.802000) can0 2E1#0400000000202600
(0.803000) can0 118#3167950000C85400
(0.804000) can0 3C8#0000000000000000
(0.805000) can0 228#0106184C0060C1B6
(0.805000) can0 545#E004583099893911
(0.806000) can0 39D#FA52E12700
(0.807000) can0 441#E100B6C358002D48
(0.807000) can0 421#021A0000002000
(0.808000) can0 234#2EE103804300B424
(0.809000) can0 282#943CF20818040324
(0.810000) can0 3B3#8C8004300100A800
(0.810000) can0 2C1#0400000000000000
(0.811000) can0 40A#091000000000D0F7
(0.812000) can0 1D8#2910000000004052
(0.813000) can0 3C0#0700000000000000
(0.814000) can0 263#700ED29FA74F5F1F
(0.815000) can0 3FD#01000A0000080280
(0.817000) can0 719#1700000000000000
(0.818000) can0 103#22B38804A2F02032
(0.818000) can0 21D#0400B50000000000
(0.819000) can0 788#01000000FFA1C812
(0.822000) can0 448#20001010000010
(0.822000) can0 118#C369950000C8E400
(0.823000) can0 289#CA0C060399003D0F
(0.824000) can0 132#1E90C8FFC63F
(0.824000) can0 247#770EFF0000000000
(0.825000) can0 221#610555550107C0FB
(0.828000) can0 288#0106184C00601166
(0.828000) can0 3F9#0000000000000000
(0.830000) can0 1D5#290000000000807F
(0.831000) can0 281#0000FF1F0000
(0.833000) can0 2E5#000010320000DD00
(0.833000) can0 118#646A950000C88400
(0.834000) can0 263#89E6D1A7B74F5F1F
(0.835000) can0 129#5E2EE35F0020FF3F
(0.835000) can0 339#02F1FE008007800F
(0.836000) can0 552#000000000000B007
(0.840000) can0 20E#120200
(0.844000) can0 261#314028009049FA62
(0.848000) can0 243#02FCB30D05D90000
(0.852000) can0 3AE#014000080000004A
(0.856000) can0 1D8#291000000000C0D2
(0.860000) can0 340#0900000000000000
(0.863000) can0 3FD#0000003C20000180
(0.867000) can0 7D7#321E000000000000
(0.868000) can0 557#5A6E190002
(0.869000) can0 709#1F00000000000000
(0.869000) can0 2C1#0219160000D09201
(0.870000) can0 35B#0000000000000000
(0.871000) can0 757#3200000000000000
(0.872000) can0 383#A7181E00CDA0E20B
(0.872000) can0 1D8#2910000000000012
(0.873000) can0 261#8B4C0A000040152C
(0.874000) can0 132#1390CBFFCF3F
(0.875000) can0 266#02000E310D005201
(0.875000) can0 2F1#0802002004900400
(0.878000) can0 423#00001000000000
(0.879000) can0 1D5#290000000000201F
(0.880000) can0 211#B410710F1001
(0.880000) can0 204#010000FF00000010
(0.881000) can0 224#0408004019011008
(0.882000) can0 1D8#2910000000002032
(0.883000) can0 2E5#000010320000DD00
(0.883000) can0 3E8#0000000000000000
(0.884000) can0 243#04FC73F1657CFFFF
(0.885000) can0 129#6A23E35FFF1FFF3F
(0.886000) can0 3F5#0000C838820C0000
(0.886000) can0 39D#FC54E12700
(0.889000) can0 102#22B3480494FAA009
(0.889000) can0 2C1#531A900000000000
(0.890000) can0 677#0100000000000000
(0.892000) can0 3A1#C1FFFF293D00D0B5
(0.892000) can0 1E5#286C0400000040BE
(0.893000) can0 359#14040000E59E5A19
(0.894000) can0 132#2490C4FFB83F
(0.894000) can0 2B3#06C04BEFE67DF0E1
(0.895000) can0 212#5904000081FF7731
(0.896000) can0 2D2#F02EB24E8813E822
(0.897000) can0 45A#FD07F8FF0300430F
(0.897000) can0 752#097F07787D172E00
(0.898000) can0 3A2#0110200000000000
(0.899000) can0 1D5#290000000000605F
(0.902000) can0 272#080002D107B00304
(0.902000) can0 1D8#2910000000006072
(0.903000) can0 55A#0200000000000000
(0.905000) can0 266#02000E310D005201
(0.905000) can0 228#0106184C0060D1C6
(0.906000) can0 261#0522CBC99A4230BD
(0.907000) can0 441#E200B6C358003551
(0.908000) can0 3AE#014000080000216B
(0.908000) can0 282#8C3CF20818040324
(0.909000) can0 1D5#290000000000807F
(0.910000) can0 3C2#0055555500006A05
(0.911000) can0 2F3#07070B0400600002
(0.911000) can0 3FD#01000A0000080280
(0.913000) can0 3C0#0800000000000000
(0.914000) can0 118#EC62950000C81400
(0.915000) can0 129#4826E35F0020FF3F
(0.916000) can0 34A#0300000000000000
(0.919000) can0 103#22B38804A2F02032
(0.919000) can0 3E9#0088020000002096
(0.920000) can0 448#20001010000010
(0.921000) can0 261#00100000FF4F4094
(0.921000) can0 2E5#000010320000DD00
(0.922000) can0 118#6D63950000C89400
(0.923000) can0 257#123A635802903101
(0.924000) can0 123#01000000003F0000
(0.924000) can0 247#770EFF0000000000
(0.925000) can0 221#610555550107E01B
(0.926000) can0 381#0D00000000000000
(0.929000) can0 288#0106184C00602176
(0.931000) can0 2C1#D0647E00008A0200
(0.933000) can0 3A2#82A7FFFF04000000
(0.936000) can0 118#6E64950000C89400
(0.938000) can0 552#000000000000C017
(0.940000) can0 1D5#290000000000E0DF
(0.942000) can0 3A1#884C0FCA0014E263
(0.944000) can0 118#9E65950000C8C4FF
(0.945000) can0 129#B429E35FFF1FFF3F
(0.946000) can0 2B6#000300
(0.946000) can0 397#132000861C000000
(0.947000) can0 45A#A4C0BFC05F2B4837
(0.950000) can0 2C1#216B186402000000
(0.950000) can0 2C2#2040404B010080CB
(0.953000) can0 2E5#000010320000DD00
(0.953000) can0 1A5#00101F18ED
(0.954000) can0 261#B2291A02805C622B
(0.956000) can0 132#1290C1FFBA3F
(0.956000) can0 315#18655A71505AD78E
(0.957000) can0 340#0A00002000000000
(0.958000) can0 315#6B2BD0264000A005
(0.959000) can0 234#3220032EB904E0BB
(0.959000) can0 3FE#7BE5830F3EF800CD
(0.960000) can0 201#0104980000000000
(0.961000) can0 3FD#0200580000000090
(0.963000) can0 3C2#2955000000000000
(0.964000) can0 3B5#0000000000000000
(0.964000) can0 118#D067950000C8F4FF
(0.965000) can0 132#0490C4FFBF3F
(0.966000) can0 320#0200000000000000
(0.966000) can0 129#F32BE35F0020FF3F
(0.968000) can0 401#142A359636963496
(0.969000) can0 23E#00003AC002FFBFFA
(0.970000) can0 757#2C3F3E0000000000
(0.970000) can0 7D5#2B6D2F0000000000
(0.971000) can0 1D5#290000000000403F
(0.972000) can0 2D7#8CA9C106
(0.972000) can0 78A#0100060003000000
(0.973000) can0 2E5#000010320000DD00
(0.974000) can0 379#02000A48333F2100
(0.975000) can0 132#1A90C0FFB83F
(0.975000) can0 266#03000E310D005101
(0.976000) can0 2F1#0902000000F80300
(0.977000) can0 54F#0000000000000000
(0.978000) can0 2E1#FB1F9069978A0900
(0.978000) can0 7D5#46605E6C5E425B5C
(0.980000) can0 287#30322F31E0020000
(0.981000) can0 3E8#0100000000000000
(0.981000) can0 224#0408004019011008
(0.982000) can0 1D8#2912000000006074
(0.983000) can0 2E5#000010320000DD00
(0.984000) can0 132#2590C5FFC33F
(0.984000) can0 2C3#555BA9B682C112AA
(0.985000) can0 261#9401B04B0040844A
(0.986000) can0 3F5#0000C838820C0000
(0.987000) can0 3F5#0000C838830C0000
(0.987000) can0 102#22B3480494FAA009
(0.988000) can0 2EC#5790D5
(0.989000) can0 2C1#531A900000000000
(0.992000) can0 3A1#C1FFFF473D00F0F3
(0.993000) can0 1E5#286C04000000007E
(0.994000) can0 263#04000000901C0000
(0.995000) can0 45A#FD07F8FF0300430F
(0.995000) can0 212#5904000081FF7731
(0.996000) can0 2D2#F02EB24E8813E822
(0.997000) can0 2D1#FF01
(0.997000) can0 3A2#0110200000000000
(1.000000) can0 400#00E0FBBEEFFB00
(1.001000) can0 261#0522CBC99A42901D
(1.005000) can0 3C8#0200000000000000
(1.007000) can0 283#000000004000
(1.009000) can0 39A#200FEF760F33F37E
(1.011000) can0 201#0300000000000000
(1.013000) can0 40A#091000000000E007
(1.016000) can0 554#D08403051ED000
(1.019000) can0 3A0#0000000000000000
(1.022000) can0 448#20001010000010
(1.022000) can0 118#576D950000C87400
(1.023000) can0 266#03000E310D005101
(1.024000) can0 3AE#03400008000070BC
(1.024000) can0 243#01FC374836005B5B
(1.025000) can0 221#610555550107003B
(1.028000) can0 288#0106184C00603186
(1.028000) can0 3F9#0200000000000000
(1.029000) can0 1D5#29000000000000FF
(1.030000) can0 4E2#013B0EFF0F002800
(1.030000) can0 3A2#82A7FFFF04000000
(1.033000) can0 2E5#000010320000DD00
(1.034000) can0 118#386E950000C85400
(1.035000) can0 129#8622E45F0020FF3F
(1.036000) can0 339#02F1FE008007800F
(1.036000) can0 552#000000000000D027
(1.039000) can0 20E#140400
(1.041000) can0 407#1308000000000000
(1.043000) can0 20C#0078371C1E01000E
(1.045000) can0 428#20001010000010
(1.047000) can0 268#1E0EA101FF
(1.049000) can0 4E3#03FD000000002800
(1.051000) can0 119#00000000
(1.054000) can0 2E5#000010320000DD00
(1.055000) can0 207#0000000000000000
(1.056000) can0 129#BA24E45F0120FF3F
(1.056000) can0 396#091E23574B560C7D
(1.058000) can0 2E1#026D66021E780000
(1.059000) can0 7D7#321E000000000000
(1.059000) can0 3C3#0000000000A50000
(1.060000) can0 1BB#02
(1.061000) can0 390#1706
(1.062000) can0 2E5#000010320000DD00
(1.062000) can0 757#2C003E0000000000
(1.063000) can0 1E5#286C0400000060DE
(1.064000) can0 243#0300008029462600
(1.064000) can0 257#1131635802983101
(1.065000) can0 401#192A1F9620962296
(1.066000) can0 719#0D00000000000000
(1.069000) can0 2C1#0219160000D09201
(1.069000) can0 381#1100000000000000
(1.073000) can0 383#A7181E00CDA0E20B
(1.073000) can0 2E1#FB1F9269978C0900
(1.074000) can0 242#55558600
(1.075000) can0 2B3#0900F02B00008B05
(1.075000) can0 229#430400
(1.076000) can0 54F#0000000000000000
(1.079000) can0 423#00001000000000
(1.081000) can0 211#B612710F1001
(1.081000) can0 261#9401B04B0040E4AA
(1.082000) can0 2B4#3E05670E7B01
(1.083000) can0 1E5#286C04000000209E
(1.083000) can0 257#1232635802983101
(1.084000) can0 2C3#0000C04B010040CB
(1.085000) can0 3E8#0200000000000000
(1.086000) can0 3F5#0000C838820C0000
(1.087000) can0 39D#0159E12700
(1.088000) can0 2EC#57A0E5
(1.089000) can0 23E#00003AC002FFEF2A
(1.089000) can0 2C1#531A900000000000
(1.092000) can0 3A1#C1FFFF2D3D0010F9
(1.092000) can0 1E5#286C0400000040BE
(1.093000) can0 359#1600000000000000
(1.094000) can0 132#1090BEFFA73F
(1.094000) can0 45A#FD07F8FF0300430F
(1.095000) can0 212#5904000081FF7731
(1.096000) can0 2D2#F02EB24E8813E822
(1.097000) can0 3A2#0110200000000000
(1.097000) can0 400#00E0FBBEEFFB00
(1.100000) can0 1D5#290000000000E0DF
(1.103000) can0 272#080002D107B00304
(1.103000) can0 257#1333635802983101
(1.104000) can0 132#1390BEFFB73F
(1.105000) can0 401#1B2A2A9627962896
(1.105000) can0 381#5200000000003C03
(1.108000) can0 441#E300B6C358000522
(1.108000) can0 282#8C3CF20814040324
(1.109000) can0 1D5#29000000000000FF
(1.110000) can0 3C2#0055555500006A05
(1.110000) can0 285#61018E0308002E00
(1.111000) can0 2AA#577073
(1.112000) can0 2E5#000010320000DD00
(1.113000) can0 261#00100000FF4F0054
(1.113000) can0 118#F066950000C81400
(1.115000) can0 263#700ED29FA74F5F1F
(1.118000) can0 103#22B38804A2F02032
(1.118000) can0 75D#0400000000000000
(1.119000) can0 1D5#290000000000201F
(1.120000) can0 41D#00
(1.122000) can0 2E1#1021040010000004
(1.122000) can0 118#F167950000C81400
(1.123000) can0 257#1434635802983101
(1.124000) can0 132#1990BDFFBD3F
(1.124000) can0 247#760EFF0000000000
(1.125000) can0 221#610555550107205B
(1.128000) can0 288#0106184C00604196
(1.128000) can0 3F9#0300000000000008
(1.129000) can0 39D#025AE12700
(1.130000) can0 3A2#72A7FFFF04000000
(1.131000) can0 677#0200000000000000
(1.132000) can0 1E5#286C0400000040BE
(1.135000) can0 118#C168950000C8E4FF
(1.135000) can0 545#010000000010D02B
(1.136000) can0 393#0380610000000000
(1.137000) can0 2E1#398D2AFF0F000000
(1.137000) can0 20E#150500
(1.140000) can0 1D5#290000000000605F
(1.142000) can0 381#130000000020FCFF
(1.142000) can0 118#6369950000C88400
(1.143000) can0 266#03000E310D005101
(1.144000) can0 132#1B90BCFFAC3F
(1.144000) can0 243#02FCB30D05D90000
(1.145000) can0 261#B2291A02805C22EB
(1.147000) can0 401#1D2A2C962A962896
(1.147000) can0 4E3#047A208805600000
(1.150000) can0 2C1#216B186402000000
(1.150000) can0 2C2#2040404B010080CB
(1.153000) can0 2E5#000010320000DD00
(1.153000) can0 1D8#2916000000008098
(1.154000) can0 405#113345374542334B
(1.155000) can0 458#00002000000000
(1.155000) can0 118#D36A950000C8F4FF
(1.156000) can0 7FF#0800000100000000
(1.157000) can0 129#E02EE55F0320FF3F
(1.158000) can0 3AE#044000080000C10E
(1.158000) can0 7D5#2C3F3F0000000000
(1.159000) can0 7D5#3200000000000000
(1.161000) can0 1D5#290000000000A09F
(1.161000) can0 285#02A800000000B200
(1.162000) can0 261#8B4C0A000040354C
(1.163000) can0 1D8#291600000000A0B8
(1.164000) can0 22B#FFFFFF3F0000C0FF
(1.164000) can0 132#1D90BCFFAD3F
(1.165000) can0 320#0300000000000000
(1.166000) can0 3A2#6025F3B11C00C26F
(1.167000) can0 43B#037F00FF00000000
(1.167000) can0 719#0300000000000000
(1.168000) can0 7AA#C0E78E3C00088C29
(1.169000) can0 757#3200000000000000
(1.170000) can0 2C1#0219160000D09201
(1.170000) can0 78A#01000100C45C845D
(1.172000) can0 383#A7181E00CDA0E20B
(1.175000) can0 118#366C950000C85400
(1.175000) can0 2F1#2B76008500000000
(1.178000) can0 261#9401B04B0040440A
(1.180000) can0 25B#D38000056A8600A3
(1.180000) can0 3E8#0300000000000000
(1.181000) can0 264#3E000000A000
(1.182000) can0 2B4#3C05690E7401
(1.182000) can0 2E5#000010320000DD00
(1.183000) can0 1E5#286C0400000060DE
(1.184000) can0 132#1490BDFFBA3F
(1.185000) can0 2C3#555BA9B682C112AA
(1.185000) can0 2E1#0400000000202600
(1.186000) can0 37A#C00C000000000000
(1.188000) can0 102#22B3480494FAA009
(1.191000) can0 2C1#531A900000000000
(1.191000) can0 2E3#F7135040010000
(1.192000) can0 1D8#2916000000000018
(1.193000) can0 261#0522CCC99A4250DE
(1.193000) can0 118#186E950000C83400
(1.194000) can0 266#03000E310D005201
(1.195000) can0 129#DF22E55F0120FF3F
(1.196000) can0 292#487E082593010000
(1.196000) can0 312#DD214817408D0C00
(1.197000) can0 2D1#FF01
(1.198000) can0 400#00E0FBBEEFFB00
(1.199000) can0 1D5#290000000000201F
(1.199000) can0 225#5555FA00
(1.202000) can0 2E1#65800800A74E316A
(1.203000) can0 118#E96F950000C80400
(1.204000) can0 132#1490BCFFAB3F
(1.205000) can0 129#C823E55F0120FF3F
(1.205000) can0 283#000000004000
(1.206000) can0 39D#045CE12700
(1.207000) can0 441#E300B6C358000D2A
(1.207000) can0 421#021A0000002000
(1.208000) can0 234#2EE10380430034A4
(1.209000) can0 282#943CF20814040324
(1.210000) can0 201#0300000000000000
(1.210000) can0 3DF#0000C00002D0001B
(1.211000) can0 40A#091000000000F017
(1.212000) can0 285#034A7D5277000000
(1.213000) can0 1D8#2916000000004058
(1.214000) can0 381#15A05B6D6D000001
(1.215000) can0 129#E324E55F0020FF3F
(1.216000) can0 1F8#1A000000
(1.218000) can0 2E1#1021040010000004
(1.220000) can0 21D#0400B50000000000
(1.220000) can0 448#20001010000010
(1.221000) can0 2F9#BCFB072000000000
(1.222000) can0 2E5#000010320000DD00
(1.222000) can0 1E5#286C0400000060DE
(1.223000) can0 257#2139635802A03101
(1.224000) can0 232#8A00910EC8040000
(1.225000) can0 247#760EFF0000000000
(1.225000) can0 261#3140EDFF92497AA8
(1.226000) can0 70B#0600000000000000
(1.228000) can0 288#0106184C006051A6
(1.228000) can0 3A2#72A7FFFF04000000
(1.229000) can0 3A3#14C00000380DFC01
(1.232000) can0 281#0000FF1F0000
(1.232000) can0 1E5#286C04000000007E
(1.235000) can0 263#89E6D1A7B74F5F1F
(1.235000) can0 2A8#01010000060000B2
(1.238000) can0 552#000000000000F047
(1.240000) can0 1D5#290000000000A09F
(1.242000) can0 261#B2291A02805C824B
(1.244000) can0 118#0D63950000C83400
(1.246000) can0 243#02FCBB0D05D90000
(1.248000) can0 422#700010000000
(1.250000) can0 23E#00003AC002FF2F6A
(1.254000) can0 2C2#5523AA0680C112AA
(1.259000) can0 129#EE28E55F0020FF3F
(1.261000) can0 234#3420032EB904401D
(1.263000) can0 3A2#6005F3B11C00C26F
(1.265000) can0 295#5000BFFF00000005
(1.267000) can0 757#3200000000000000
(1.269000) can0 22B#FFFFFF3F00000000
(1.271000) can0 3AA#0000000000000000
(1.274000) can0 383#A7181E00CDA0E20B
(1.275000) can0 266#03000E310D005101
(1.275000) can0 2F1#0C0101D017000000
(1.278000) can0 287#30322F31E0020000
(1.280000) can0 1D5#290000000000201F
(1.282000) can0 3E8#0400000000000000
(1.285000) can0 118#6167950000C88400
(1.287000) can0 381#1700000000000000
(1.289000) can0 102#22B3480494FAA009
(1.291000) can0 2C1#531A900000000000
(1.294000) can0 2E5#000010320000DD00
(1.295000) can0 266#03000E310D005101
(1.295000) can0 252#B44B387D00FC0F00
(1.296000) can0 2F2#1201
(1.297000) can0 7A8#B8CCB18300008200
(1.298000) can0 400#00E0FBBEEFFB00
(1.300000) can0 1D5#290000000000605F
(1.302000) can0 272#080002D107B00304
(1.302000) can0 118#8269950000C8A4FF
(1.303000) can0 257#354D635802A03101
(1.305000) can0 132#1B90B4FFA13F
(1.305000) can0 283#000000004000
(1.308000) can0 441#E300B6C358001532
(1.308000) can0 282#8C3CF20818040324
(1.309000) can0 1D5#290000000000807F
(1.310000) can0 361#2C0E190200
(1.310000) can0 3E2#040000411FCF00
(1.311000) can0 2AA#579093
(1.312000) can0 2E5#000010320000DD00
(1.313000) can0 1E5#286C04000000007E
(1.313000) can0 2E1#1021040010000004
(1.314000) can0 263#700ED29FA74F5F1F
(1.315000) can0 2B3#8D04A094EE716319
(1.316000) can0 1F8#1A000000
(1.318000) can0 103#22B38804A2F02032
(1.319000) can0 75D#0500000000007E04
(1.320000) can0 41D#00
(1.320000) can0 6A2#0000000000
(1.321000) can0 381#1800000000000000
(1.322000) can0 1D8#291A00000000A0BC
(1.323000) can0 266#04000E310D005101
(1.323000) can0 123#01000000003F0000
(1.324000) can0 227#0000000053000080
(1.325000) can0 221#610555550107609B
(1.328000) can0 288#0106184C006061B6
(1.328000) can0 3F9#0500000000000000
(1.329000) can0 39D#075FE12700
(1.330000) can0 3A3#18C00000380DFC01
(1.330000) can0 677#0200000000000000
(1.332000) can0 2E5#000010320000DD00
(1.333000) can0 545#010000000010308B
(1.333000) can0 132#1690B2FF9D3F
(1.334000) can0 266#04000E310D005101
(1.335000) can0 22A#00001917
(1.336000) can0 393#0380610000000000
(1.336000) can0 552#0000000000000057
(1.337000) can0 20E#170700
(1.338000) can0 6A1#0000000000
(1.341000) can0 1D5#290000000000E0DF
(1.341000) can0 20C#0078371C1E01000E
(1.342000) can0 1D8#291A00000000E0FC
(1.343000) can0 1F9#0000000000000000
(1.343000) can0 108#D4D6007A003B1B25
(1.344000) can0 243#02FCBB0D05D90000
(1.346000) can0 129#3B21E55F0020FF3F
(1.347000) can0 422#700010000000
(1.347000) can0 4E3#0600000000000000
(1.350000) can0 2C1#216B186402000000
(1.350000) can0 2C2#2040404B010080CB
(1.353000) can0 2E5#000010320000DD00
(1.353000) can0 195#000000000A002706
(1.354000) can0 207#0000000000000000
(1.355000) can0 458#00002000000000
(1.355000) can0 263#0200C0860D363621
(1.356000) can0 129#7222E55F0020FF3F
(1.357000) can0 396#091E1E57494F0B7D
(1.358000) can0 439#0000000000185A04
(1.358000) can0 441#3D858900320018FE
(1.360000) can0 3FD#0000003C20000180
(1.362000) can0 1D5#290000000000201F
(1.363000) can0 1E5#286C04000000209E
(1.363000) can0 257#2040635802983101
(1.364000) can0 243#0300008029462600
(1.365000) can0 757#3200000000000000
(1.366000) can0 553#00000000000090E8
(1.366000) can0 1FA#1AC001
(1.369000) can0 22B#FFFFFF3F00000000
(1.369000) can0 2C1#0219160000D09201
(1.372000) can0 383#A7181E00CDA0E20B
(1.372000) can0 1E5#286C0400000040BE
(1.373000) can0 682#00000040041190C5
(1.374000) can0 132#0190B0FF9A3F
(1.375000) can0 2B3#CE2B5E0140151900
(1.376000) can0 54F#0000000000000000
(1.377000) can0 287#30322F31E0020000
(1.380000) can0 25B#D38000056A8620C3
(1.380000) can0 2C4#1400000000000000
(1.381000) can0 264#3E000000A000
(1.382000) can0 2B4#3D05670E7601
(1.382000) can0 3E8#0500000000000000
(1.383000) can0 266#04000E310D005101
(1.384000) can0 243#04FC73F1657CFFFF
(1.385000) can0 129#5925E55F0120FF3F
(1.388000) can0 3F5#0000C838820C0000
(1.390000) can0 2C1#531A900000000000
(1.392000) can0 3A1#C1FFFF173D007043
(1.393000) can0 1E5#286C04000000007E
(1.394000) can0 118#CB62950000C8F4FF
(1.395000) can0 3A2#0110200000000000
(1.395000) can0 212#5904000081FF7731
(1.396000) can0 2D2#F02EB24E8813E822
(1.397000) can0 7A8#01000000FFA1B812
(1.400000) can0 400#00E0FBBEEFFB00
(1.402000) can0 261#00100000FF4F2074
(1.402000) can0 1D8#291E00000000A0C0
(1.403000) can0 666#0000C800
(1.404000) can0 257#1A32635802A03101
(1.404000) can0 243#00FCCFCC90440D29
(1.405000) can0 228#0106184C00602116
(1.408000) can0 39D#F951E12700
(1.408000) can0 23E#00003AC002FF6FAA
(1.410000) can0 1D5#290000000000C0BF
(1.410000) can0 3FD#01000A0000080280
(1.413000) can0 3C2#0055555500006A05
(1.413000) can0 737#02000000E0F080
(1.414000) can0 263#700ED29FA74F5F1F
(1.415000) can0 3E9#F0880221000020A7
(1.416000) can0 43B#007F00FF00000000
(1.416000) can0 3E9#00880200000030A6
(1.419000) can0 103#22B38804A2F02032
(1.419000) can0 788#01000000FFA1C812
(1.420000) can0 448#20001010000010
(1.421000) can0 6A2#0000000000
(1.421000) can0 2E5#000010320000DD00
(1.422000) can0 118#6F65950000C89400
(1.424000) can0 257#1333635802983101
(1.424000) can0 227#0000000053000080
(1.425000) can0 249#E20A0000
(1.428000) can0 3A2#72A7FFFF04000000
(1.428000) can0 3F9#0600000000000000
(1.429000) can0 1D5#29000000000000FF
(1.430000) can0 3A3#18C00000380DFC01
(1.430000) can0 281#0000FF1F0000
(1.433000) can0 2E5#000010320000DD00
(1.433000) can0 118#7066950000C89400
(1.434000) can0 263#89E6D1A7B74F5F1F
(1.435000) can0 129#C92AE55F0120FF3F
(1.435000) can0 339#02F1FE008007800F
(1.438000) can0 552#0000000000001067
(1.440000) can0 1D5#290000000000201F
(1.442000) can0 2E1#026D66021E770000
(1.444000) can0 118#0267950000C82401
(1.446000) can0 243#02FCB30D05D90000
(1.448000) can0 397#132000861C020000
(1.450000) can0 39D#FA52E12700
(1.452000) can0 2C2#5523AA0680C112AA
(1.454000) can0 1D8#2922000000004064
(1.457000) can0 458#00002000000000
(1.457000) can0 7D7#321E000000000000
(1.458000) can0 441#3D85890032002006
(1.459000) can0 201#0104980000000000
(1.460000) can0 2E2#0000006D020B0000
(1.460000) can0 3C2#2955000000000000
(1.462000) can0 2E5#000010320000DD00
(1.463000) can0 3FD#0200580000000090
(1.465000) can0 118#9269950000C8B4FF
(1.465000) can0 295#2B48000000000009
(1.466000) can0 553#000000000000A0F8
(1.469000) can0 22B#FFFFFF3F00000000
(1.469000) can0 78A#01000400CC06A100
(1.472000) can0 383#A7181E00CDA0E20B
(1.472000) can0 1E5#286C04000000007E
(1.473000) can0 2E1#0400000000202600
(1.474000) can0 132#0A909FFF723F
(1.474000) can0 129#7E2EE65F0220FF3F
(1.475000) can0 229#4C0800
(1.476000) can0 7AA#04000FC000260000
(1.478000) can0 423#00001000000000
(1.480000) can0 1D5#290000000000A09F
(1.480000) can0 211#BA16710F1001
(1.481000) can0 261#0522CCC99A4270FE
(1.482000) can0 2B4#3E05670E7C01
(1.482000) can0 360#0400000000000000
(1.483000) can0 266#05000E310E005101
(1.484000) can0 243#04FC73F1657CFFFF
(1.485000) can0 129#8F2FE65F0220FF3F
(1.488000) can0 3F5#0000C838820C0000
(1.488000) can0 23E#00003AC002FF8FCA
(1.489000) can0 1D5#290000000000C0BF
(1.490000) can0 677#0100000000000000
(1.490000) can0 3A1#C1FFFF193D009065
(1.492000) can0 2E5#000010320000DD00
(1.493000) can0 409#00
(1.493000) can0 359#1B00000000000000
(1.494000) can0 263#04000000901C0000
(1.495000) can0 129#6A20E65F0220FF3F
(1.496000) can0 292#487E082593010000
(1.496000) can0 45A#FD07F8FF03004211
(1.497000) can0 2D1#FF01
(1.498000) can0 545#E004583099898961
(1.499000) can0 1D5#290000000000E0DF
(1.499000) can0 225#5555FA00
(1.503000) can0 381#22A2F027F1200400
(1.505000) can0 3C8#0000000000000000
(1.507000) can0 283#000000004000
(1.509000) can0 39A#99FFFDFDFD01000A
(1.512000) can0 201#0300000000000000
(1.514000) can0 1E5#286C04000000007E
(1.516000) can0 129#6D22E75F0320FF3F
(1.519000) can0 103#22B38804A2F02032
(1.520000) can0 295#9600A1FF0000000A
(1.520000) can0 25D#3741012A04F08803
(1.521000) can0 2E1#398D2AFF0F000000
(1.522000) can0 1D8#2926000000002048
(1.523000) can0 118#B86F950000C8D4FF
(1.523000) can0 123#01000000003F0000
(1.526000) can0 247#750EFF0000000000
(1.528000) can0 288#0106184C006081D6
(1.528000) can0 3F9#0700000000000000
(1.529000) can0 1D5#290000000000403F
(1.531000) can0 3A3#1AC00000380DFC01
(1.533000) can0 2E5#000010320000DD00
(1.533000) can0 263#89E6D1A7B74F5F1F
(1.534000) can0 201#006E6C0000E4FF00
(1.535000) can0 129#FC24E75F0320FF3F
(1.535000) can0 339#02F1FE008007800F
(1.536000) can0 552#0000000000002077
(1.537000) can0 381#03283D00C0200400
(1.538000) can0 6A1#0000000000
(1.541000) can0 1D5#290000000000605F
(1.541000) can0 20C#0078371C1E01000E
(1.542000) can0 1D8#2926000000006088
(1.543000) can0 118#4B61950000C87400
(1.543000) can0 428#20001010000010
(1.545000) can0 128#0000EC0A02
(1.546000) can0 279#3BB8FC01C0056502
(1.546000) can0 397#132000861C020000
(1.547000) can0 7AA#0522880C50081300
(1.550000) can0 2C1#216B186402000000
(1.550000) can0 2C2#2040404B010080CB
(1.551000) can0 207#0000000000000000
(1.552000) can0 2E5#000010320000DD00
(1.552000) can0 318#1A06370D10182BD2
(1.553000) can0 1A5#00101F481D
(1.554000) can0 27A#BAB9FC00C0056202
(1.555000) can0 132#06909AFF583F
(1.555000) can0 266#06000F310E005101
(1.556000) can0 340#0400000000000000
(1.558000) can0 7D5#2B7B4F0000000000
(1.558000) can0 300#1100000000000000
(1.559000) can0 1D5#290000000000A09F
(1.560000) can0 284#300000004008403E
(1.561000) can0 3A8#0103000700020100
(1.561000) can0 3F2#032C8FC602000000
(1.562000) can0 492#2503FF0F280000
(1.563000) can0 1D8#292800000000A0CA
(1.564000) can0 266#06000E310E005101
(1.564000) can0 243#0300008029462600
(1.565000) can0 320#0000000000000000
(1.566000) can0 129#2627E75F0320FF3F
(1.567000) can0 719#0CC30F0059096000
(1.567000) can0 22B#FFFFFF3F00000000
(1.569000) can0 23E#00003AC002FFAFEA
(1.570000) can0 24A#03
(1.570000) can0 295#C800ABFF0000000B
(1.573000) can0 383#A7181E00CDA0E20B
(1.573000) can0 263#0300000000000000
(1.574000) can0 118#AD64950000C8D4FF
(1.575000) can0 129#5C28E75F0220FF3F
(1.575000) can0 2F1#0F64899699533900
(1.576000) can0 54F#0000000000000000
(1.579000) can0 423#00001000000000
(1.579000) can0 139#00
(1.580000) can0 2C4#16CA370700000001
(1.581000) can0 204#010000FF00000010
(1.581000) can0 224#0408004019011008
(1.582000) can0 1D8#292800000000E00A
(1.584000) can0 1E5#286C0400000060DE
(1.584000) can0 2C3#555BA9B682C112AA
(1.585000) can0 2E1#65800800A74E316A
(1.586000) can0 3F5#0000C838830C0000
(1.589000) can0 102#22B3480494FAA009
(1.591000) can0 3A1#C1FFFF253D00B091
(1.591000) can0 2E3#01000025020B00
(1.592000) can0 2E5#000010320000DD00
(1.593000) can0 261#0010FFFFFF4FE032
(1.593000) can0 132#FD8F98FF6F3F
(1.594000) can0 409#00
(1.595000) can0 122#00001392D2000000
(1.598000) can0 7A8#B8CCB18300008200
(1.600000) can0 42E#00E0BFFFFEEFBFFF
(1.603000) can0 2E1#1021040010000004
(1.605000) can0 3C8#0100000000000000
(1.607000) can0 283#000000004000
(1.609000) can0 39A#1C13EB760B2FEB7E
(1.611000) can0 201#0300000000000000
(1.613000) can0 353#FB0F39801A100B15
(1.614000) can0 118#D268950000C8F400
(1.615000) can0 2B3#018D817D79817F74
(1.616000) can0 1F8#1A000000
(1.618000) can0 2E1#398D2AFF0F000000
(1.618000) can0 31E#0300000000000000
(1.619000) can0 21D#0400B50000000000
(1.620000) can0 41D#00
(1.620000) can0 6E8#0100000000000000
(1.621000) can0 2F9#BCFB07100D1A8B84
(1.623000) can0 1D8#292A00000000608C
(1.623000) can0 123#00001392D2000000
(1.624000) can0 372#017A540340003001
(1.625000) can0 129#C12DE95F0420FF3F
(1.626000) can0 247#740EFF0000000000
(1.628000) can0 288#0106184C006091E6
(1.628000) can0 3F9#0800000000000000
(1.629000) can0 1D5#290000000000807F
(1.630000) can0 4E2#00D300FF0F002800
(1.630000) can0 281#0000FF1F0000
(1.633000) can0 2E5#000010320000DD00
(1.633000) can0 263#89E6D1A7B74F5F1F
(1.634000) can0 118#B36A950000C8D4FF
(1.635000) can0 129#B32EE95F0520FF3F
(1.636000) can0 339#02F1FE008007800F
(1.639000) can0 20E#120200
(1.641000) can0 261#8B4C0A000040152C
(1.643000) can0 20C#0078371C1E01000E
(1.645000) can0 257#1E3E635802983101
(1.647000) can0 1D6#02080000CA7FF707
(1.649000) can0 428#20001010000010
(1.651000) can0 119#00000000
(1.653000) can0 2E5#000010320000DD00
(1.655000) can0 414#1000000000434956
(1.656000) can0 318#1A06380D10182DD5
(1.657000) can0 458#00002000000000
(1.657000) can0 396#091E1D5750510B7D
(1.658000) can0 7FF#04857EDD5C010100
(1.660000) can0 261#9401B04B004024EA
(1.660000) can0 201#0104980000000000
(1.661000) can0 3C2#2955000000000000
(1.662000) can0 285#02A800000000B200
(1.663000) can0 118#576D950000C87400
(1.663000) can0 257#273F635802A03101
(1.664000) can0 241#7574541D1D4500
(1.665000) can0 3FD#0000003C20000180
(1.667000) can0 401#052A0E960B960E96
(1.668000) can0 757#3200000000000000
(1.670000) can0 2C1#0219160000D09201
(1.672000) can0 383#A7181E00CDA0E20B
(1.672000) can0 1E5#286C04000000007E
(1.673000) can0 682#000000400411C0F5
(1.675000) can0 3AE#094000080000F143
(1.675000) can0 221#605555155451D1B8
(1.676000) can0 2F1#109F03EB13000000
(1.679000) can0 423#00001000000000
(1.681000) can0 211#BC18710F1001
(1.681000) can0 224#0408004019011008
(1.682000) can0 1D8#292E000000002050
(1.683000) can0 118#E96F950000C80400
(1.683000) can0 381#0700000000000000
(1.684000) can0 243#04FC73F1657CFFFF
(1.685000) can0 129#5C23EB5F0720FF3F
(1.686000) can0 302#1405001345067800
(1.686000) can0 39D#0058E12700
(1.689000) can0 102#22B3480494FAA009
(1.690000) can0 2C1#531A900000000000
(1.691000) can0 3A1#C1FFFF313D00D0BD
(1.692000) can0 2E5#000010320000DD00
(1.692000) can0 3AE#0A40000800000154
(1.693000) can0 359#9E3F000005000002
(1.694000) can0 263#04000000901C0000
(1.695000) can0 252#B44B397D00FC0F00
(1.695000) can0 266#06000E310E005101
(1.696000) can0 312#00E56644AFF11C1A
(1.697000) can0 45A#FD07F8FF03004211
(1.698000) can0 545#90045360998BE99E
(1.698000) can0 7A8#01000000FFA1B812
(1.699000) can0 225#5555FA00
(1.702000) can0 272#080003D107B00304
(1.703000) can0 118#CB61950000C8F400
(1.704000) can0 132#FB8F8EFF4A3F
(1.705000) can0 129#BA25ED5F0B20FF3F
(1.705000) can0 283#000000004000
(1.708000) can0 441#E500B6C358003554
(1.708000) can0 282#8C3CF20818040324
(1.709000) can0 1D5#290000000000807F
(1.710000) can0 3DF#0000C00002D0001B
(1.710000) can0 3C2#0055555500006A05
(1.711000) can0 2AA#57D0D3
(1.712000) can0 2E5#000010320000DD00
(1.713000) can0 2E8#0101000006007062
(1.713000) can0 263#700ED29FA74F5F1F
(1.714000) can0 118#8C62950000C8B400
(1.715000) can0 3FD#01000A0000080280
(1.718000) can0 129#3826EF5F0D20FF3F
(1.720000) can0 53E#1100000000000000
(1.720000) can0 75D#8000000000000000
(1.721000) can0 25D#3741012A04F08803
(1.722000) can0 6A2#0000000000
(1.722000) can0 118#CC63950000C8F4FF
(1.723000) can0 266#07000F310E005101
(1.724000) can0 132#FE8F88FF3E3F
(1.725000) can0 401#082A1C9614961496
(1.725000) can0 227#0000000053000080
(1.726000) can0 31A#200100000000609E
(1.727000) can0 288#0106184C0060A1F6
(1.730000) can0 3F9#0000000000000000
(1.730000) can0 4E2#013B0E0000002800
(1.732000) can0 281#0000FF1F0000
(1.735000) can0 263#89E6D1A7B74F5F1F
(1.735000) can0 2A8#0101000006005002
(1.738000) can0 552#0000000000004097
(1.740000) can0 1D5#290000000000E0DF
(1.742000) can0 3A1#884C0FCA0014E263
(1.742000) can0 118#5F65950000C88400
(1.743000) can0 1F9#0000000000000000
(1.744000) can0 108#D08A01E2001A1B25
(1.744000) can0 128#0000EC0A02
(1.745000) can0 1D6#02080000CA7FF707
(1.746000) can0 279#3DBAFC01C0056502
(1.747000) can0 401#092A159618961896
(1.747000) can0 45A#A4C0BFC05F2B4837
(1.749000) can0 2C1#216B186402000000
(1.750000) can0 207#0000000000000000
(1.760000) can0 2E5#000010320000DD00
(1.763000) can0 3C2#2955000000000000
(1.765000) can0 757#2C003E0000000000
(1.767000) can0 3FD#0200580000000090
(1.772000) can0 757#3200000000000000
(1.774000) can0 1E5#286C0400000040BE
(1.776000) can0 242#55558600
(1.778000) can0 682#000000400411D005
(1.781000) can0 25B#D38000056A866003
(1.782000) can0 2E5#000010320000DD00
(1.783000) can0 1E5#286C0400000060DE
(1.783000) can0 360#0700000000000000
(1.785000) can0 201#0200000000000000
(1.786000) can0 3F5#0000C838820C0000
(1.786000) can0 37A#D20D000000000000
(1.789000) can0 102#22B3480494FAA009
(1.789000) can0 381#0A00000000000000
(1.792000) can0 3A1#C1FFFF153D00F0C1
(1.792000) can0 1E5#286C04000000007E
(1.793000) can0 409#00
(1.794000) can0 263#04000000901C0000
(1.794000) can0 252#B54B397D00FC0F00
(1.795000) can0 266#07000F310E005001
(1.796000) can0 2D2#F02EB24E8813E822
(1.797000) can0 545#30055D10998A1928
(1.797000) can0 400#00E0FBBEEFFB00
(1.799000) can0 1D5#290000000000A09F
(1.802000) can0 3AE#114000080000409A
(1.802000) can0 118#E66B950000C80401
(1.803000) can0 257#2E46635802A03101
(1.804000) can0 132#E88F86FF463F
(1.804000) can0 228#0106184C00606156
(1.805000) can0 283#000000004000
(1.806000) can0 39D#035BE12700
(1.807000) can0 441#E600B6C358003D5D
(1.807000) can0 39A#2013EF76072FEF7E
(1.808000) can0 234#2EE103804300F464
(1.809000) can0 1D5#290000000000C0BF
(1.810000) can0 473#0000030000000000
(1.810000) can0 3C2#0055555500006A05
(1.812000) can0 677#0400000000000000
(1.813000) can0 1E5#286C0400000040BE
(1.813000) can0 263#700ED29FA74F5F1F
(1.814000) can0 266#07000F310E005001
(1.817000) can0 719#150003AD00000000
(1.817000) can0 103#22B38804A2F02032
(1.818000) can0 41D#00
(1.819000) can0 1D5#290000000000E0DF
(1.819000) can0 25D#3741012A04F08803
(1.820000) can0 448#20001010000010
(1.823000) can0 2F9#BCFB072000000000
(1.823000) can0 289#CA0C0683A1003D0F
(1.824000) can0 243#01FC374837005B5B
(1.825000) can0 129#BD21F85F0E20FF3F
(1.825000) can0 247#740EFF0000000000
(1.827000) can0 381#0B00000000000000
(1.828000) can0 545#010000000010207B
(1.829000) can0 2C1#D0647E00008A0200
(1.829000) can0 3A3#18C00000380DFC01
(1.832000) can0 281#0000FF1F0000
(1.832000) can0 1E5#286C04000000007E
(1.835000) can0 263#89E6D1A7B74F5F1F
(1.835000) can0 2A8#0101000006006012
(1.838000) can0 552#00000000000050A7
(1.841000) can0 1D5#290000000000201F
(1.845000) can0 20C#0078371C1E01000E
(1.849000) can0 268#1F0FA101FF
(1.853000) can0 119#00000000
(1.857000) can0 1A5#00101F6035
(1.864000) can0 3FD#0000003C20000180
(1.866000) can0 439#0000000000185A04
(1.867000) can0 3CC#0321431A000E0900
(1.867000) can0 553#000000000000E038
(1.868000) can0 656#1232A63551A0A09F
(1.869000) can0 757#3200000000000000
(1.870000) can0 357#0000000000000000
(1.870000) can0 757#485D5F000040D75C
(1.871000) can0 383#A7181E00CD30E20B
(1.872000) can0 1D8#29340000000080B6
(1.873000) can0 3AE#0F400008000071C9
(1.873000) can0 263#0300000000000000
(1.874000) can0 242#55558600
(1.875000) can0 129#5926F25FF61FFF3F
(1.876000) can0 2F1#3224008500010000
(1.877000) can0 423#00001000000000
(1.878000) can0 22B#FFFFFF3F001F0000
(1.879000) can0 1D5#290000000000A09F
(1.881000) can0 211#BE1A710F1001
(1.881000) can0 264#3E000000A000
(1.882000) can0 2E5#000010320000DD00
(1.883000) can0 118#5D63950000C88400
(1.883000) can0 257#324A635802A03101
(1.884000) can0 201#0200000000000000
(1.885000) can0 401#102A2B962B962796
(1.886000) can0 3F5#0000C838820C0000
(1.886000) can0 39D#055DE12700
(1.889000) can0 102#22B3480494FAA009
(1.890000) can0 1D5#290000000000C0BF
(1.891000) can0 3A1#C1FFFF353D001001
(1.892000) can0 303#10000000FFFFFFFF
(1.892000) can0 1E5#286C0400000040BE
(1.893000) can0 359#20040000854580C4
(1.894000) can0 409#00
(1.894000) can0 45A#FD07F8FF03004211
(1.895000) can0 129#E428EF5FF01FFF3F
(1.896000) can0 292#487E082593010000
(1.897000) can0 545#900453B098844946
(1.897000) can0 381#0D00000000000000
(1.898000) can0 7A8#B8CCB18300008200
(1.899000) can0 1D5#290000000000E0DF
(1.902000) can0 272#080002D107B00304
(1.902000) can0 405#113345374542334B
(1.904000) can0 1E5#286C0400000060DE
(1.905000) can0 243#00FCCFCC90440D29
(1.905000) can0 401#112A2B962B963296
(1.906000) can0 283#000000004000
(1.907000) can0 441#E700B6C358000526
(1.907000) can0 3E9#F0880221000030B7
(1.910000) can0 3E9#00880200000040B6
(1.910000) can0 2BF#00000000000001
(1.911000) can0 3FD#01000A0000080280
(1.913000) can0 3C2#0055555500006A05
(1.914000) can0 263#700ED29FA74F5F1F
(1.914000) can0 266#08000F310E005001
(1.915000) can0 43B#027F00FF00000000
(1.916000) can0 34A#0100000000000020
(1.917000) can0 103#22B38804A2F02032
(1.918000) can0 75D#0100000000000080
(1.919000) can0 1D5#290000000000201F
(1.920000) can0 25D#3741012A04F08803
(1.920000) can0 6A2#0000000000
(1.921000) can0 2F9#BCFB072800000000
(1.922000) can0 2E5#000010320000DD00
(1.923000) can0 1E5#286C04000000209E
(1.923000) can0 257#3C4C635802A83101
(1.924000) can0 372#06C3FB1FE01B9F05
(1.925000) can0 221#610555550107205B
(1.926000) can0 247#740EFF0000000000
(1.928000) can0 545#01000000001050AB
(1.930000) can0 304#0000000000000000
(1.933000) can0 2C1#D0647E00008A0200
(1.935000) can0 263#89E6D1A7B74F5F1F
(1.937000) can0 2A8#0101000006007022
(1.939000) can0 20E#150500
(1.941000) can0 3A1#884C0FCA001422A3
(1.944000) can0 20C#0078371C1E01000E
(1.945000) can0 243#02FCB30D05D90000
(1.946000) can0 279#3FBCFC01C0056502
(1.946000) can0 397#132080861C020000
(1.947000) can0 45A#A4C0BFC05F2B4837
(1.950000) can0 2C1#216B186402000000
(1.950000) can0 2C2#2040404B010080CB
(1.953000) can0 2E5#000010320000DD00
(1.953000) can0 1A5#00101F683D
(1.955000) can0 27A#BEBDFC00C0056202
(1.955000) can0 263#0200C0860D363621
(1.956000) can0 315#18655A71505AD78E
(1.957000) can0 343#0092646E95000000
(1.958000) can0 315#6B2BD0264000A005
(1.958000) can0 3B6#DBB7DF0C00006096
(1.959000) can0 441#3D858900320008EE
(1.960000) can0 294#14C1400040000000
(1.961000) can0 3C3#5555550100000000
(1.961000) can0 3FD#0200580000000090
(1.963000) can0 3A7#0000000000000000
(1.964000) can0 3E5#0000000000000000
(1.965000) can0 118#C56B950000C8E400
(1.966000) can0 132#E98F7FFF3F3F
(1.967000) can0 257#364E635802A03101
(1.968000) can0 553#000000000000F048
(1.969000) can0 757#2C003E0000000000
(1.969000) can0 757#3200000000000000
(1.970000) can0 7D5#3200000000000000
(1.971000) can0 7D5#4399A388873F0000
(1.972000) can0 2E1#65800800A84E316A
(1.972000) can0 78A#010002005F066206
(1.973000) can0 2E5#000010320000DD00
(1.974000) can0 3AE#084000080000B001
(1.974000) can0 132#DD8F7EFF373F
(1.975000) can0 266#08000F310E004F01
(1.976000) can0 221#6055551554513118
(1.977000) can0 2F1#00DA348142001600
(1.978000) can0 7D5#46605E6C5E425B5C
(1.979000) can0 25B#D38000056A868023
(1.980000) can0 2C4#010001D200000000
(1.980000) can0 3E8#0400000000000000
(1.981000) can0 264#3E000000A000
(1.982000) can0 2E5#000010320000DD00
(1.983000) can0 118#A66D950000C8C4FF
(1.983000) can0 257#374F635802A03101
(1.984000) can0 243#04FC73F1657CFFFF
(1.985000) can0 129#BC21EA5FF31FFF3F
(1.986000) can0 3F5#0000C838820C0000
(1.986000) can0 37A#C00D000000000000
(1.989000) can0 102#22B3480494FAA009
(1.991000) can0 3A1#C1FFFF353D003021
(1.992000) can0 2E3#03000021020B00
(1.993000) can0 261#3140230090497ADD
(1.994000) can0 263#04000000901C0000
(1.994000) can0 266#08000F310E004F01
(1.995000) can0 129#B222EA5FF61FFF3F
(1.996000) can0 292#487E082593010000
(1.996000) can0 712#0300000000000000
(1.999000) can0 400#00E0FBBEEFFB00
(1.999000) can0 225#5555FA00
(2.003000) can0 2E1#398D2AFF0F000000
(2.005000) can0 3C8#0500000000000000
(2.007000) can0 283#000000004000
(2.009000) can0 39A#2013EF76032FEF7E
(2.011000) can0 201#0300000000000000
(2.014000) can0 7B5#030000
(2.016000) can0 132#DE8F7AFF383F
(2.019000) can0 1F8#1A000000
(2.020000) can0 25D#3741012A04F08803
(2.020000) can0 448#20001010000010
(2.023000) can0 2F9#BCFB07030D1A8B84
(2.025000) can0 123#00001392D2000000
(2.027000) can0 227#0000000053000080
(2.029000) can0 288#0106184C0060D126
(2.031000) can0 3A3#16C00000380DFC01
(2.033000) can0 2E5#000010320000DD00
(2.035000) can0 263#89E6D1A7B74F5F1F
(2.037000) can0 2A8#0101000006008032
(2.039000) can0 20E#160600
(2.042000) can0 407#150A000000000000
(2.045000) can0 118#5D63950000C88400
(2.047000) can0 1D6#02080000CA7FF707
(2.049000) can0 45A#A4C0BFC05F2B4837
(2.051000) can0 119#00000000
(2.053000) can0 2E5#000010320000DD00
(2.055000) can0 318#1A06380D101835DD
(2.057000) can0 118#6E64950000C89400
(2.058000) can0 261#0522CCC99A42B03E
(2.059000) can0 1D5#290000000000E0DF
(2.060000) can0 2E2#0714504001000000
(2.060000) can0 1BB#02
(2.061000) can0 3E3#04000000
(2.062000) can0 1D8#293600000000E018
(2.063000) can0 118#3F65950000C86400
(2.064000) can0 757#3200000000000000
(2.065000) can0 129#4429EA5F0020FF3F
(2.066000) can0 553#0000000000000058
(2.066000) can0 1FA#1AC001
(2.069000) can0 2C1#0219160000D09201
(2.069000) can0 78A#01000300AE048902
(2.072000) can0 383#A7181E00CD30E20B
(2.072000) can0 1E5#286C04000000007E
(2.073000) can0 261#00100100FF4FC015
(2.074000) can0 132#EE8F7CFF383F
(2.074000) can0 266#08000F310E005001
(2.075000) can0 221#6055551554515138
(2.076000) can0 682#0000004004110035
(2.077000) can0 381#5200000000003C03
(2.077000) can0 423#00001000000000
(2.079000) can0 1D5#290000000000201F
(2.080000) can0 211#C01C710F1001
(2.080000) can0 204#010000FF00000010
(2.081000) can0 264#3F000000A000
(2.082000) can0 2E5#000010320000DD00
(2.083000) can0 3AE#074000080000F141
(2.083000) can0 266#08000F310E005001
(2.084000) can0 201#0200000000000000
(2.085000) can0 129#6A2BEA5F0020FF3F
(2.086000) can0 7AA#0C00000000000039
(2.086000) can0 37A#D10C000000000000
(2.087000) can0 3A2#0110200000000000
(2.088000) can0 2EC#574085
(2.088000) can0 1D5#290000000000403F
(2.090000) can0 261#31402B009149DA46
(2.091000) can0 3A1#C1FFFF233D00502F
(2.092000) can0 2E5#000010320000DD00
(2.092000) can0 1E5#286C0400000040BE
(2.093000) can0 359#2200000000000000
(2.094000) can0 118#7268950000C89400
(2.095000) can0 2B3#0900F02B00008B05
(2.095000) can0 212#5904000081FF7731
(2.096000) can0 2D2#F02EB24E8813E822
(2.097000) can0 712#0400000000000000
(2.100000) can0 400#00E0FBBEEFFB00
(2.102000) can0 272#080003D107B00304
(2.102000) can0 118#9369950000C8B400
(2.103000) can0 257#4555635802A83101
(2.105000) can0 132#DD8F7DFF2C3F
(2.105000) can0 283#000000004000
(2.108000) can0 441#E800B6C358001537
(2.108000) can0 282#943CF20818040324
(2.109000) can0 201#0300000000000000
(2.110000) can0 285#61018E0308002E00
(2.110000) can0 3E2#040000411FCF00
(2.111000) can0 3C0#0900000000000000
(2.112000) can0 1D8#29360000000080B8
(2.113000) can0 2E1#026D66021E760000
(2.113000) can0 263#700ED29FA74F5F1F
(2.114000) can0 266#08000F310E005001
(2.117000) can0 719#0CC30F0059096000
(2.117000) can0 103#22B38804A2F02032
(2.119000) can0 75D#525BAE000000004A
(2.120000) can0 25D#3741012A04F08803
(2.120000) can0 448#20001010000010
(2.121000) can0 2F9#BCFB070800000000
(2.122000) can0 1D8#293600000000A0D8
(2.123000) can0 3AE#0740000800000151
(2.123000) can0 257#4656635802A83101
(2.124000) can0 243#01FC374836005B5B
(2.125000) can0 129#362FEA5F0020FF3F
(2.125000) can0 545#010000000010B00B
(2.126000) can0 31A#20010000000080BE
(2.127000) can0 288#0106184C0060E136
(2.130000) can0 23E#00003AC002FF8FCA
(2.130000) can0 677#0200000000000000
(2.132000) can0 2E5#000010320000DD00
(2.135000) can0 263#89E6D1A7B74F5F1F
(2.135000) can0 2A8#0101000006009042
(2.138000) can0 552#00000000000080D7
(2.140000) can0 1D5#290000000000E0DF
(2.142000) can0 3A1#884C0FCA001462E3
(2.142000) can0 1E5#286C0400000060DE
(2.143000) can0 266#08000F310E005001
(2.144000) can0 108#13BE01DA00311B25
(2.144000) can0 243#02FCC30D05D90000
(2.145000) can0 268#1F0FA101FF
(2.146000) can0 395#091212610902037D
(2.147000) can0 422#700010000000
(2.147000) can0 4E3#00AC01FF0F002800
(2.149000) can0 207#0000000000000000
(2.152000) can0 2C2#2040404B010080CB
(2.152000) can0 195#000000000A002706
(2.153000) can0 318#1A06380D101837DF
(2.154000) can0 1E5#286C04000000007E
(2.154000) can0 27A#C0BFFC00C0056202
(2.155000) can0 666#0000C800
(2.156000) can0 7FF#09EF000010000000
(2.157000) can0 340#0A00002000000000
(2.157000) can0 396#091E1E5751570B7D
(2.158000) can0 439#0000000000185A04
(2.159000) can0 545#020004000000C010
(2.160000) can0 1D5#290000000000201F
(2.160000) can0 285#02A800000000B200
(2.162000) can0 3C3#5555550100000000
(2.163000) can0 2E5#000010320000DD00
(2.163000) can0 1E5#286C04000000209E
(2.164000) can0 132#F28F7BFF383F
(2.165000) can0 257#4858635802A83101
(2.166000) can0 372#0AA05006010000AA
(2.166000) can0 43B#037F00FF00000000
(2.167000) can0 1FA#1AC001
(2.168000) can0 7AA#C0E38E3C00088C29
(2.171000) can0 1D5#290000000000403F
(2.171000) can0 310#0A016C1004008700
(2.172000) can0 1D8#2936000000004078
(2.173000) can0 682#0000004004111045
(2.173000) can0 263#0300000000000000
(2.175000) can0 266#08000F310E005001
(2.176000) can0 54F#0000000000000000
(2.177000) can0 2E1#1021040010000004
(2.177000) can0 423#00001000000000
(2.180000) can0 22B#FFFFFF3F00FFFF3F
(2.180000) can0 3AE#0740000800002070
(2.181000) can0 264#3E000000A000
(2.182000) can0 2E5#000010320000DD00
(2.182000) can0 118#4B61950000C87400
(2.183000) can0 257#4959635802A83101
(2.184000) can0 132#F08F7BFF2B3F
(2.185000) can0 3A4#0000000000000000
(2.185000) can0 381#15805B6D6D000001
(2.186000) can0 3F5#0000C838820C0000
(2.188000) can0 3F5#0000C838830C0000
(2.191000) can0 1D5#290000000000807F
(2.191000) can0 2E3#94926020850400
(2.192000) can0 1D8#29360000000080B8
(2.193000) can0 2E1#398D2AFF0F000000
(2.193000) can0 132#EC8F7BFF263F
(2.194000) can0 266#08000F310E005001
(2.195000) can0 129#E226E95F0020FF3F
(2.196000) can0 292#487E082593010000
(2.196000) can0 392#0111A467000A0300
(2.197000) can0 45A#FD07F8FF03004211
(2.198000) can0 400#00E0FBBEEFFB00
(2.199000) can0 1D5#290000000000A09F
(2.199000) can0 225#5555FA00
(2.202000) can0 261#B2291A02805C420B
(2.203000) can0 118#8D63950000C8B400
(2.204000) can0 132#EB8F7BFF2C3F
(2.205000) can0 129#9C27E95FFF1FFF3F
(2.205000) can0 283#000000004000
(2.208000) can0 39D#FD55E12700
(2.208000) can0 421#021A0000002000
(2.209000) can0 1D5#290000000000C0BF
(2.210000) can0 2E1#026D66021E760000
(2.210000) can0 443#6E03FF030000
(2.211000) can0 3C0#0A00000000000000
(2.212000) can0 2D3#F100AA022A102644
(2.213000) can0 1E5#286C0400000040BE
(2.214000) can0 132#EA8F7BFF353F
(2.214000) can0 263#700ED29FA74F5F1F
(2.216000) can0 129#1228E85FFE1FFF3F
