(0.000000) can0 119#00000000
(0.003000) can0 39D#2367F52700
(0.007000) can0 1D5#290000000000C0BF
(0.009000) can0 201#00324E000080FF00
(0.011000) can0 129#3524F15F0120FF3F
(0.013000) can0 2A8#01010000060000B2
(0.015000) can0 3A2#6045F3A71C804175
(0.017000) can0 1D8#29C680170000409F
(0.020000) can0 2E5#000013320000DD00
(0.020000) can0 282#9468A20928540324
(0.021000) can0 20E#150500
(0.024000) can0 53E#0B000C010100FFFF
(0.024000) can0 25D#3741012A04F08803
(0.025000) can0 118#B269950000C8D4FF
(0.026000) can0 266#1E00123212004401
(0.028000) can0 126#34E82F64D6
(0.028000) can0 2B6#000300
(0.029000) can0 340#0200000000000000
(0.030000) can0 3C3#5555550100000000
(0.030000) can0 407#1005000000000000
(0.031000) can0 249#3F080000
(0.032000) can0 553#000000000000F048
(0.033000) can0 52F#0006545D6DF92480
(0.033000) can0 234#2FE0022BAD04C048
(0.034000) can0 39D#2569F52700
(0.035000) can0 261#052280C99A425092
(0.035000) can0 55A#0100000000000000
(0.036000) can0 666#0000C800
(0.037000) can0 7FF#0500000120008000
(0.038000) can0 458#00002000000000
(0.039000) can0 339#02F1FE008007800F
(0.040000) can0 7D7#3225000000000000
(0.041000) can0 7AA#232EFA700813001C
(0.044000) can0 423#00001000000000
(0.044000) can0 2D3#CE007502331E314F
(0.045000) can0 334#3F3F1408FF01C293
(0.046000) can0 3FD#0000003C20000180
(0.048000) can0 132#958E20FE7B3C
(0.048000) can0 2F1#025A350142000000
(0.049000) can0 2C3#0000C04B010040CB
(0.052000) can0 261#00100900FF4F60BD
(0.054000) can0 3AE#0A400008000071C4
(0.054000) can0 381#22A2F027F1200000
(0.055000) can0 1D8#29C440170000C0DD
(0.057000) can0 118#066C950000C82400
(0.057000) can0 201#0200000000000000
(0.058000) can0 439#0000000000185A04
(0.059000) can0 45A#FD07F8FF03009700
(0.060000) can0 129#C029F15F0020FF3F
(0.062000) can0 211#BF1B710F1001
(0.062000) can0 2C1#2304900000000000
(0.065000) can0 3A1#C1FFFF633D00304F
(0.065000) can0 132#958E21FE823C
(0.066000) can0 1E5#286C0400000060DE
(0.069000) can0 43B#017F00FF00000000
(0.069000) can0 23E#00003AC002FF3F7A
(0.070000) can0 283#000000004000
(0.071000) can0 2E2#F713504001000000
(0.074000) can0 3AE#0A400008000080D3
(0.076000) can0 2E1#398D2AFF0F000000
(0.078000) can0 266#1E00123212004401
(0.080000) can0 263#700ED29FA74F5F1F
(0.082000) can0 22A#0000D916
(0.084000) can0 103#22B38804A2EE2032
(0.086000) can0 242#55558600
(0.088000) can0 257#2030695F0A903401
(0.089000) can0 195#400000000A002706
(0.090000) can0 27A#B3BEFC00B4056202
(0.091000) can0 396#091E1D4C4342117D
(0.091000) can0 204#010000FF00000010
(0.092000) can0 2B4#3305440E6501
(0.093000) can0 25B#D38000056A8600A3
(0.094000) can0 3A3#12D00000380DFC01
(0.095000) can0 1D5#290000000000E0DF
(0.096000) can0 3FD#01000A0000080280
(0.098000) can0 1E5#286C0400000040BE
(0.098000) can0 261#E34B0A0000409503
(0.099000) can0 263#49FED1A7A72F5F1F
(0.100000) can0 129#9C2DF15F0020FF3F
(0.101000) can0 393#080001C107B00304
(0.101000) can0 376#04FFFFFFFF4B4A4B
(0.102000) can0 757#464C4C4D4C424B4C
(0.103000) can0 228#0106184C0060D1C6
(0.104000) can0 227#0705350055000081
(0.104000) can0 288#0106184C0060F146
(0.105000) can0 118#8A61950000C8B4FF
(0.107000) can0 122#00001392D2000000
(0.107000) can0 2E1#FB1F7D29967A0900
(0.108000) can0 2E5#000013320000DD00
(0.109000) can0 45A#A4C444C05F2D4F36
(0.110000) can0 129#2A2EF15FFF1FFF3F
(0.110000) can0 2E8#0101000006003022
(0.113000) can0 2A8#01010000060010C2
(0.113000) can0 39D#276BF52700
(0.116000) can0 261#3413104B0040A47C
(0.116000) can0 266#1F00123212004401
(0.117000) can0 719#0300000000000000
(0.118000) can0 2E5#000013320000DD00
(0.118000) can0 263#020080060D333321
(0.121000) can0 129#B22FF15F0020FF3F
(0.122000) can0 41D#00
(0.123000) can0 22B#FF7F000080FFFFFF
(0.123000) can0 2F9#BCFB070800000000
(0.124000) can0 3C3#0000000000A50000
(0.125000) can0 1D5#290000000000403F
(0.126000) can0 1E5#286C04000000209E
(0.126000) can0 126#32D8306CCD
(0.127000) can0 128#0000EC0A02
(0.128000) can0 268#64128F01E9
(0.129000) can0 243#0300000033513100
(0.129000) can0 381#0400000000000000
(0.133000) can0 261#052280C99A42B0F2
(0.135000) can0 289#D21208449D003D8F
(0.137000) can0 132#A38E24FE803C
(0.139000) can0 7D5#2C3E3F0000000000
(0.142000) can0 129#4021F15F0020FF3F
(0.144000) can0 423#00001000000000
(0.145000) can0 294#14C1400040000000
(0.146000) can0 266#1F00123212004401
(0.146000) can0 261#00100900FF4FC01D
(0.147000) can0 545#01000000001080DB
(0.148000) can0 3FD#0200000000000090
(0.150000) can0 552#00000000000080D7
(0.151000) can0 39B#0310DF80B088C008
(0.151000) can0 3F2#0129F26900000000
(0.152000) can0 492#2503FF0F280000
(0.155000) can0 39D#286CF52700
(0.157000) can0 132#A18E2AFE8B3C
(0.159000) can0 201#0200000000000000
(0.162000) can0 3F5#0000C838820C0000
(0.164000) can0 261#314023007F49DA2C
(0.166000) can0 304#0000000000000000
(0.169000) can0 257#2C34695F0A983401
(0.172000) can0 283#000000004000
(0.174000) can0 22B#FF7F000080FFFFFF
(0.176000) can0 1D8#29C200170000401B
(0.176000) can0 266#1E00123212004401
(0.177000) can0 234#2BE103804300F461
(0.178000) can0 2E5#000013320000DD00
(0.178000) can0 261#52293D02805CE26E
(0.179000) can0 3E8#0000000000000000
(0.180000) can0 3C8#0200000000000000
(0.181000) can0 441#EB00B6C35800153A
(0.182000) can0 421#021A0000002000
(0.183000) can0 2BF#00000000000001
(0.184000) can0 443#7106FF030000
(0.184000) can0 242#55558600
(0.185000) can0 132#928E2FFEA13C
(0.186000) can0 266#1E00123212004401
(0.187000) can0 2EC#575095
(0.189000) can0 2E5#000013320000DD00
(0.189000) can0 243#01FC364F35005A5A
(0.190000) can0 129#5526F15F0020FF3F
(0.191000) can0 292#51A6886595010000
(0.191000) can0 2D2#ED2EAD4EFB0CE822
(0.192000) can0 31A#20010000000080BE
(0.193000) can0 37A#D20D000025000026
(0.194000) can0 3D3#000000
(0.195000) can0 7AA#05E2870D40081300
(0.196000) can0 1D8#29C2C0160000801A
(0.197000) can0 1E5#286C04000000007E
(0.197000) can0 401#022A8D9493949694
(0.198000) can0 757#2C3F3E0000000000
(0.199000) can0 102#22B3880494FAA009
(0.200000) can0 287#31343032D8020000
(0.200000) can0 393#0380610000000000
(0.203000) can0 2E1#FB1F7B1996740900
(0.203000) can0 677#0200000000000000
(0.204000) can0 6A2#0000000000
(0.205000) can0 1D8#29C200170000A07B
(0.205000) can0 132#938E28FE7F3C
(0.206000) can0 266#1F00123212004401
(0.208000) can0 201#00314E000080FF00
(0.208000) can0 243#02FC5B0E03EB0000
(0.209000) can0 39A#1C17EB660BEBBA7E
(0.212000) can0 261#3413084B004004D4
(0.212000) can0 4E3#00AC01FF0F002800
(0.213000) can0 3AE#0B4000080000D125
(0.216000) can0 3A1#884C0FCA001062DF
(0.216000) can0 266#1F00123212004401
(0.217000) can0 719#150003AD00000000
(0.218000) can0 2E5#000013320000DD00
(0.218000) can0 2E1#0400000000202000
(0.219000) can0 343#009264CE94000000
(0.220000) can0 282#9C68920928540324
(0.221000) can0 40A#0910000000004067
(0.222000) can0 75D#0300800000000000
(0.223000) can0 25D#3741012A04F08803
(0.224000) can0 22B#FF7F000080FFFFFF
(0.225000) can0 3C3#5555550100000000
(0.225000) can0 1D8#29C200170000E0BB
(0.226000) can0 108#0D1E060A03911D25
(0.227000) can0 128#0000EC0A02
(0.227000) can0 234#2FE0022BAD040088
(0.228000) can0 279#35BEFC01B4056502
(0.229000) can0 22B#FF3F000080FFFFFF
(0.230000) can0 397#03E07F951C160000
(0.230000) can0 229#4C0800
(0.231000) can0 441#31858900320018F2
(0.232000) can0 113#019701
(0.233000) can0 318#1A06360B102939EE
(0.234000) can0 39D#2A6EF52700
(0.235000) can0 381#0700000000000000
(0.235000) can0 1E5#286C04000000007E
(0.236000) can0 118#186E950000C83400
(0.237000) can0 383#BD181600C312072A
(0.238000) can0 2E5#000013320000DD00
(0.238000) can0 315#0200041700000000
(0.239000) can0 726#0E0000
(0.240000) can0 129#EE2BF15F0020FF3F
(0.241000) can0 3D5#4D4C4D4D4E2B0157
(0.241000) can0 7D7#3225000000000000
(0.242000) can0 335#0D0000007CB4F866
(0.243000) can0 261#00100900FF4F207D
(0.244000) can0 423#00001000000000
(0.245000) can0 3E5#0000000000000000
(0.246000) can0 1D8#29C20017000020FB
(0.247000) can0 266#1F00123212004501
(0.247000) can0 36B#0000000000000000
(0.248000) can0 36E#0000000000000000
(0.249000) can0 552#00000000000090E7
(0.250000) can0 2C3#0000C04B010040CB
(0.251000) can0 7D5#46504F5B4E434E4F
(0.255000) can0 238#8839F61C3E00E833
(0.257000) can0 1D8#29C200170000401B
(0.259000) can0 201#0200000000000000
(0.261000) can0 45A#FD07F8FF03009700
(0.263000) can0 211#C11D710F1001
(0.265000) can0 3A1#C1FFFF633D00708F
(0.269000) can0 132#A48E2DFE993C
(0.270000) can0 129#702EF25F0020FF3F
(0.270000) can0 2D1#FF01
(0.271000) can0 3C2#2955000000000000
(0.274000) can0 3AE#0B4000080000F044
(0.274000) can0 261#52293D02805C42CE
(0.275000) can0 1D5#290000000000201F
(0.276000) can0 372#0264003FB0368860
(0.276000) can0 3C0#0200000000000000
(0.277000) can0 1FA#1AC001
(0.278000) can0 3A2#B2ACFFFF03000000
(0.279000) can0 22B#FF3F000080FFFFFF
(0.279000) can0 545#020003000000C00F
(0.280000) can0 249#130D0000
(0.281000) can0 139#00
(0.282000) can0 414#1233585646544756
(0.283000) can0 201#0300000000000000
(0.284000) can0 677#0400000000000000
(0.284000) can0 1D8#29C2C0160000A03A
(0.285000) can0 132#A08E2CFE8E3C
(0.286000) can0 266#1E00123212004501
(0.287000) can0 252#A331F27700FC0F00
(0.287000) can0 3D8#1F001A00
(0.288000) can0 186#6100000200961D25
(0.289000) can0 123#00001392D2000000
(0.290000) can0 2AA#573033
(0.290000) can0 20A#F61509821801
(0.291000) can0 261#E34B0A00004055C3
(0.292000) can0 204#010000FF00000010
(0.292000) can0 2B4#3305450E6501
(0.294000) can0 25B#D38000056A8620C3
(0.295000) can0 286#FFFFFFFF31
(0.295000) can0 3D8#1F001A00
(0.296000) can0 386#0000000000000000
(0.297000) can0 1D5#290000000000605F
(0.298000) can0 359#38040000FC6A1300
(0.298000) can0 266#1F00123212004501
(0.299000) can0 401#072A8294A4949094
(0.300000) can0 757#2C3F3E0000000000
(0.301000) can0 102#22B3880494FAA009
(0.301000) can0 2E1#FB1F7D19967C0900
(0.302000) can0 393#080001B907B00304
(0.305000) can0 247#500EFF1700150300
(0.305000) can0 1D5#290000000000807F
(0.307000) can0 122#00001392D2000000
(0.308000) can0 201#00334E000080FF00
(0.308000) can0 243#02FC630E03EB0000
(0.309000) can0 39A#61FFFDFDFD01000A
(0.310000) can0 23E#00003AC002FF9FDA
(0.311000) can0 2E8#0101000006005042
(0.313000) can0 2A8#01010000060030E2
(0.313000) can0 39D#1C60F52700
(0.316000) can0 2E1#0400000000202000
(0.316000) can0 266#1E00123212004501
(0.317000) can0 43B#027F00FF00000000
(0.318000) can0 409#00
(0.318000) can0 343#00925CAE94000000
(0.319000) can0 448#20001010000010
(0.321000) can0 282#9C6892091C540324
(0.323000) can0 41D#00
(0.323000) can0 2F9#BCFB071800000000
(0.324000) can0 307#000000000000003B
(0.325000) can0 3E3#04000000
(0.325000) can0 132#9B8E2FFE953C
(0.326000) can0 108#140F0612039F1D25
(0.327000) can0 1F8#1A000000
(0.327000) can0 1D6#420800008A088108
(0.328000) can0 279#36BFFC01B4056502
(0.329000) can0 2E5#000013320000DD00
(0.330000) can0 397#03E07F951C160000
(0.330000) can0 3F9#0100000000000000
(0.331000) can0 54F#0000000000000000
(0.332000) can0 113#019701
(0.333000) can0 201#0158980001000000
(0.336000) can0 1D8#29C0C016000040D8
(0.336000) can0 401#092A8C9492949094
(0.337000) can0 383#BD181600C312072A
(0.338000) can0 2E5#000013320000DD00
(0.338000) can0 7D5#3200000000000000
(0.339000) can0 2B3#6900F02D00002412
(0.342000) can0 4E2#00D1000000002800
(0.342000) can0 423#00001000000000
(0.343000) can0 381#0A00000000000000
(0.344000) can0 3A2#0110200000000000
(0.344000) can0 118#B269950000C8D4FF
(0.345000) can0 285#02A800000000B200
(0.346000) can0 355#800C00FF940000
(0.349000) can0 257#353D695F0A983401
(0.351000) can0 7AA#0732FE2DFEFCFC48
(0.353000) can0 3AE#0B40000800001064
(0.355000) can0 39D#1D61F52700
(0.357000) can0 132#9C8E33FEA23C
(0.359000) can0 201#0200000000000000
(0.361000) can0 3F5#0000C838820C0000
(0.364000) can0 211#C21E710F1001
(0.365000) can0 118#156B950000C83400
(0.366000) can0 1D8#29BE80160000A0F6
(0.366000) can0 257#363E695F0A983401
(0.367000) can0 719#0003140F14050E00
(0.370000) can0 243#00FCCF0C97440D29
(0.370000) can0 283#000000004000
(0.371000) can0 3A8#0300000000000000
(0.375000) can0 6A1#0000000000
(0.375000) can0 132#A88E34FEB23C
(0.376000) can0 118#C56C950000C8E4FF
(0.377000) can0 3A2#B2ACFFFF03000000
(0.377000) can0 22B#FF3F000080FFFFFF
(0.378000) can0 263#700ED29FA74F5F1F
(0.379000) can0 381#0B00000000000000
(0.380000) can0 129#C029F15F0020FF3F
(0.380000) can0 22A#0000D916
(0.381000) can0 421#021A0000002000
(0.384000) can0 2C1#0400000000000000
(0.384000) can0 242#55558600
(0.385000) can0 1D5#290000000000807F
(0.386000) can0 266#1E00123212004501
(0.387000) can0 252#B531F27700FC0F00
(0.388000) can0 186#5101000200851D25
(0.389000) can0 123#01000000003F0000
(0.389000) can0 23E#00003AC002FFBFFA
(0.390000) can0 129#2C2AF25F0020FF3F
(0.391000) can0 2C4#166C370700000001
(0.392000) can0 2A4#D03FFEF2C15FFF4D
(0.392000) can0 364#3C82D41F
(0.393000) can0 224#0408004019011008
(0.394000) can0 39D#1E62F52700
(0.395000) can0 293#020C55905514AFA0
(0.395000) can0 1D8#29BA401600000012
(0.396000) can0 132#9A8E3EFEB33C
(0.397000) can0 266#1D00123212004501
(0.398000) can0 401#0C2A90948C949D94
(0.399000) can0 757#3200000000000000
(0.400000) can0 129#702BF25F0120FF3F
(0.401000) can0 393#0380610000000000
(0.404000) can0 261#3413084B0040C494
(0.406000) can0 288#0106184C00602176
(0.408000) can0 1E5#286C04000000209E
(0.410000) can0 243#02FC630E03EB0000
(0.412000) can0 2E1#0400000000202000
(0.414000) can0 4E3#0200000000002800
(0.416000) can0 381#0C00000000000000
(0.419000) can0 401#0D2A929494948D94
(0.420000) can0 282#9C68920914540324
(0.421000) can0 20E#110100
(0.424000) can0 75D#0400000000000000
(0.425000) can0 38D#568BAAAAAA244902
(0.426000) can0 266#1D00123212004501
(0.427000) can0 257#2931695F0A983401
(0.427000) can0 1F8#1A000000
(0.428000) can0 22B#FF3F000080FFFFFF
(0.429000) can0 243#0300000033513100
(0.429000) can0 395#090F114D0F07087D
(0.430000) can0 129#DD2EF25F0120FF3F
(0.431000) can0 249#9B000000
(0.432000) can0 553#0000000000003088
(0.432000) can0 201#0158980001000000
(0.433000) can0 7FF#09EF000010000000
(0.434000) can0 289#D2120884A1003D8F
(0.435000) can0 1D8#29BAC01500008011
(0.436000) can0 1E5#286C04000000007E
(0.437000) can0 383#BD181600C312072A
(0.438000) can0 241#36320C0F8F5500
(0.438000) can0 7D7#3225000000000000
(0.441000) can0 129#2C2FF25F0120FF3F
(0.443000) can0 423#00001000000000
(0.443000) can0 3A2#0110200000000000
(0.444000) can0 1F9#0000000000000000
(0.445000) can0 253#0064A6C66490B505
(0.445000) can0 213#E8FD
(0.446000) can0 132#A68E35FE9F3C
(0.447000) can0 1E5#286C04000000209E
(0.448000) can0 2E5#000013320000DD00
(0.448000) can0 2F1#06DA320142000100
(0.450000) can0 2C3#0000C04B010040CB
(0.451000) can0 381#0D00000000000000
(0.455000) can0 3AE#0D40000800004197
(0.455000) can0 132#9C8E3CFEB93C
(0.456000) can0 118#4D64950000C874FF
(0.457000) can0 401#0F2A7E9499947F94
(0.457000) can0 201#0200000000000000
(0.458000) can0 439#0000000000185A04
(0.459000) can0 2B3#0B43DEFEFF01600C
(0.460000) can0 129#F221F35F0220FF3F
(0.463000) can0 211#C31F710F1001
(0.465000) can0 225#5555FA00
(0.465000) can0 132#A28E3EFEB63C
(0.466000) can0 1E5#286C0400000060DE
(0.469000) can0 719#6EB107005D080014
(0.470000) can0 23E#00003AC002FFDF1A
(0.471000) can0 2E2#0100004F020B0000
(0.474000) can0 39D#2064F52700
(0.474000) can0 379#050034FA800D0006
(0.475000) can0 1D5#290000000000A09F
(0.476000) can0 3A2#A2ACFFFF03000000
(0.476000) can0 266#1D00123212004501
(0.477000) can0 6A1#0000000000
(0.478000) can0 2E5#000013320000DD00
(0.479000) can0 22B#FF3F000080FFFFFF
(0.479000) can0 129#0123F35F0320FF3F
(0.480000) can0 249#E8010000
(0.481000) can0 139#00
(0.484000) can0 103#22B38804A2EE2032
(0.485000) can0 242#55558600
(0.486000) can0 1E5#286C04000000209E
(0.486000) can0 2D2#ED2EAE4EEA0CE822
(0.487000) can0 292#51A6886595010000
(0.488000) can0 2AA#575053
(0.489000) can0 123#00001392D2000000
(0.489000) can0 243#01FC354F34005A5A
(0.490000) can0 129#8724F35F0320FF3F
(0.491000) can0 2E1#FB1F7D1996740900
(0.492000) can0 204#010000FF00000010
(0.492000) can0 360#0700000000000000
(0.495000) can0 25B#D38000056A8640E3
(0.495000) can0 1D8#29BC001600004014
(0.496000) can0 3B3#8C8004300100A800
(0.497000) can0 118#D168950000C8F4FF
(0.498000) can0 788#ACCCB1830000A600
(0.499000) can0 102#22B3880494FAA009
(0.500000) can0 757#3200000000000000
(0.508000) can0 2C1#50407E00008A0200
(0.513000) can0 243#02FC5B0E03EB0000
(0.515000) can0 39D#2165F52700
(0.517000) can0 132#9D8E34FE9F3C
(0.519000) can0 2E5#000013320000DD00
(0.521000) can0 448#20001010000010
(0.523000) can0 41D#00
(0.525000) can0 25D#3741012A04F08803
(0.528000) can0 1D8#29BE40160000A0B6
(0.528000) can0 2E5#000013320000DD00
(0.529000) can0 22B#FF3F000080FFFFFF
(0.531000) can0 3E3#04000000
(0.531000) can0 441#318589003200300A
(0.532000) can0 414#1000000000434956
(0.533000) can0 405#100000000035594A
(0.534000) can0 318#1A06360B10293FF4
(0.534000) can0 7FF#0191494642041601
(0.535000) can0 1D8#29BE80160000C016
(0.536000) can0 420#2801404B00008004
(0.537000) can0 7D5#2BA0FFFE00000000
(0.537000) can0 7D5#2C3E3F0000000000
(0.538000) can0 241#36320C0F8F5500
(0.539000) can0 263#0300000000000000
(0.540000) can0 129#4D29F45F0320FF3F
(0.542000) can0 4E2#025D040000002800
(0.543000) can0 423#00001000000000
(0.544000) can0 1F9#0000000000000000
(0.545000) can0 118#B66D950000C8D4FF
(0.545000) can0 333#0410590700
(0.546000) can0 132#928E2DFE9A3C
(0.547000) can0 3FD#0000003C20000180
(0.549000) can0 1E5#286C0400000060DE
(0.549000) can0 2C3#555BA9B682C112AA
(0.552000) can0 119#00000000
(0.554000) can0 39D#2266F52700
(0.556000) can0 2E1#398D2AFF0F000000
(0.558000) can0 266#1E00123212004501
(0.560000) can0 381#100000C000000000
(0.562000) can0 319#1303000000000000
(0.564000) can0 261#52293D02805C62EE
(0.568000) can0 3A1#C1FFFF633D00D0EF
(0.568000) can0 243#00FCCF0C97440D29
(0.571000) can0 129#AE2CF45F0220FF3F
(0.571000) can0 3C2#2955000000000000
(0.574000) can0 3AE#0E400008000081D8
(0.576000) can0 3A2#A2ACFFFF03000000
(0.576000) can0 266#1E00123212004501
(0.577000) can0 545#020002000000509E
(0.578000) can0 1FA#1AC001
(0.578000) can0 261#E34B0A00004075E3
(0.579000) can0 3E8#0400000000000000
(0.580000) can0 3C8#0600000000000000
(0.581000) can0 7AA#0A8B068B06005900
(0.581000) can0 421#021A0000002000
(0.583000) can0 103#22B38804A2EE2032
(0.586000) can0 242#55558600
(0.586000) can0 257#2129695F0A983401
(0.587000) can0 252#DD31F27700FC0F00
(0.588000) can0 2E5#000013320000DD00
(0.588000) can0 1A5#00101F18ED
(0.589000) can0 27A#B9B30C01B4056202
(0.590000) can0 129#632EF45F0220FF3F
(0.591000) can0 31A#200100000000A0DE
(0.591000) can0 204#010000FF00000010
(0.592000) can0 2B4#3305410E5A01
(0.595000) can0 39D#2367F52700
(0.595000) can0 381#1100000000000000
(0.596000) can0 3FD#01000A0000080280
(0.598000) can0 1D8#29C2C0160000801A
(0.600000) can0 287#31343032D8020000
(0.600000) can0 129#922FF45F0220FF3F
(0.603000) can0 2E1#0400000000202000
(0.603000) can0 677#0200000000000000
(0.604000) can0 227#F504330055000081
(0.605000) can0 118#FD63950000C82400
(0.605000) can0 1D8#29C200170000A07B
(0.606000) can0 1E5#286C04000000209E
(0.609000) can0 201#00324E000080FF00
(0.609000) can0 545#E00453C0977569B6
(0.612000) can0 261#052280C99A4290D2
(0.612000) can0 4E3#04A6A00A0BB00000
(0.615000) can0 3AE#0E400008000091E8
(0.616000) can0 1D8#29C400170000C09D
(0.617000) can0 719#3302600000000000
(0.618000) can0 2E5#000013320000DD00
(0.618000) can0 682#0000004004113065
(0.619000) can0 343#009264BE94000000
(0.620000) can0 129#B821F45F0120FF3F
(0.621000) can0 40A#0910000000006087
(0.623000) can0 75D#0500000000007E04
(0.623000) can0 21D#0400B50000000000
(0.626000) can0 3C3#5555550100000000
(0.626000) can0 1E5#286C0400000060DE
(0.627000) can0 1D6#420800008A088108
(0.628000) can0 261#00100900FF4FA0FD
(0.628000) can0 279#29B2FC01B4056502
(0.630000) can0 340#0800000000000000
(0.631000) can0 3F9#0400000000000000
(0.632000) can0 54F#0000000000000000
(0.632000) can0 7F4#01
(0.633000) can0 318#1A06360B102921D6
(0.634000) can0 289#D212080488003D8F
(0.634000) can0 2E1#1021040010000004
(0.635000) can0 132#908E26FE7B3C
(0.636000) can0 372#0800000000000000
(0.637000) can0 266#1F00123212004501
(0.637000) can0 339#02F1FE008007800F
(0.638000) can0 7D5#2C3E3F0000000000
(0.639000) can0 2B3#CE2B5E01401C1900
(0.640000) can0 129#E623F45F0120FF3F
(0.640000) can0 4E2#03B0010000002800
(0.644000) can0 423#00001000000000
(0.644000) can0 294#14C1400040000000
(0.645000) can0 1D5#290000000000C0BF
(0.646000) can0 266#1F00123212004501
(0.646000) can0 3FD#0200000000000090
(0.648000) can0 2E5#000013320000DD00
(0.649000) can0 2C3#0000C04B010040CB
(0.652000) can0 2E1#398D2AFF0F000000
(0.654000) can0 3AE#0E4000080000A1F8
(0.654000) can0 422#700010000000
(0.655000) can0 1D8#29C400170000401D
(0.656000) can0 401#192A979495949094
(0.656000) can0 2E3#800000CA020B00
(0.657000) can0 201#0200000000000000
(0.659000) can0 439#0000000000185A04
(0.659000) can0 3F5#0000C838820C0000
(0.660000) can0 7AA#0B48002853003600
(0.663000) can0 211#B511710F1001
(0.665000) can0 225#5555FA00
(0.665000) can0 132#8E8E29FE8E3C
(0.666000) can0 266#1F00123212004501
(0.667000) can0 2E1#026D66021BC30000
(0.667000) can0 2E5#000013320000DD00
(0.668000) can0 243#00FCCF0C97440D29
(0.671000) can0 23E#00003AC002FF2F6A
(0.671000) can0 3C2#2955000000000000
(0.674000) can0 207#0000000000000000
(0.674000) can0 379#07C0590BDDC01406
(0.676000) can0 1D5#290000000000201F
(0.677000) can0 3C0#0600000000000000
(0.677000) can0 2E5#000013320000DD00
(0.678000) can0 22B#FF3F000080FFFFFF
(0.679000) can0 3E8#0500000000000000
(0.680000) can0 129#1727F45F0020FF3F
(0.680000) can0 22A#0000D916
(0.683000) can0 421#021A0000002000
(0.683000) can0 2E1#FB1F7C1996720900
(0.684000) can0 718#04000000000000
(0.685000) can0 1D5#290000000000403F
(0.685000) can0 132#918E24FE883C
(0.686000) can0 257#363E695F0A983401
(0.687000) can0 252#EA31F27700FC0F00
(0.688000) can0 2E5#000013320000DD00
(0.689000) can0 27A#A9B4FC00B4056202
(0.690000) can0 396#091E1D4C4444117D
(0.691000) can0 261#3413084B0040E4B4
(0.691000) can0 204#010000FF00000010
(0.692000) can0 2B4#2E05460E6001
(0.693000) can0 25B#D38000056A866003
(0.696000) can0 3A3#14D00000380DFC01
(0.696000) can0 359#4300000000000000
(0.697000) can0 788#0240CD0700030000
(0.698000) can0 61D#01C178218C150410
(0.698000) can0 757#3200000000000000
(0.699000) can0 263#49FED1A7A72F5F1F
(0.700000) can0 129#FC29F45FFF1FFF3F
(0.704000) can0 2C1#50407E00008A0200
(0.704000) can0 227#F504330055000081
(0.705000) can0 1D5#290000000000807F
(0.706000) can0 122#00001392D2000000
(0.706000) can0 20C#9538361133010010
(0.707000) can0 281#3400FF1F0001
(0.708000) can0 2E5#000013320000DD00
(0.709000) can0 45A#A4C444C05F2D4F35
(0.709000) can0 3C9#0498000501010000
(0.712000) can0 2E8#0101000006009082
(0.712000) can0 4E3#D5028201001C0000
(0.713000) can0 272#080002D107B00304
(0.716000) can0 2E1#658008008236316A
(0.716000) can0 266#1F00123212004501
(0.718000) can0 719#140000000000BE00
(0.719000) can0 263#020080060D333321
(0.719000) can0 682#0000004004114075
(0.720000) can0 428#20001010000010
(0.721000) can0 3C2#0055555500006A05
(0.724000) can0 31E#0100000000000000
(0.724000) can0 677#0000000000000000
(0.725000) can0 1D5#290000000000C0BF
(0.726000) can0 266#1E00123212004501
(0.726000) can0 126#3038301CDB
(0.727000) can0 1F8#1A000000
(0.728000) can0 22B#FF3F000080FFFFFF
(0.729000) can0 2E5#000013320000DD00
(0.729000) can0 395#090F104D0E07077D
(0.731000) can0 129#B22CF45FFF1FFF3F
(0.732000) can0 553#00000000000060B8
(0.732000) can0 7FF#0301082861428001
(0.733000) can0 458#00002000000000
(0.734000) can0 289#D21208C485003D8F
(0.735000) can0 1D8#29C400170000401D
(0.735000) can0 1E5#286C0400000040BE
(0.736000) can0 118#DA60950000C80400
(0.737000) can0 383#BD181600BD12072A
(0.738000) can0 241#37324C0F8F5500
(0.738000) can0 7D7#3225000000000000
(0.739000) can0 381#15406A324D000001
(0.740000) can0 3A2#0110200000000000
(0.741000) can0 4E2#04F6C08F20080200
(0.743000) can0 545#010000000010A0FB
(0.745000) can0 1F9#0000000000000000
(0.747000) can0 284#300000004008403E
(0.749000) can0 2E5#000013320000DD00
(0.751000) can0 2C3#555BA9B682C112AA
(0.756000) can0 3E9#F0880221000040C7
(0.761000) can0 439#0000000000185A04
(0.763000) can0 211#B612710F1001
(0.765000) can0 3A1#C1FFFF693D001035
(0.767000) can0 1D8#29C640170000A0BF
(0.769000) can0 2E5#000013320000DD00
(0.771000) can0 129#6B20F45FFF1FFF3F
(0.773000) can0 3C2#2955000000000000
(0.776000) can0 6A1#0000000000
(0.779000) can0 545#020002000000B0FE
(0.781000) can0 3E8#0600000000000000
(0.783000) can0 421#021A0000002000
(0.785000) can0 201#0300000000000000
(0.787000) can0 132#958E20FE7B3C
(0.789000) can0 261#3413004B0040440C
(0.791000) can0 2AA#578083
(0.794000) can0 392#0111A467000A0300
(0.795000) can0 3A3#16D00000380DFC01
(0.796000) can0 132#818E1DFE6B3C
(0.796000) can0 266#1F00123212004501
(0.797000) can0 401#2000000000000000
(0.798000) can0 757#2C3F3E0000000000
(0.799000) can0 757#3200000000000000
(0.799000) can0 263#49FED1A7A72F5F1F
(0.801000) can0 393#0380610000000000
(0.804000) can0 261#052280C99A425092
(0.804000) can0 247#4F0EFF1500160300
(0.805000) can0 1D5#290000000000C0BF
(0.806000) can0 122#01000000003F0000
(0.806000) can0 20C#9438361133010010
(0.807000) can0 3A2#6025F3A81C804175
(0.808000) can0 545#300558009879C9B1
(0.809000) can0 45A#A4C444C05F2D4F35
(0.809000) can0 129#A424F45FFF1FFF3F
(0.810000) can0 2E1#658008008236316A
(0.811000) can0 381#1700000000000000
(0.812000) can0 2A8#0101000006008032
(0.812000) can0 4E3#0600000000000000
(0.814000) can0 3AE#0E4000080000F148
(0.815000) can0 1D8#29CA8017000040A3
(0.815000) can0 132#928E1AFE603C
(0.816000) can0 266#2000123212004501
(0.817000) can0 78A#01000100C45C9C5D
(0.818000) can0 2E5#000013320000DD00
(0.818000) can0 343#00926CBE94000000
(0.819000) can0 2B3#0077949970826E7C
(0.820000) can0 129#DA25F45F0020FF3F
(0.821000) can0 20E#150500
(0.823000) can0 75D#0682000000000000
(0.823000) can0 21D#0400B50000000000
(0.824000) can0 41D#00
(0.825000) can0 118#2369950000C84400
(0.826000) can0 1D8#29CCC01700006005
(0.827000) can0 1D6#420800008A088108
(0.828000) can0 268#65128F01E9
(0.828000) can0 2B6#000300
(0.829000) can0 2E5#000013320000DD00
(0.830000) can0 395#090F104D0F07077D
(0.831000) can0 229#310E00
(0.831000) can0 54F#0000000000000000
(0.832000) can0 113#019701
(0.833000) can0 201#0158980001000000
(0.833000) can0 39D#296DF52700
(0.836000) can0 261#3140EDFF80497A96
(0.836000) can0 118#346A950000C85400
(0.837000) can0 383#BD181600BD12072A
(0.838000) can0 241#35320C0F8F5500
(0.839000) can0 7D7#3225000000000000
(0.842000) can0 545#010000000010D02B
(0.842000) can0 423#00001000000000
(0.843000) can0 2C1#0219060000D00200
(0.846000) can0 1F9#0000000000000000
(0.846000) can0 1E5#286C04000000209E
(0.849000) can0 2E5#000013320000DD00
(0.849000) can0 295#1D2C000000000003
(0.852000) can0 261#52293D02805C820E
(0.852000) can0 7E8#1303000000000000
(0.855000) can0 3AE#0E40000800000158
(0.855000) can0 132#808E08FE4C3C
(0.856000) can0 118#066C950000C82400
(0.857000) can0 422#700010000000
(0.858000) can0 201#0200000000000000
(0.859000) can0 45A#FD07F8FF03009700
(0.860000) can0 129#9529F45F0020FF3F
(0.863000) can0 211#B713710F1001
(0.865000) can0 3A1#C1FFFF813D00306D
(0.865000) can0 1D8#29D280180000E04C
(0.866000) can0 1E5#286C0400000060DE
(0.869000) can0 719#1700000000000000
(0.871000) can0 129#232AF45FFF1FFF3F
(0.871000) can0 3C2#2955000000000000
(0.872000) can0 207#0000000000000000
(0.875000) can0 39D#4B6E152800
(0.875000) can0 132#818EFFFD3E3C
(0.876000) can0 118#186E950000C83400
(0.877000) can0 234#2BE103804300D441
(0.878000) can0 2E5#000013320000DD00
(0.879000) can0 2B3#0192898A8B808979
(0.880000) can0 129#D22BF45FFF1FFF3F
(0.880000) can0 441#EA00B6C358000D31
(0.881000) can0 421#021A0000002000
(0.884000) can0 103#22B38804A4EE2032
(0.884000) can0 737#01000000E0F080
(0.885000) can0 1D5#290000000000C0BF
(0.886000) can0 266#2100133312004501
(0.886000) can0 212#5904000081FF7731
(0.887000) can0 2D2#ED2EAE4EED0CE822
(0.888000) can0 186#5806000200871D25
(0.889000) can0 123#00001392D2000000
(0.889000) can0 352#010013019A069F03
(0.891000) can0 396#091E1E4C4545127D
(0.892000) can0 264#3C000000A000
(0.892000) can0 2B4#3005420E6801
(0.895000) can0 3A3#12D00000380DFC01
(0.895000) can0 1D8#29D6C018000040F0
(0.896000) can0 118#4A60950000C87400
(0.897000) can0 285#034A7D5277000000
(0.897000) can0 3DF#0000C00002D0001B
(0.898000) can0 757#2C3F3E0000000000
(0.899000) can0 261#052280C99A42B0F2
(0.900000) can0 129#A02DF45FFF1FFF3F
(0.900000) can0 393#080001B107B00304
(0.903000) can0 2C1#50407E00008A0200
(0.903000) can0 6A2#0000000000
(0.905000) can0 281#3300FF1F0001
(0.905000) can0 1D8#29D8001900006053
(0.906000) can0 266#2200133313004501
(0.907000) can0 257#3139695F0A983401
(0.908000) can0 201#00334E000080FF00
(0.908000) can0 243#02FC5B0E03EB0000
(0.909000) can0 39A#55FFFDFDFD01000A
(0.912000) can0 2E8#010100000600B0A2
(0.912000) can0 4E3#00AC010000002800
(0.915000) can0 39D#4C6F152800
(0.915000) can0 1D8#29DA4019000080B5
(0.916000) can0 3AA#0000000000000000
(0.919000) can0 719#0003140F14050E00
(0.919000) can0 381#1A00000000000000
(0.921000) can0 3CC#0321031B000E0900
(0.924000) can0 31E#0300000000000000
(0.924000) can0 3C3#0000000000A50000
(0.925000) can0 1D5#290000000000403F
(0.926000) can0 266#2300133313004501
(0.926000) can0 257#323A695F0A983401
(0.927000) can0 1F8#1A000000
(0.928000) can0 279#2CB5FC01B4056502
(0.929000) can0 243#0300000033513100
(0.929000) can0 3E3#04000000
(0.930000) can0 3F9#0700000000000000
(0.931000) can0 261#3140E4FF7B49DAE8
(0.932000) can0 709#9A3EC02E00922200
(0.932000) can0 458#00002000000000
(0.934000) can0 289#D21208C494003D8F
(0.935000) can0 1D8#29DCC0190000C077
(0.936000) can0 1E5#286C0400000040BE
(0.936000) can0 7D5#2B9DFFFE00000000
(0.937000) can0 7D5#2C3E3F0000000000
(0.938000) can0 2E5#000013320000DD00
(0.938000) can0 263#0300000000000000
(0.939000) can0 7D7#3226000000000000
(0.940000) can0 129#1521F45F0020FF3F
(0.941000) can0 4E2#0600000000000000
(0.944000) can0 423#00001000000000
(0.944000) can0 253#0064A6C66490B505
(0.945000) can0 1D5#290000000000807F
(0.946000) can0 132#638EE9FD153C
(0.949000) can0 257#333B695F0A983401
(0.951000) can0 23E#00003AC002FF9FDA
(0.955000) can0 39D#3D60152800
(0.957000) can0 132#638EF1FD113C
(0.959000) can0 201#0200000000000000
(0.961000) can0 3F5#0000C838820C0000
(0.963000) can0 211#B814710F1001
(0.966000) can0 3A1#C1FFFF633D00506F
(0.966000) can0 257#343C695F0A983401
(0.967000) can0 719#0100040000000000
(0.970000) can0 243#00FCCF0C97440D29
(0.970000) can0 283#000000004000
(0.971000) can0 3A2#B2ACFFFF03000000
(0.972000) can0 3C2#2955000000000000
(0.972000) can0 545#020002000000105E
(0.974000) can0 6A1#0000000000
(0.975000) can0 1D8#29DE001A0000403A
(0.975000) can0 132#728EF3FD273C
(0.976000) can0 3C0#0900000000000000
(0.977000) can0 234#2BE103804300F461
(0.978000) can0 2E5#000013320000DD00
(0.978000) can0 261#3413004B004004CC
(0.981000) can0 129#DA25F45F0020FF3F
(0.981000) can0 421#021A0000002000
(0.984000) can0 2C1#0400000000000000
(0.984000) can0 242#55558600
(0.985000) can0 1D5#29000000000000FF
(0.986000) can0 266#2300133313004401
(0.986000) can0 2E1#0400000000202000
(0.988000) can0 292#51A6886595010000
(0.989000) can0 1A5#00101F380D
(0.989000) can0 23E#00003AC002FFAFEA
(0.990000) can0 2C4#03010E40010C8000
(0.991000) can0 204#010000FF00000010
(0.992000) can0 224#0408004019011008
(0.992000) can0 396#091E1E4C4445127D
(0.993000) can0 22B#FF1F000080FFFFFF
(0.994000) can0 473#0000030000000000
(0.995000) can0 324#5FF23CD09E010000
(0.995000) can0 1D5#290000000000201F
(0.996000) can0 5F3#18F020
(0.997000) can0 266#2400133313004401
(0.998000) can0 359#4600000000000000
(0.999000) can0 2E5#000013320000DD00
(1.000000) can0 129#1727F45F0020FF3F
(1.001000) can0 393#0380610000000000
(1.002000) can0 2E1#658008008236316A
(1.006000) can0 281#3300FF1F0001
(1.008000) can0 266#2300133313004401
(1.010000) can0 243#02FC5B0E03EB0000
(1.012000) can0 261#00100800FF4F207C
(1.014000) can0 4E3#01D805FC0F002800
(1.016000) can0 3A1#884C0FCA001062DF
(1.019000) can0 719#6EA5030059030014
(1.020000) can0 129#0729F35F0020FF3F
(1.021000) can0 20E#170700
(1.023000) can0 53E#0D0100005A0D5D73
(1.024000) can0 2F9#BCFB072000000000
(1.025000) can0 118#576D950000C87400
(1.026000) can0 132#788EECFD0D3C
(1.026000) can0 1E5#286C0400000060DE
(1.027000) can0 1D6#420800008A088108
(1.028000) can0 268#65138F01E9
(1.028000) can0 340#0000000000000000
(1.029000) can0 381#22A2F027F1200000
(1.030000) can0 23E#00003AC002FFBFFA
(1.031000) can0 229#460000
(1.031000) can0 441#31858900320018F2
(1.032000) can0 553#00000000000090E8
(1.033000) can0 75D#8000000000000000
(1.034000) can0 201#0158980001000000
(1.034000) can0 414#1233585646544756
(1.036000) can0 1D5#290000000000A09F
(1.037000) can0 118#F86E950000C81400
(1.037000) can0 318#1A06370B102929DF
(1.038000) can0 3A2#0110200000000000
(1.039000) can0 241#36320C0F8F5500
(1.040000) can0 263#0300000000000000
(1.040000) can0 7D5#3200000000000000
(1.041000) can0 4E2#00D1000000002800
(1.044000) can0 423#00001000000000
(1.044000) can0 333#0410590700
(1.045000) can0 334#3F3F1408FF01E2B3
(1.046000) can0 3FD#0000003C20000180
(1.048000) can0 1D8#29DE401A0000205A
(1.048000) can0 2F1#0C2501101F000000
(1.050000) can0 243#04FCD3ECE57AFFFF
(1.053000) can0 119#00000000
(1.055000) can0 3AE#0E400008000061B8
(1.055000) can0 132#798EEBFD063C
(1.056000) can0 266#2300133313004301
(1.059000) can0 201#0200000000000000
(1.059000) can0 45A#FD07F8FF03009600
(1.060000) can0 3F5#0000C838830C0000
(1.063000) can0 211#B915710F1001
(1.065000) can0 3A1#C1FFFF773D0070A3
(1.065000) can0 1D8#29DE401A0000609A
(1.066000) can0 1E5#286C0400000060DE
(1.069000) can0 43B#017F00FF00000000
(1.069000) can0 23E#00003AC002FFCF0A
(1.072000) can0 283#000000004000
(1.074000) can0 39D#1F63F52700
(1.076000) can0 261#3413004B0040642C
(1.078000) can0 3C0#0A00000000000000
(1.080000) can0 263#700ED29FA74F5F1F
(1.082000) can0 249#130D0000
(1.084000) can0 301#0B06000000000000
(1.086000) can0 1D8#29E0801A0000A01C
(1.088000) can0 257#2A32695F0A983401
(1.089000) can0 1A5#00101F4015
(1.090000) can0 37A#CBE0010000000000
(1.090000) can0 261#052280C99A4270B2
(1.091000) can0 204#010000FF00000010
(1.092000) can0 2B4#32053E0E5C01
(1.093000) can0 22B#FF1F000080FFFFFF
(1.094000) can0 3A3#12D00000380DFC01
(1.095000) can0 1D5#290000000000605F
(1.096000) can0 273#81E13000C8021011
(1.096000) can0 3FD#01000A0000080280
(1.098000) can0 287#31343032D7020000
(1.099000) can0 221#61055555010780BB
(1.100000) can0 376#014B4B0051000000
(1.100000) can0 376#0200FFFFFFFF0000
(1.101000) can0 376#04FFFFFFFF4B4A4B
(1.102000) can0 757#464C4C4D4C424B4C
(1.103000) can0 656#1001CE18DC21FF00
(1.103000) can0 2C1#50407E00008A0200
(1.104000) can0 35A#0000000000000000
(1.105000) can0 281#3300FF1F0001
(1.106000) can0 132#788EE7FD0C3C
(1.107000) can0 261#00100800FF4F80DC
(1.108000) can0 1E5#286C0400000060DE
(1.109000) can0 2E5#000013320000DD00
(1.109000) can0 23E#00003AC002FFDF1A
(1.110000) can0 7A8#ACCCB18300008200
(1.113000) can0 2A8#010100000600B062
(1.113000) can0 39D#2064F52700
(1.116000) can0 2E1#1021040010000004
(1.116000) can0 118#3066950000C85400
(1.117000) can0 719#0D00000000000000
(1.118000) can0 3AE#0E400008000080D7
(1.118000) can0 263#020080060D333321
(1.119000) can0 343#00925CDE93000000
(1.121000) can0 282#9C68A20924540324
(1.122000) can0 41D#00
(1.122000) can0 21D#0400B50000000000
(1.123000) can0 25D#3741012A04F08803
(1.124000) can0 677#0000000000000000
(1.124000) can0 3C3#0000000000A50000
(1.125000) can0 118#2167950000C84400
(1.126000) can0 108#9617078A03A01D25
(1.127000) can0 257#2C34695F0A983401
(1.127000) can0 234#2DE0022AA90420A1
(1.128000) can0 2E5#000013320000DD00
(1.129000) can0 243#0300000033513100
(1.132000) can0 129#6024F45F0120FF3F
(1.134000) can0 458#00002000000000
(1.137000) can0 381#0500000000D46408
(1.139000) can0 339#02F1FE008007800F
(1.141000) can0 39B#0310DF80B088E028
(1.143000) can0 423#00001000000000
(1.145000) can0 22B#FF1F000080FFFFFF
(1.146000) can0 294#14C1400040000000
(1.149000) can0 3FD#0200000000000090
(1.155000) can0 2E5#000013320000DD00
(1.157000) can0 1E5#286C04000000007E
(1.159000) can0 201#0200000000000000
(1.161000) can0 3F5#0000C838820C0000
(1.163000) can0 211#BA16710F1001
(1.164000) can0 304#0000000000000000
(1.165000) can0 1D5#290000000000403F
(1.166000) can0 225#5555FA00
(1.167000) can0 719#3302600000000000
(1.170000) can0 243#00FCCF0C97440D29
(1.170000) can0 283#000000004000
(1.171000) can0 381#0600000000000000
(1.172000) can0 545#02000300000070BF
(1.175000) can0 6A1#0000000000
(1.175000) can0 1E5#286C0400000040BE
(1.176000) can0 118#B66C950000C8D400
(1.177000) can0 234#2BE10380430034A1
(1.177000) can0 2E5#000013320000DD00
(1.178000) can0 263#700ED29FA74F5F1F
(1.179000) can0 2E1#0400000000202000
(1.180000) can0 129#3829F45F0120FF3F
(1.181000) can0 330#114D393237353134
(1.184000) can0 103#22B38804A2EE2032
(1.186000) can0 118#176D950000C83400
(1.186000) can0 257#2F37695F0A983401
(1.189000) can0 2E5#000013320000DD00
(1.189000) can0 252#DA31F17700FC0F00
(1.190000) can0 129#E72AF45F0120FF3F
(1.191000) can0 2F2#1201
(1.191000) can0 204#010000FF00000010
(1.192000) can0 360#0300800000000000
(1.193000) can0 396#091E1F4C4144127D
(1.194000) can0 2B4#32053F0E5D01
(1.194000) can0 42F#BC64FE02FA00FF
(1.195000) can0 7AA#05E2870D40081000
(1.196000) can0 1D8#29E4001B00000001
(1.197000) can0 118#186E950000C83400
(1.198000) can0 757#2C3F3E0000000000
(1.199000) can0 221#610555550107A0DB
(1.200000) can0 7A8#01000000FFA18812
(1.200000) can0 393#0380610000000000
(1.203000) can0 3A2#6025F3A61C804175
(1.203000) can0 677#0200000000000000
(1.204000) can0 288#0106184C0060A1F6
(1.205000) can0 118#496F950000C86400
(1.205000) can0 132#628EDCFDF83B
(1.206000) can0 247#4B0EFF1600160300
(1.207000) can0 20C#9538361132010010
(1.208000) can0 201#00324E000080FF00
(1.208000) can0 243#02FC630E03EB0000
(1.210000) can0 39A#1817EB6203DFB27E
(1.211000) can0 2E8#010100000600E0D2
(1.214000) can0 2A8#010100000600C072
(1.214000) can0 3A1#884C0FCA0010A21F
(1.215000) can0 1D8#29E4001B00004041
(1.216000) can0 372#0127140340003401
(1.216000) can0 401#032A809479947094
(1.217000) can0 719#0300000000000000
(1.218000) can0 409#00
(1.219000) can0 419#00
(1.219000) can0 448#20001010000010
(1.220000) can0 282#9C68920918540324
(1.221000) can0 40A#09100000000090B7
(1.224000) can0 75D#0100000000000080
(1.225000) can0 3C3#5555550100000000
(1.226000) can0 108#C528079203B61D25
(1.227000) can0 257#3939695F0AA03401
(1.227000) can0 1F8#1A000000
(1.228000) can0 2B6#000300
(1.229000) can0 243#0300000033513100
(1.229000) can0 395#090F104D0E07077D
(1.230000) can0 229#520200
(1.231000) can0 441#3185890032002802
(1.234000) can0 113#019701
(1.234000) can0 261#52293D02805C028E
(1.235000) can0 1D8#29E4001B00008081
(1.236000) can0 3A2#0110200000000000
(1.236000) can0 118#DC62950000C80400
(1.237000) can0 383#BD181600BD126729
(1.239000) can0 241#36320C0F8F5500
(1.239000) can0 545#01000000001090EB
(1.240000) can0 726#000000
(1.241000) can0 3D5#4D4C4D4D4E2B0157
(1.242000) can0 7D5#3200000000000000
(1.242000) can0 335#1001CE18DC21FF00
(1.243000) can0 22B#FF1F000080FFFFFF
(1.244000) can0 3A7#0000000000000000
(1.245000) can0 1F9#0000000000000000
(1.245000) can0 3C5#0000000000000000
(1.246000) can0 1D8#29E4001B0000A0A1
(1.247000) can0 266#2400133313004401
(1.248000) can0 677#0300000000000000
(1.248000) can0 5F3#18F020
(1.249000) can0 243#04FCD3ECE57AFFFF
(1.251000) can0 2F1#2E000021F4002004
(1.252000) can0 3E9#00880200000060D6
(1.256000) can0 422#700010000000
(1.258000) can0 118#EE64950000C81400
(1.260000) can0 439#0000000000185A04
(1.262000) can0 211#BB17710F1001
(1.264000) can0 717#01CBFF52002500
(1.266000) can0 3A1#C1FFFF793D00B0E5
(1.268000) can0 257#434B695F0A983401
(1.270000) can0 243#00FCCF0C97440D29
(1.271000) can0 2E2#01000051020B0000
(1.274000) can0 39D#4568152800
(1.274000) can0 2E1#0400000000202000
(1.275000) can0 1D8#29E6001B00000003
(1.276000) can0 372#0264003E308C3875
(1.277000) can0 2E5#000013320000DD00
(1.280000) can0 381#0900000000000000
(1.280000) can0 22A#0000D916
(1.283000) can0 421#021A0000002000
(1.283000) can0 201#0300000000000000
(1.284000) can0 677#0400000000000000
(1.285000) can0 118#5167950000C87400
(1.285000) can0 132#588EDEFDF23B
(1.286000) can0 257#3C3C695F0AA03401
(1.287000) can0 252#A731F17700FC0F00
(1.288000) can0 2E5#000013320000DD00
(1.288000) can0 195#400000000A002706
(1.289000) can0 27A#AFBAFC00B4056202
(1.291000) can0 20A#F61509821801
(1.291000) can0 2C4#0625A38CCAE81500
(1.292000) can0 224#0408004019011008
(1.293000) can0 396#091E1E4C4143127D
(1.294000) can0 712#002A760C350C4B0C
(1.294000) can0 285#61018E0308002E00
(1.295000) can0 373#063C2CF55DE3181F
(1.296000) can0 7B5#030000
(1.297000) can0 1D5#290000000000E0DF
(1.297000) can0 132#648EDBFDEF3B
(1.298000) can0 359#4A040000D04D0C83
(1.299000) can0 3A0#0000000000000000
(1.300000) can0 221#610555550107C0FB
(1.300000) can0 263#49FED1A7A72F5F1F
(1.302000) can0 3A3#12D00000380DFC01
(1.303000) can0 788#0240CD0700030000
(1.303000) can0 228#0106184C00609186
(1.304000) can0 288#0106184C0060B106
(1.305000) can0 1D5#29000000000000FF
(1.306000) can0 227#F104330055000081
(1.306000) can0 266#2400133313004401
(1.307000) can0 257#4D4D695F0AA03401
(1.308000) can0 2E5#000013320000DD00
(1.308000) can0 243#02FC5B0E03EB0000
(1.309000) can0 39A#59FFFDFDFD01000A
(1.312000) can0 2E8#010100000600F0E2
(1.312000) can0 4E3#04A4A00A0BB00000
(1.315000) can0 39D#4669152800
(1.316000) can0 1E5#286C04000000007E
(1.317000) can0 78A#0100060003000000
(1.317000) can0 34A#0300000000000000
(1.318000) can0 343#009264CE94000000
(1.319000) can0 263#020080060D333321
(1.320000) can0 419#00
(1.320000) can0 282#9C6492091C540324
(1.321000) can0 3E2#040000610FCF00
(1.322000) can0 41D#00
(1.322000) can0 2C1#212B0D0A02000000
(1.323000) can0 2F9#BCFB070800000000
(1.326000) can0 3C3#0000000000A50000
(1.326000) can0 1E5#286C04000000209E
(1.327000) can0 1D6#420800008A088108
(1.328000) can0 279#30B9FC01B4056502
(1.329000) can0 340#0300000000000000
(1.330000) can0 249#2A020000
(1.331000) can0 261#52293D02805C62EE
(1.334000) can0 113#019701
(1.336000) can0 1D5#290000000000605F
(1.336000) can0 401#092A719478947694
(1.337000) can0 545#010000000010C01B
(1.338000) can0 2E5#000013320000DD00
(1.338000) can0 2E1#026D66021BC30000
(1.339000) can0 7D7#3226000000000000
(1.342000) can0 4E2#03B0010000002800
(1.342000) can0 423#00001000000000
(1.343000) can0 2C1#0219060000D00200
(1.346000) can0 1F9#0000000000000000
(1.348000) can0 266#2400133313004401
(1.350000) can0 2F1#0F4E599599533900
(1.352000) can0 381#0B00000000000000
(1.354000) can0 39D#476A152800
(1.356000) can0 2E1#FB1F7E1996790900
(1.358000) can0 266#2300133313004401
(1.360000) can0 439#0000000000185A04
(1.362000) can0 211#BC18710F1001
(1.365000) can0 261#3413084B00408454
(1.365000) can0 132#708EEAFD113C
(1.366000) can0 1E5#286C04000000209E
(1.369000) can0 719#161A002779010000
(1.369000) can0 207#0000000000000000
(1.372000) can0 283#000000004000
(1.374000) can0 6A1#0000000000
(1.375000) can0 1D8#29DE801A000040BA
(1.376000) can0 118#7A60950000C8A400
(1.376000) can0 3C0#0200000000000000
(1.377000) can0 2E5#000013320000DD00
(1.380000) can0 261#052280C99A4290D2
(1.380000) can0 22A#0000D916
(1.383000) can0 421#021A0000002000
(1.383000) can0 2BF#00000000000001
(1.386000) can0 1D8#29DE801A000060DA
(1.386000) can0 257#4141695F0AA03401
(1.387000) can0 252#B231F17700FC0F00
(1.388000) can0 2E5#000013320000DD00
(1.388000) can0 1A5#00101F582D
(1.389000) can0 27A#B0BBFC00B4056202
(1.391000) can0 37A#D20D000025000026
(1.391000) can0 204#010000FF00000010
(1.392000) can0 360#0500040000000000
(1.393000) can0 712#012AA10C790C270C
(1.394000) can0 25B#D38000056A86D073
(1.394000) can0 287#31343032D7020000
(1.395000) can0 1D5#290000000000201F
(1.396000) can0 1E5#286C04000000007E
(1.397000) can0 266#2300133313004401
(1.397000) can0 3A3#14D00000380DFC01
(1.398000) can0 757#2C3F3E0000000000
(1.399000) can0 102#22B3880494FAA009
(1.400000) can0 7A8#ACCCB18300008200
(1.400000) can0 393#0380610000000000
(1.402000) can0 545#800558C09775E9DC
(1.403000) can0 228#0106184C0060A196
(1.403000) can0 6A2#0000000000
(1.404000) can0 281#3300FF1F0001
(1.405000) can0 1D5#290000000000403F
(1.406000) can0 227#EE04330055000081
(1.406000) can0 266#2300133313004401
(1.407000) can0 257#4242695F0AA03401
(1.410000) can0 243#02FC5B0E03EB0000
(1.412000) can0 261#314005007C49BAEB
(1.414000) can0 4E3#D5028201001C0000
(1.416000) can0 3A1#884C0FCA0010E25F
(1.418000) can0 401#0D2A779478947194
(1.420000) can0 2E1#398D2AFF0F000000
(1.423000) can0 448#20001010000010
(1.426000) can0 381#0D00000000000000
(1.426000) can0 1E5#286C0400000060DE
(1.427000) can0 234#2FF0022BAD048018
(1.428000) can0 261#52293D02805CC24E
(1.429000) can0 279#31BAFC01B4056502
(1.429000) can0 340#0400000000000000
(1.430000) can0 23E#00003AC002FF5F9A
(1.431000) can0 3F9#0300000000000008
(1.432000) can0 54F#0000000000000000
(1.432000) can0 318#1A06370B102931E7
(1.433000) can0 3A2#0110200000000000
(1.434000) can0 289#D20E870382003D0F
(1.435000) can0 2E1#026D66021BC30000
(1.436000) can0 545#010000000010F04B
(1.437000) can0 266#2200133313004401
(1.438000) can0 241#36320C0F8F5500
(1.438000) can0 7D5#2C3E3F0000000000
(1.439000) can0 7D7#3226000000000000
(1.442000) can0 4E2#04F8C08F21080200
(1.442000) can0 423#00001000000000
(1.443000) can0 261#E34B0A000040D543
(1.446000) can0 1F9#0000000000000000
(1.446000) can0 266#2200133312004401
(1.449000) can0 2E5#000013320000DD00
(1.449000) can0 2C3#0000C04B010040CB
(1.452000) can0 2E1#FB1F7B2996740900
(1.456000) can0 422#700010000000
(1.457000) can0 266#2200133312004401
(1.458000) can0 2E5#000013320000DD00
(1.458000) can0 261#3413104B0040E4BC
(1.459000) can0 263#0400000070140000
(1.460000) can0 3F5#0000C838820C0000
(1.463000) can0 211#BD19710F1001
(1.465000) can0 3A1#C1FFFF633D00F00F
(1.465000) can0 1D8#29D68019000060D1
(1.466000) can0 1E5#286C0400000060DE
(1.467000) can0 2E1#0400000000202000
(1.467000) can0 545#020003000000004F
(1.468000) can0 243#00FCCF0C97440D29
(1.471000) can0 23E#00003AC002FF6FAA
(1.475000) can0 39D#4A6D152800
(1.476000) can0 1E5#286C04000000007E
(1.479000) can0 2E5#000013320000DD00
(1.481000) can0 129#8527F35F0020FF3F
(1.481000) can0 421#021A0000002000
(1.484000) can0 103#22B38804A2EE2032
(1.484000) can0 718#03000000000000
(1.485000) can0 118#056B950000C82400
(1.486000) can0 242#55558600
(1.486000) can0 752#0300051000400000
(1.487000) can0 292#51A6886595010000
(1.488000) can0 186#5A0C000200831D25
(1.489000) can0 27A#B1BCFC00B4056202
(1.489000) can0 2EC#572065
(1.490000) can0 129#5228F35F0020FF3F
(1.491000) can0 261#00100700FF4F005B
(1.492000) can0 204#010000FF00000010
(1.495000) can0 287#31343032D7020000
(1.495000) can0 1D8#29D480190000C02F
(1.496000) can0 118#066C950000C82400
(1.497000) can0 3A3#14D00000380DFC01
(1.497000) can0 2E5#000013320000DD00
(1.498000) can0 757#2C3F3E0000000000
(1.499000) can0 102#22B3880494FAA009
(1.500000) can0 3A2#602573A71C804175
(1.500000) can0 7AA#09EF06EF06010000
(1.504000) can0 2C1#50407E00008A0200
(1.506000) can0 281#3300FF1F0001
(1.508000) can0 227#EE04330055000081
(1.510000) can0 243#02FC630E03EB0000
(1.513000) can0 2E8#0101000006001002
(1.515000) can0 39D#4B6E152800
(1.517000) can0 1E5#286C04000000007E
(1.520000) can0 2E5#000013320000DD00
(1.521000) can0 3E2#040000610FCF00
(1.524000) can0 41D#00
(1.524000) can0 677#0000000000000000
(1.525000) can0 3C3#0000000000A50000
(1.526000) can0 1D8#29D6001900002011
(1.526000) can0 1E5#286C04000000209E
(1.527000) can0 128#0000EC0A02
(1.528000) can0 234#2EE0022BAD04A027
(1.529000) can0 2E5#000013320000DD00
(1.529000) can0 395#090F104D0E06077D
(1.531000) can0 129#492CF35F0020FF3F
(1.532000) can0 441#31858900320000DA
(1.532000) can0 414#1133535459323530
(1.533000) can0 201#0158980001000000
(1.534000) can0 113#019701
(1.535000) can0 458#00002000000000
(1.535000) can0 7FF#024612289C5181C2
(1.536000) can0 132#798E0CFE493C
(1.537000) can0 266#2100123312004301
(1.537000) can0 7D5#2C3E3F0000000000
(1.538000) can0 2E5#000013320000DD00
(1.539000) can0 261#E34B0A00004035A3
(1.540000) can0 7D7#3225000000000000
(1.540000) can0 4E2#65018F13022F0000
(1.543000) can0 423#00001000000000
(1.544000) can0 1F9#0000000000000000
(1.545000) can0 04F#24F79993F952150A
(1.546000) can0 1D8#29D2C0180000600C
(1.546000) can0 3FD#0000003C20000180
(1.548000) can0 266#2100123312004301
(1.549000) can0 243#04FCD3ECE57AFFFF
(1.550000) can0 129#842EF35F0020FF3F
(1.553000) can0 119#00000000
(1.555000) can0 39D#4C6F152800
(1.557000) can0 1E5#286C04000000007E
(1.559000) can0 201#0200000000000000
(1.561000) can0 3F5#0000C838820C0000
(1.563000) can0 211#BE1A710F1001
(1.565000) can0 3AE#0D400008000050A6
(1.568000) can0 132#798E00FE393C
(1.571000) can0 129#0220F45F0020FF3F
(1.571000) can0 3C2#2955000000000000
(1.574000) can0 6A1#0000000000
(1.576000) can0 1D8#29D200190000C0AD
(1.576000) can0 266#2100123312004301
(1.579000) can0 2E5#000013320000DD00
(1.581000) can0 129#8721F35F0020FF3F
(1.581000) can0 421#021A0000002000
(1.584000) can0 2C1#0400000000000000
(1.586000) can0 118#EF65950000C81400
(1.586000) can0 257#4B4B695F0AA03401
(1.587000) can0 252#FC31F17700FC0F00
(1.588000) can0 2E5#000013320000DD00
(1.589000) can0 1A5#00101F683D
(1.590000) can0 37A#D00D000021000021
(1.591000) can0 31A#200100000000F02E
(1.591000) can0 204#010000FF00000010
(1.592000) can0 2B4#31053E0E5701
(1.593000) can0 25B#D38000056A86F093
(1.596000) can0 2E1#1021040010000004
(1.596000) can0 33A#85D453ABFDFF3761
(1.597000) can0 3FD#01000A0000080280
(1.599000) can0 118#1066950000C83400
(1.600000) can0 2B3#2D03A09416726319
(1.600000) can0 757#2C3F3E0000000000
(1.601000) can0 7A8#0240C807000F0000
(1.604000) can0 261#3140100080497ABA
(1.605000) can0 281#3300FF1F0001
(1.606000) can0 122#01000000003F0000
(1.607000) can0 20C#9238361132010010
(1.607000) can0 201#00334E000080FF00
(1.608000) can0 2E5#000013320000DD00
(1.609000) can0 45A#A4C444C05F2D4E36
(1.609000) can0 129#5F24F35F0020FF3F
(1.610000) can0 2E1#398D2AFF0F000000
(1.613000) can0 2A8#01010000060000B2
(1.615000) can0 3A1#884C0FCA0010229F
(1.615000) can0 1E5#286C0400000040BE
(1.616000) can0 118#8268950000C8A400
(1.619000) can0 719#0C890D0051016000
(1.619000) can0 343#009270CE94000000
(1.621000) can0 282#9C6492091C540324
(1.624000) can0 75D#0300800000000000
(1.624000) can0 3AE#0D400008000071C7
(1.625000) can0 1D5#29000000000000FF
(1.626000) can0 108#EA9C064A03B01D25
(1.626000) can0 1E5#286C0400000060DE
(1.627000) can0 257#554D695F0AA83401
(1.628000) can0 2E1#026D66021BC60000
(1.629000) can0 2E5#000013320000DD00
(1.629000) can0 395#090F114D0E06087D
(1.630000) can0 129#9226F35F0020FF3F
(1.631000) can0 3A2#0110200000000000
(1.632000) can0 553#000000000000F048
(1.632000) can0 201#0158980001000000
(1.634000) can0 545#01000000001050AB
(1.635000) can0 1D5#290000000000201F
(1.635000) can0 1E5#286C04000000007E
(1.636000) can0 118#A36A950000C8C4FF
(1.637000) can0 383#BD181600BD026729
(1.638000) can0 241#37320C0F8F5500
(1.638000) can0 7D5#3200000000000000
(1.639000) can0 7D7#3225000000000000
(1.642000) can0 4E2#0600000000000000
(1.642000) can0 423#00001000000000
(1.643000) can0 2E1#FB1F7C2996750900
(1.646000) can0 3FD#0200000000000090
(1.647000) can0 1F9#0000000000000000
(1.648000) can0 552#00000000000070C7
(1.650000) can0 243#04FCD3ECE57AFFFF
(1.650000) can0 261#3413104B0040A47C
(1.655000) can0 1D5#290000000000605F
(1.655000) can0 132#848E0BFE4C3C
(1.656000) can0 266#2100123212004401
(1.659000) can0 201#0200000000000000
(1.659000) can0 45A#FD07F8FF03009600
(1.660000) can0 3F5#0000C838830C0000
(1.663000) can0 211#BF1B710F1001
(1.665000) can0 3A2#A2ACFFFF03000000
(1.665000) can0 132#748E0AFE523C
(1.666000) can0 1E5#286C0400000060DE
(1.667000) can0 261#052280C99A42B0F2
(1.667000) can0 2E5#000013320000DD00
(1.669000) can0 243#00FCCF0C97440D29
(1.670000) can0 129#D82AF35F0020FF3F
(1.670000) can0 283#000000004000
(1.675000) can0 39D#3F62152800
(1.675000) can0 381#3410E004000000FE
(1.676000) can0 118#E86E950000C80400
(1.677000) can0 3C0#0500010000000000
(1.677000) can0 2E5#000013320000DD00
(1.678000) can0 263#700ED29FA74F5F1F
(1.681000) can0 129#292BF35F0020FF3F
(1.681000) can0 421#021A0000002000
(1.684000) can0 103#22B38804A2EC2032
(1.684000) can0 118#096F950000C82400
(1.685000) can0 1D8#29CE801800002088
(1.687000) can0 266#2000123212004401
(1.687000) can0 292#51A6886595010000
(1.688000) can0 186#670E0002008E1D25
(1.689000) can0 27A#C4BE0C01B4056202
(1.690000) can0 2F2#1201
(1.690000) can0 396#091E1E4C4341127D
(1.691000) can0 712#0400000000000000
(1.692000) can0 264#3B000000A000
(1.692000) can0 360#0800000000000000
(1.693000) can0 287#31343032D8020000
(1.696000) can0 61D#01C178218C150410
(1.696000) can0 372#0900000000F83F00
(1.697000) can0 3A2#6025F3AA1C804175
(1.698000) can0 757#2C3F3E0000000000
(1.699000) can0 221#610555550107407B
(1.702000) can0 393#080001C107B00304
(1.702000) can0 2C1#50407E00008A0200
(1.705000) can0 6A2#0000000000
(1.705000) can0 1D8#29CC401800006086
(1.706000) can0 122#00001392D2000000
(1.707000) can0 20C#9038361132010010
(1.707000) can0 2E1#398D2AFF0F000000
(1.708000) can0 2E5#000013320000DD00
(1.709000) can0 39A#51FFFDFDFD01000A
(1.710000) can0 3C9#0581F3DE61000000
(1.710000) can0 381#15406A324D000001
(1.713000) can0 2A8#01010000060010C2
(1.713000) can0 39D#4063152800
(1.716000) can0 261#52293D02805CE26E
(1.717000) can0 266#2000123312004401
(1.720000) can0 343#009264CE94000000
(1.720000) can0 682#000000400411E015
(1.721000) can0 3C2#0055555500006A05
(1.724000) can0 31E#0100000000000000
(1.724000) can0 3C3#0000000000A50000
(1.725000) can0 1D8#29CC40180000A0C6
(1.726000) can0 1E5#286C04000000209E
(1.726000) can0 126#3488306C7F
(1.727000) can0 257#4242695F0AA03401
(1.728000) can0 1D6#420800008AC88008
(1.729000) can0 340#0700000000000000
(1.729000) can0 395#090F104D0E06077D
(1.730000) can0 3A2#0110200000000000
(1.732000) can0 249#E20A0000
(1.732000) can0 7F4#01
(1.733000) can0 201#0158980001000000
(1.734000) can0 289#D20E07438E003D0F
(1.735000) can0 1D5#290000000000605F
(1.735000) can0 132#7F8E17FE743C
(1.736000) can0 118#5E64950000C88400
(1.737000) can0 383#BD181600BD026729
(1.737000) can0 7D5#3200000000000000
(1.738000) can0 7D7#3225000000000000
(1.741000) can0 129#8721F35F0020FF3F
(1.743000) can0 423#00001000000000
(1.745000) can0 3E9#F0880221000060E7
(1.747000) can0 1D8#29CA40180000E004
(1.750000) can0 3E9#00880200000070E6
(1.752000) can0 119#00000000
(1.755000) can0 39D#4164152800
(1.760000) can0 201#0200000000000000
(1.762000) can0 211#C01C710F1001
(1.764000) can0 261#052280C99A421052
(1.766000) can0 545#02000300000090DF
(1.768000) can0 257#4444695F0AA03401
(1.770000) can0 243#00FCCF0C97440D29
(1.772000) can0 283#000000004000
(1.775000) can0 6A1#0000000000
(1.775000) can0 401#1F2A769478948194
(1.776000) can0 3C0#0600000000000000
(1.779000) can0 2E5#000013320000DD00
(1.781000) can0 3E8#0200000000000000
(1.784000) can0 421#021A0000002000
(1.786000) can0 381#1700000000000000
(1.788000) can0 212#5904000081FF7731
(1.790000) can0 2AA#572023
(1.792000) can0 129#9226F35F0020FF3F
(1.794000) can0 264#3C000000A000
(1.795000) can0 285#61018E0308002E00
(1.796000) can0 266#2000123212004301
(1.797000) can0 3A2#602573A71C804175
(1.798000) can0 2E5#000013320000DD00
(1.798000) can0 757#3200000000000000
(1.799000) can0 263#49FED1A7A72F5F1F
(1.800000) can0 129#1727F45F0020FF3F
(1.801000) can0 393#0380610000000000
(1.804000) can0 2E1#398D2AFF0F000000
(1.804000) can0 281#3200FF1F0001
(1.805000) can0 1D5#290000000000403F
(1.806000) can0 266#2000123212004301
(1.806000) can0 227#F104330055000081
(1.807000) can0 257#4E46695F0AA83401
(1.808000) can0 22B#FF0F000080FFFFFF
(1.809000) can0 45A#A4C444C05F2D4E35
(1.809000) can0 129#5228F35F0020FF3F
(1.810000) can0 261#52293D02805C42CE
(1.811000) can0 7AA#C0E78E3C00088C29
(1.812000) can0 2A8#01010000060020D2
(1.812000) can0 4E3#0200000000002800
(1.815000) can0 3A1#884C0FCA001062DF
(1.816000) can0 1E5#286C0400000040BE
(1.817000) can0 78A#01000400E7069F00
(1.818000) can0 34A#0007000000000020
(1.818000) can0 343#009264CE93000000
(1.819000) can0 2E1#026D66021BC60000
(1.820000) can0 419#00
(1.820000) can0 428#20001010000010
(1.821000) can0 40A#091000000000C0E7
(1.824000) can0 75D#0400000000000000
(1.824000) can0 3C3#5555550100000000
(1.825000) can0 1D5#290000000000807F
(1.826000) can0 108#935E062A03B71D25
(1.826000) can0 126#33F03074EE
(1.827000) can0 234#2FE0022BAD040088
(1.829000) can0 261#E34B0A00004055C3
(1.829000) can0 395#090F104D0E06077D
(1.830000) can0 3A2#0110200000000000
(1.831000) can0 249#3A0C0000
(1.832000) can0 545#010000000010B00B
(1.832000) can0 318#1A06370B102939EF
(1.833000) can0 201#0158980001000000
(1.834000) can0 289#D20E070382003D0F
(1.835000) can0 1D5#290000000000A09F
(1.835000) can0 1E5#286C04000000007E
(1.836000) can0 118#586E950000C87400
(1.837000) can0 383#BD181600AD026729
(1.838000) can0 241#36320C0F8F5500
(1.838000) can0 7D7#3225000000000000
(1.841000) can0 129#292BF35F0020FF3F
(1.844000) can0 423#00001000000000
(1.844000) can0 1F9#0000000000000000
(1.845000) can0 285#02A800000000B200
(1.846000) can0 132#908E1FFE6B3C
(1.846000) can0 257#4848695F0AA03401
(1.847000) can0 2E5#000013320000DD00
(1.850000) can0 2F1#01DA340142001600
(1.850000) can0 2E1#0400000000202000
(1.851000) can0 119#00000000
(1.854000) can0 7E8#140500470DBD3B00
(1.854000) can0 381#1900000000000000
(1.855000) can0 1D8#29C8C017000040E1
(1.856000) can0 401#2300000000000000
(1.856000) can0 422#700010000000
(1.858000) can0 201#0200000000000000
(1.859000) can0 263#0400000070140000
(1.859000) can0 3F5#0000C838820C0000
(1.862000) can0 211#C11D710F1001
(1.862000) can0 2C1#2304900000000000
(1.865000) can0 545#020002000000C00E
(1.865000) can0 1D8#29C8C01700006001
(1.866000) can0 1E5#286C0400000060DE
(1.867000) can0 709#1D00000000000000
(1.867000) can0 2E5#000013320000DD00
(1.868000) can0 243#00FCCF0C97440D29
(1.871000) can0 23E#00003AC002FF0F4A
(1.875000) can0 39D#4467152800
(1.875000) can0 132#8D8E19FE773C
(1.877000) can0 118#DC62950000C80400
(1.877000) can0 2E5#000013320000DD00
(1.878000) can0 263#700ED29FA74F5F1F
(1.881000) can0 129#752FF35F0020FF3F
(1.881000) can0 421#021A0000002000
(1.884000) can0 737#02000000E0F080
(1.886000) can0 118#BC63950000C8E4FF
(1.886000) can0 257#524A695F0AA83401
(1.887000) can0 252#BE31F07700FC0F00
(1.888000) can0 3AE#0D4000080000F046
(1.888000) can0 195#400000000A002706
(1.889000) can0 243#01FC354E34005A5A
(1.890000) can0 129#9020F35F0020FF3F
(1.891000) can0 261#3140F8FF80499AC1
(1.892000) can0 204#010000FF00000010
(1.893000) can0 224#0408004019011008
(1.896000) can0 3A3#14D00000380DFC01
(1.896000) can0 266#2000123212004401
(1.897000) can0 788#0240CD0700030000
(1.898000) can0 285#034A7D5277000000
(1.898000) can0 757#2C3F3E0000000000
(1.899000) can0 102#22B3880494FAA009
(1.900000) can0 129#8721F35F0020FF3F
(1.903000) can0 2C1#50407E00008A0200
(1.903000) can0 6A2#0000000000
(1.904000) can0 288#0106184C00601166
(1.905000) can0 118#EF65950000C81400
(1.905000) can0 132#898E1DFE6D3C
(1.907000) can0 1E5#286C0400000060DE
(1.908000) can0 2E5#000013320000DD00
(1.908000) can0 243#02FC5B0E03EB0000
(1.909000) can0 39A#55FFFDFDFD01000A
(1.912000) can0 2E8#0101000006005042
(1.912000) can0 4E3#03FD000000002800
(1.915000) can0 39D#4568152800
(1.915000) can0 1E5#286C04000000007E
(1.916000) can0 118#CF66950000C8F4FF
(1.917000) can0 77A#002E50FF5B13785B
(1.917000) can0 2E5#000013320000DD00
(1.918000) can0 343#009268EE94000000
(1.919000) can0 409#00
(1.920000) can0 682#0000004004110035
(1.920000) can0 282#9C64920920540324
(1.922000) can0 3C2#0055555500006A05
(1.923000) can0 261#E34B0A000040B523
(1.923000) can0 25D#3741012A04F08803
(1.924000) can0 400#00E0FBBEEFFB00
(1.925000) can0 118#1167950000C83400
(1.926000) can0 132#828E1EFE783C
(1.926000) can0 126#32F82E7CFB
(1.927000) can0 1D6#420800008AC88008
(1.928000) can0 268#64128F01E9
(1.928000) can0 340#0900000000000000
(1.929000) can0 243#0300000033513100
(1.930000) can0 3A2#0110200000000000
(1.931000) can0 3E3#04000000
(1.931000) can0 3F9#0800000000000000
(1.933000) can0 318#1A06370B10293BF1
(1.934000) can0 458#00002000000000
(1.934000) can0 1D5#290000000000E0DF
(1.935000) can0 1E5#286C0400000040BE
(1.936000) can0 420#2801404B00008003
(1.937000) can0 266#2000123212004401
(1.937000) can0 7D5#3200000000000000
(1.938000) can0 339#02F1FE008007800F
(1.939000) can0 263#0300000000000000
(1.940000) can0 129#4825F35F0020FF3F
(1.942000) can0 4E2#025D040500002800
(1.942000) can0 423#00001000000000
(1.945000) can0 1F9#0000000000000000
(1.945000) can0 4F3#00000000
(1.948000) can0 266#2000123212004401
(1.950000) can0 2F1#02DA350142000000
(1.952000) can0 119#00000000
(1.954000) can0 39D#4669152800
(1.956000) can0 261#052280C99A42D012
(1.958000) can0 362#000000
(1.960000) can0 439#0000000000185A04
(1.962000) can0 7AA#120868FAAC082100
(1.964000) can0 2E1#658008008336316A
(1.965000) can0 1D5#290000000000403F
(1.966000) can0 266#2000123212004401
(1.966000) can0 207#0000000000000000
(1.967000) can0 719#1700000000000000
(1.968000) can0 22B#FF070000801FF0FF
(1.971000) can0 129#FF28F35F0120FF3F
(1.972000) can0 3C2#2955000000000000
(1.975000) can0 6A1#0000000000
(1.975000) can0 132#828E18FE623C
(1.976000) can0 266#2000123212004401
(1.977000) can0 234#2BE10380430034A1
(1.977000) can0 2E5#000013320000DD00
(1.978000) can0 2E1#1021040010000004
(1.979000) can0 3E8#0400000000000000
(1.980000) can0 129#0729F35F0020FF3F
(1.980000) can0 441#E200B6C358002541
(1.981000) can0 421#021A0000002000
(1.984000) can0 2C1#0400000000000000
(1.984000) can0 1D8#29CAC0170000E083
(1.985000) can0 118#276D950000C84400
(1.987000) can0 242#55558600
(1.987000) can0 261#31400A008049FA34
(1.988000) can0 186#48010002007C1D25
(1.989000) can0 123#01000000003F0000
(1.989000) can0 23E#00003AC002FF3F7A
(1.990000) can0 37A#D00D000021000021
(1.991000) can0 2C4#4D80000200000000
(1.992000) can0 264#3C000000A000
(1.992000) can0 360#0000000000000000
(1.993000) can0 39D#476A152800
(1.996000) can0 473#0000030000000000
(1.996000) can0 132#888E1BFE713C
(1.997000) can0 266#2000123212004401
(1.998000) can0 545#800558D097700907
(1.999000) can0 757#3200000000000000
(2.000000) can0 788#ACCCB1830000A600
(2.003000) can0 261#52293D02805C028E
(2.004000) can0 6A2#0000000000
(2.008000) can0 1E5#286C04000000209E
(2.010000) can0 243#02FC5B0E03EB0000
(2.012000) can0 2E1#026D66021BC40000
(2.014000) can0 4E3#04A8A00A0BB00000
(2.016000) can0 3A1#884C0FCA0010A21F
(2.018000) can0 266#2000123212004401
(2.021000) can0 261#E34B0A0000401583
(2.022000) can0 40A#091000000000D0F7
(2.023000) can0 33D#1A290ABE874AFA98
(2.024000) can0 41D#00
(2.024000) can0 21D#0400B50000000000
(2.026000) can0 1D5#29000000000000FF
(2.027000) can0 126#32E82F0474
(2.027000) can0 1D6#420800008AC88008
(2.028000) can0 2B6#000300
(2.029000) can0 323#3B141F0204
(2.029000) can0 395#090F114D0E06087D
(2.030000) can0 397#F31F80951C140000
(2.031000) can0 3C3#5555550100000000
(2.032000) can0 3AE#0C40000800004196
(2.032000) can0 3ED#00
(2.033000) can0 528#6A313684
(2.034000) can0 39D#486B152800
(2.034000) can0 553#0000000000003088
(2.035000) can0 318#1A06380B10293DF4
(2.036000) can0 75D#0500000000007E04
(2.037000) can0 289#D20E078390003D0F
(2.038000) can0 381#035E3D00C0280400
(2.039000) can0 383#BD181600AD020729
(2.040000) can0 241#36320C0F8F5500
(2.040000) can0 263#0300000000000000
(2.041000) can0 129#1C2FF35FFF1FFF3F
(2.044000) can0 423#00001000000000
(2.044000) can0 1F9#0000000000000000
(2.045000) can0 1D8#29C6C0170000A03F
(2.046000) can0 334#3F3F1408FF0102D3
(2.046000) can0 3FD#0000003C20000180
(2.048000) can0 1E5#286C04000000209E
(2.049000) can0 243#04FCE3ECE97AFFFF
(2.052000) can0 261#052280C99A423072
(2.055000) can0 1D5#290000000000605F
(2.055000) can0 132#878E20FE7E3C
(2.056000) can0 266#1F00123212004401
(2.059000) can0 2E5#000013320000DD00
(2.059000) can0 3F5#0000C838820C0000
(2.060000) can0 3A2#A2ACFFFF03000000
(2.063000) can0 211#C31F710F1001
(2.065000) can0 3A1#C1FFFF533D00B0BF
(2.065000) can0 1D8#29C6C0170000E07F
(2.066000) can0 1E5#286C0400000060DE
(2.067000) can0 261#00100700FF4F409B
(2.067000) can0 2E5#000013320000DD00
(2.068000) can0 3AE#0C400008000051A6
(2.071000) can0 23E#00003AC002FF5F9A
(2.074000) can0 3C2#2955000000000000
(2.076000) can0 379#090000000A000C03
(2.078000) can0 3C0#0900000000000000
(2.080000) can0 263#700ED29FA74F5F1F
(2.082000) can0 22A#0000D916
(2.084000) can0 103#22B38804A4EC2032
(2.087000) can0 1D8#29C480170000207D
(2.087000) can0 2EC#5780C5
(2.088000) can0 2AA#575053
(2.089000) can0 123#00001392D2000000
(2.089000) can0 27A#B8B20C01B4056202
(2.090000) can0 396#091E1E4C4243127D
(2.091000) can0 287#31343032D8020000
(2.092000) can0 224#0408004019011008
(2.092000) can0 3A2#602573A91C804175
(2.096000) can0 3FD#01000A0000080280
(2.098000) can0 2F3#0B0B0B0400600002
(2.099000) can0 102#22B3880494FAA009
(2.100000) can0 129#8C25F35FFE1FFF3F
(2.100000) can0 376#FBFFFBFFFB0FB004
(2.101000) can0 757#464C4C4D4C424B4C
(2.102000) can0 557#5A6E190002
(2.103000) can0 356#0000000000000000
(2.103000) can0 357#0000000000000000
(2.104000) can0 6A2#0000000000
(2.105000) can0 1D5#29000000000000FF
(2.106000) can0 132#8A8E22FE833C
(2.106000) can0 122#00001392D2000000
(2.107000) can0 20C#8B38361131010010
(2.109000) can0 2E1#026D66021BC20000
(2.109000) can0 129#5626F35FFE1FFF3F
(2.112000) can0 2E8#0101000006007062
(2.112000) can0 4E3#D5028201001C0000
(2.115000) can0 39D#4A6D152800
(2.115000) can0 1E5#286C04000000007E
(2.116000) can0 118#C36A950000C8E4FF
(2.119000) can0 719#6EB303005B050014
(2.119000) can0 682#0000004004112055
(2.120000) can0 428#20001010000010
(2.121000) can0 3E2#040000610FCF00
(2.124000) can0 41D#00
(2.126000) can0 3C3#0000000000A50000
(2.126000) can0 1E5#286C04000000209E
(2.128000) can0 1F8#1A000000
(2.128000) can0 2E5#000013320000DD00
(2.129000) can0 395#090F104D0E06077D
(2.133000) can0 3F9#0100000000000000
(2.135000) can0 201#0158980001000000
(2.137000) can0 132#8C8E28FE8C3C
(2.139000) can0 7D5#3200000000000000
(2.141000) can0 129#6E29F35FFF1FFF3F
(2.143000) can0 423#00001000000000
(2.145000) can0 1F9#0000000000000000
(2.145000) can0 294#14C1400040000000
(2.146000) can0 3FD#0200000000000090
(2.148000) can0 257#5757695F0AA03401
(2.149000) can0 243#04FCE3ECE97AFFFF
(2.152000) can0 129#B12AF35FFF1FFF3F
(2.154000) can0 39D#4B6E152800
(2.156000) can0 2E1#658008008436316A
(2.158000) can0 266#1F00123212004501
(2.160000) can0 439#0000000000185A04
(2.162000) can0 545#020002000000509E
(2.164000) can0 261#00100700FF4FA0FB
(2.167000) can0 309#0000000000000000
(2.170000) can0 243#00FCCF0C97440D29
(2.170000) can0 2D1#FF01
(2.171000) can0 3A8#2A80E1F51F00FFBF
(2.174000) can0 22B#FF070000801FC0FF
(2.174000) can0 379#0A0000000A000C03
(2.175000) can0 1E5#286C0400000040BE
(2.176000) can0 118#2A60950000C85400
(2.177000) can0 3C0#0A00000000000000
(2.180000) can0 261#31400C008449BAFA
(2.180000) can0 249#D3030000
(2.181000) can0 139#00
(2.184000) can0 103#22B38804A4EC2032
(2.184000) can0 118#1B61950000C84400
(2.185000) can0 1D8#29C88017000060C1
(2.186000) can0 266#2000123212004501
(2.186000) can0 2E1#398D2AFF0F000000
(2.187000) can0 2E5#000013320000DD00
(2.188000) can0 3AE#0C400008000091E6
(2.189000) can0 123#01000000003F0000
(2.189000) can0 23E#00003AC002FF8FCA
(2.190000) can0 129#842EF35F0020FF3F
(2.192000) can0 204#010000FF00000010
(2.192000) can0 31A#200100000000205E
(2.193000) can0 37A#D20D000025000026
(2.194000) can0 3A2#604573A81C804175
(2.195000) can0 42E#00E0BFFFFEEFBFFF
(2.195000) can0 261#52293D02805CC24E
(2.196000) can0 238#8839F61C3E001863
(2.197000) can0 359#5B00000000000000
(2.198000) can0 42F#BC64FE02FA00FF
(2.198000) can0 757#2C3F3E0000000000
(2.199000) can0 102#22B3880494FAA009
(2.200000) can0 788#0240CD0700030000
(2.201000) can0 7AA#05E2870D40081300
(2.204000) can0 2E1#026D66021BC20000
(2.205000) can0 281#3100FF1F0001
(2.206000) can0 122#01000000003F0000
(2.207000) can0 20C#8A38361131010010
(2.207000) can0 2E5#000013320000DD00
(2.210000) can0 243#02FC630E03EB0000
(2.210000) can0 261#E34B0A000040D543
(2.213000) can0 2A8#0101000006006012
(2.215000) can0 381#0800000000000000
(2.215000) can0 1E5#286C0400000040BE
(2.216000) can0 118#9D64950000C8C4FF
(2.217000) can0 401#032AA09499948E94
(2.217000) can0 2E5#000013320000DD00
(2.218000) can0 343#00925CFE93000000
(2.219000) can0 2E1#FB1F7919966F0900
(2.221000) can0 129#8721F35F0020FF3F
(2.223000) can0 75D#0682000000000000
(2.223000) can0 2F9#BCFB072000000000
(2.224000) can0 400#00E0FBBEEFFB00
(2.225000) can0 118#9E65950000C8C4FF
(2.225000) can0 1D8#29CAC0170000E083
(2.226000) can0 126#31383014D4
(2.227000) can0 234#2EE0022BAD048007
(2.228000) can0 261#3413084B0040E4B4
(2.228000) can0 279#29B2FC01B4056502
(2.229000) can0 2B6#000300
(2.230000) can0 397#F31F80951C160000
(2.231000) can0 129#A722F35FFF1FFF3F
(2.231000) can0 441#3185890032003812
(2.233000) can0 113#019701
(2.234000) can0 39D#3D60152800
(2.234000) can0 2E1#0400000000202000
(2.235000) can0 1D8#29CAC017000000A3
(2.236000) can0 420#2801404B00000005
(2.236000) can0 7D5#2BA0FFFE00000000
(2.237000) can0 315#18544B5E504CCA7E
(2.238000) can0 2E5#000013320000DD00
(2.239000) can0 315#0200041700000000
(2.239000) can0 3E9#00880200000080F6
(2.240000) can0 3B6#C5C9DD0C00005080
(2.241000) can0 3FE#28050410400001CD
(2.242000) can0 7D5#3200000000000000
(2.242000) can0 3A7#0000000000000000
(2.243000) can0 2C1#0219060000D00200
(2.245000) can0 3C5#0000000000000000
(2.245000) can0 1D5#290000000000C0BF
(2.246000) can0 118#9167950000C8B400
(2.247000) can0 368#0000000000000000
(2.248000) can0 7D5#439EAB927E3F0000
(2.248000) can0 36E#0000000000000000
(2.249000) can0 243#04FCE3ECE97AFFFF
(2.250000) can0 2F1#05DA2F0142000100
(2.251000) can0 7D5#485E68000080175C
(2.251000) can0 119#00000000
(2.254000) can0 238#8839F61C3E002873
(2.255000) can0 1D5#290000000000E0DF
(2.259000) can0 2E5#000013320000DD00
(2.261000) can0 45A#FD07F8FF03009600
(2.264000) can0 211#B511710F1001
(2.266000) can0 3A1#C1FFFF593D00F005
(2.268000) can0 1E5#286C0400000060DE
(2.270000) can0 243#00FCCF0C97440D29
(2.273000) can0 7AA#E6E38FCDB052A129
(2.276000) can0 379#0B0000000300180F
(2.276000) can0 372#0269803E30801073
(2.277000) can0 234#2BE1038043009401
(2.280000) can0 263#700ED29FA74F5F1F
(2.280000) can0 22A#0000D916
(2.281000) can0 139#00
(2.284000) can0 414#1133535459323530
(2.284000) can0 718#02000000000000
(2.285000) can0 1D8#29C8C0170000A041
(2.287000) can0 1E5#286C04000000209E
(2.287000) can0 292#51A6886595010000
(2.288000) can0 186#6B040002009C1D25
(2.289000) can0 123#00001392D2000000
(2.290000) can0 2EC#57A0E5
(2.290000) can0 287#31343032D8020000
(2.291000) can0 2C4#1400000000000000
(2.292000) can0 264#3C000000A000
(2.292000) can0 360#0300800000000000
(2.293000) can0 381#0A00000000000000
(2.294000) can0 7B5#000000
(2.295000) can0 344#0000000000002067
(2.295000) can0 3A2#6005F3A71C804175
(2.296000) can0 3C4#1B00000000000000
(2.297000) can0 3A3#14D00000380DFC01
(2.298000) can0 359#5C0400000D1A8B84
(2.299000) can0 6D4#1303000000000000
(2.300000) can0 3A0#0000000000000000
(2.301000) can0 221#610555550107003B
(2.301000) can0 2E1#026D66021BC40000
(2.302000) can0 757#2C3F3E0000000000
(2.303000) can0 788#ACCCB1830000A600
(2.304000) can0 2C1#50407E00008A0200
(2.304000) can0 281#3000FF1F0001
(2.305000) can0 1D5#290000000000807F
(2.306000) can0 266#2000123212004401
(2.306000) can0 257#675F695F0AA83401
(2.307000) can0 227#E404320055000081
(2.310000) can0 243#02FC530E03EB0000
(2.311000) can0 2E8#0101000006009082
(2.312000) can0 2A8#0101000006007022
(2.313000) can0 4E3#00AC01FF0F002800
(2.313000) can0 39D#1B52012800
(2.316000) can0 2E1#FB1F7B1996780900
(2.316000) can0 3A1#884C0FCA0010027F
(2.317000) can0 78A#0100020061066106
(2.318000) can0 34A#0100000000000020
(2.318000) can0 343#0092548E93000000
(2.319000) can0 448#20001010000010
(2.320000) can0 129#842BF35F0120FF3F
(2.321000) can0 3C2#0055555500006A05
(2.324000) can0 41D#00
(2.324000) can0 3A2#0110200000000000
(2.326000) can0 118#896F950000C8A400
(2.326000) can0 1E5#286C04000000209E
(2.327000) can0 234#30E0022BAD04A029
(2.328000) can0 2E5#000013320000DD00
(2.329000) can0 340#0100000000000000
(2.329000) can0 397#F31F80951C140000
(2.330000) can0 129#E42CF35F0120FF3F
(2.331000) can0 3F9#0300000000000008
(2.332000) can0 54F#0000000000000000
(2.332000) can0 318#1A06380B102923DA
(2.333000) can0 3AE#0C4000080000D025
(2.334000) can0 289#D20E07C394003D0F
(2.335000) can0 1D5#290000000000E0DF
(2.335000) can0 132#808E23FE773C
(2.337000) can0 118#1A60950000C84400
(2.338000) can0 241#36320C0F8F5500
(2.338000) can0 7D7#3225000000000000
(2.341000) can0 345#0A01010000008300
(2.343000) can0 423#00001000000000
(2.345000) can0 1F9#0000000000000000
(2.345000) can0 285#02A800000000B200
(2.346000) can0 266#1F00123212004401
(2.347000) can0 2E1#658008008436316A
(2.347000) can0 2E5#000013320000DD00
(2.348000) can0 2F1#06DA330142000000
(2.349000) can0 243#04FCE3ECE97AFFFF
(2.350000) can0 23E#00003AC002FFCF0A
(2.353000) can0 119#00000000
(2.356000) can0 39D#1C53012800
(2.358000) can0 266#1F00123212004401
(2.360000) can0 439#0000000000185A04
(2.362000) can0 211#B612710F1001
(2.364000) can0 2E1#1021040010000004
(2.366000) can0 3A1#C1FFFF613D00102D
(2.368000) can0 1E5#286C04000000209E
(2.371000) can0 129#3D20F35F0120FF3F
(2.371000) can0 3C2#2955000000000000
(2.374000) can0 6A1#0000000000
(2.374000) can0 379#00000A48333F2100
(2.375000) can0 1D8#29C440170000C0DD
(2.376000) can0 401#0B2A92949B949494
(2.376000) can0 3C0#0100000000000000
(2.377000) can0 2E5#000013320000DD00
(2.379000) can0 2E1#398D2AFF0F000000
(2.379000) can0 129#2A21F35F0120FF3F
(2.380000) can0 22A#0000D916
(2.381000) can0 139#00
(2.384000) can0 103#22B38804A2EE2032
(2.384000) can0 118#0F65950000C83400
(2.385000) can0 1D8#29C440170000E0FD
(2.386000) can0 266#1F00123212004401
(2.386000) can0 2D2#ED2EAD4EEC0CE822
(2.387000) can0 261#52293D02805C820E
(2.388000) can0 186#6705000200971D25
(2.389000) can0 123#01000000003F0000
(2.389000) can0 23E#00003AC002FFDF1A
(2.390000) can0 2F2#1201
(2.392000) can0 2C4#550001081000FF00
(2.392000) can0 364#3C82D41F
(2.393000) can0 3A4#0100000000000000
(2.394000) can0 545#800558109876C90E
(2.395000) can0 3DF#0000C00002D0001B
(2.395000) can0 285#034A7D5277000000
(2.396000) can0 1E5#286C04000000007E
(2.397000) can0 266#1F00123212004401
(2.398000) can0 381#0D00000000000000
(2.398000) can0 401#0C2A94949094A294
(2.399000) can0 263#49FED1A7A72F5F1F
(2.400000) can0 788#01000000FFA19812
(2.401000) can0 393#0380610000000000
(2.403000) can0 261#E34B0A0000409503
(2.406000) can0 677#0200000000000000
(2.408000) can0 257#5C54695F0AA83401
(2.410000) can0 243#02FC530E03EB0000
(2.412000) can0 2E1#FB1F7A1996700900
(2.414000) can0 4E3#01D8050000002800
(2.416000) can0 3A1#884C0FCA0010229F
(2.419000) can0 266#1E00123212004401
(2.420000) can0 282#9C64920920540324
(2.421000) can0 40A#091000000000F017
(2.423000) can0 75D#8000000000000000
(2.423000) can0 3CC#0321C31B000E0900
(2.424000) can0 3A2#0110200000000000
(2.425000) can0 41D#00
(2.425000) can0 1D8#29C200170000603B
(2.426000) can0 108#2E14061203B41D25
(2.428000) can0 257#5D55695F0AA83401
(2.428000) can0 2E1#0400000000202000
(2.429000) can0 243#0300000033513100
(2.430000) can0 3C3#5555550100000000
(2.431000) can0 229#310E00
(2.431000) can0 381#0E00000000E0FF00
(2.432000) can0 113#019701
(2.433000) can0 7FF#024612289C5181C2
(2.433000) can0 39D#1E55012800
(2.434000) can0 7AA#0800000018011B0E
(2.435000) can0 289#D20E070388003D0F
(2.436000) can0 420#2801404B00000006
(2.436000) can0 261#05227FC99A42B0F1
(2.437000) can0 266#1F00123212004401
(2.439000) can0 339#02F1FE008007800F
(2.439000) can0 2B3#0A2E2E0005000002
(2.442000) can0 4E2#00D1000100002800
(2.442000) can0 423#00001000000000
(2.443000) can0 2E1#658008008436316A
(2.446000) can0 1F9#0000000000000000
(2.446000) can0 285#2445605872000000
(2.447000) can0 257#5E56695F0AA83401
(2.448000) can0 552#000000000000F047
(2.448000) can0 2F1#0702000000D00000
(2.449000) can0 2C3#0000C04B010040CB
(2.452000) can0 261#00100700FF4FC01B
(2.456000) can0 1D5#290000000000605F
(2.456000) can0 266#1F00123212004401
(2.458000) can0 401#0F2A83949D948494
(2.459000) can0 2E1#1021040010000004
(2.459000) can0 3F5#0000C838820C0000
(2.460000) can0 3F5#0000C838830C0000
(2.463000) can0 211#B713710F1001
(2.465000) can0 207#0000000000000000
(2.465000) can0 225#5555FA00
(2.466000) can0 1E5#286C0400000060DE
(2.467000) can0 261#314021007C49DA27
(2.467000) can0 2E5#000013320000DD00
(2.468000) can0 243#00FCCF0C97440D29
(2.471000) can0 23E#00003AC002FFFF3A
(2.473000) can0 22B#FF030000801F80FF
(2.473000) can0 39D#1F56012800
(2.475000) can0 379#01000A48333F2100
(2.475000) can0 1E5#286C04000000007E
(2.476000) can0 266#1F00123212004401
(2.479000) can0 2E5#000013320000DD00
(2.481000) can0 129#292BF35F0020FF3F
(2.481000) can0 421#021A0000002000
(2.484000) can0 321#3952A97B027CF041
(2.484000) can0 118#E96F950000C80400
(2.485000) can0 1D8#29C2C016000020BA
(2.486000) can0 266#1E00123212004401
(2.486000) can0 752#048074B8A2498A12
(2.487000) can0 2D2#ED2EAE4EF60CE822
(2.488000) can0 186#6806000200971D25
(2.489000) can0 2AA#579093
(2.489000) can0 27A#ABB6FC00B4056202
(2.491000) can0 129#492CF35F0020FF3F
(2.492000) can0 204#010000FF00000010
(2.492000) can0 2B4#2D05420E5801
(2.493000) can0 25B#D38000056A868023
(2.494000) can0 712#020A470CA70C0000
(2.495000) can0 3A3#14C00000380DFC01
(2.495000) can0 1D8#29C0C016000040D8
(2.496000) can0 359#5E69414BFC9DF5F5
(2.497000) can0 401#112AB294AA94BD94
(2.498000) can0 2E5#000013320000DD00
(2.498000) can0 7A8#0240C807000F0000
(2.499000) can0 102#22B3880494FAA009
(2.500000) can0 129#5B2DF35F0020FF3F
(2.501000) can0 393#080001C107B00304
(2.504000) can0 2C1#50407E00008A0200
(2.505000) can0 281#3000FF1F0001
(2.509000) can0 247#510EFF1400080300
(2.511000) can0 39A#55FFFDFDFD01000A
(2.513000) can0 2A8#0101000006009042
(2.515000) can0 39D#2057012800
(2.517000) can0 1E5#286C04000000007E
(2.519000) can0 719#1700000000000000
(2.521000) can0 448#20001010000010
(2.523000) can0 3A2#0110200000000000
(2.524000) can0 400#00E0FBBEEFFB00
(2.525000) can0 545#010000000010005B
(2.525000) can0 1D8#29C0C0160000A038
(2.526000) can0 108#FF0506FA02AD1D25
(2.528000) can0 128#0000EC0A02
(2.528000) can0 22B#FF010000801F00FF
(2.529000) can0 243#0300000033513100
(2.530000) can0 397#F31F80951C140000
(2.530000) can0 229#3B0F00
(2.531000) can0 3F9#0500000000000000
(2.532000) can0 54F#0000000000000000
(2.533000) can0 414#1233585646544756
(2.533000) can0 666#0000C800
(2.534000) can0 7FF#0301082861428001
(2.535000) can0 289#D20E07C3A5003D0F
(2.536000) can0 1E5#286C0400000040BE
(2.536000) can0 118#9D64950000C8C4FF
(2.537000) can0 7D5#2BA1FFFE00000000
(2.539000) can0 2E5#000013320000DD00
(2.539000) can0 381#1100000000000000
(2.542000) can0 4E2#01400E0000002800
(2.542000) can0 423#00001000000000
(2.545000) can0 1F9#0000000000000000
(2.545000) can0 333#0410590700
(2.546000) can0 3BC#00007474
(2.547000) can0 3FD#0000003C20000180
(2.548000) can0 1E5#286C0400000060DE
(2.549000) can0 2C3#555BA9B682C112AA
(2.550000) can0 23E#00003AC002FF1F5A
(2.551000) can0 119#00000000
(2.555000) can0 39D#2158012800
(2.557000) can0 132#AA8E34FEA13C
(2.559000) can0 545#020002000000105E
(2.562000) can0 3F5#0000C838820C0000
(2.564000) can0 261#314016007E493A7E
(2.566000) can0 3A1#C1FFFF773D005083
(2.569000) can0 257#645C695F0AA83401
(2.569000) can0 129#5F24F35F0020FF3F
(2.570000) can0 283#000000004000
(2.571000) can0 2E1#398D2AFF0F000000
(2.574000) can0 3AE#0B400008000050A4
(2.574000) can0 379#02000A48333F2100
(2.575000) can0 1D8#29BE801600004096
(2.576000) can0 118#D168950000C8F4FF
(2.576000) can0 401#152A9F949894AC94
(2.577000) can0 2E5#000013320000DD00
(2.580000) can0 261#52293D02805C42CE
(2.581000) can0 22A#0000D916
(2.584000) can0 2C1#0400000000000000
(2.584000) can0 118#5369950000C87400
(2.585000) can0 1D8#29BE8016000060B6
(2.586000) can0 266#1E00123212004401
(2.586000) can0 2D2#ED2EAE4E000DE822
(2.587000) can0 292#51A6886595010000
(2.588000) can0 186#7C07000200AA1D25
(2.589000) can0 123#01000000003F0000
(2.589000) can0 27A#ACB7FC00B4056202
(2.590000) can0 2EC#57D015
(2.591000) can0 396#091E1E4C4241127D
(2.592000) can0 3A2#6025F3A81C804175
(2.592000) can0 224#0408004019011008
(2.594000) can0 545#8005583098792991
(2.595000) can0 1D5#290000000000201F
(2.595000) can0 2F3#0B0B0B0400600002
(2.596000) can0 132#998E30FE9B3C
(2.597000) can0 3FD#01000A0000080280
(2.599000) can0 266#1E00123212004401
(2.599000) can0 102#22B3880494FAA009
(2.600000) can0 7A8#ACCCB18300008200
(2.603000) can0 2E1#FB1F7A1996720900
(2.603000) can0 677#0200000000000000
(2.604000) can0 288#0106184C006081D6
(2.605000) can0 1D5#290000000000403F
(2.605000) can0 132#9D8E36FEAD3C
(2.606000) can0 266#1E00123212004401
(2.608000) can0 2E5#000013320000DD00
(2.608000) can0 243#02FC5B0E03EB0000
(2.609000) can0 39A#181BEB6AFFDEAE7E
(2.612000) can0 261#3413084B00406434
(2.612000) can0 4E3#03FD000000002800
(2.615000) can0 3A1#884C0FCA001062DF
(2.615000) can0 1E5#286C0400000040BE
(2.616000) can0 118#C56C950000C8E4FF
(2.619000) can0 719#0100040000000000
(2.619000) can0 343#0092588E94000000
(2.620000) can0 282#9C64920920540324
(2.621000) can0 20E#170700
(2.621000) can0 40A#0910000000000027
(2.622000) can0 75D#0100000000000080
(2.624000) can0 545#010000000010308B
(2.624000) can0 41D#00
(2.625000) can0 1D5#290000000000807F
(2.626000) can0 266#1E00123212004401
(2.627000) can0 126#30D8303493
(2.627000) can0 1F8#1A000000
(2.628000) can0 268#64128F01EA
(2.629000) can0 2B6#000300
(2.629000) can0 340#0400000000000000
(2.630000) can0 397#F31F80951C140000
(2.631000) can0 249#3A0C0000
(2.632000) can0 441#31858900320018F2
(2.632000) can0 113#019701
(2.633000) can0 458#00002000000000
(2.636000) can0 289#D20C070399003D0F
(2.636000) can0 118#C76E950000C8E4FF
(2.638000) can0 383#BD181600ADE20629
(2.639000) can0 7D5#3200000000000000
(2.641000) can0 129#402BF35FFF1FFF3F
(2.643000) can0 423#00001000000000
(2.643000) can0 677#0300000000000000
(2.644000) can0 1F9#0000000000000000
(2.645000) can0 1D5#290000000000C0BF
(2.645000) can0 132#9B8E37FEA63C
(2.648000) can0 3FD#0200000000000090
(2.649000) can0 381#3410C004000000FE
(2.652000) can0 2E1#1021040010000004
(2.654000) can0 3A2#92ACFFFF03000000
(2.654000) can0 1D5#290000000000E0DF
(2.655000) can0 1E5#286C0400000040BE
(2.657000) can0 118#DA60950000C80400
(2.657000) can0 2E5#000013320000DD00
(2.658000) can0 439#0000000000185A04
(2.659000) can0 263#0400000070140000
(2.660000) can0 3F5#0000C838820C0000
(2.660000) can0 7AA#0B48002849003C00
(2.661000) can0 211#B915710F1001
(2.662000) can0 2C2#2040C04B010080CB
(2.662000) can0 2C1#2304900000000000
(2.663000) can0 207#0000000000000000
(2.666000) can0 118#CA61950000C8F4FF
(2.666000) can0 257#5951695F0AA83401
(2.667000) can0 719#6EAD02005E050014
(2.670000) can0 243#00FCCF0C97440D29
(2.671000) can0 283#000000004000
(2.674000) can0 39D#245B012800
(2.674000) can0 379#03C00E4833B92200
(2.675000) can0 1D8#29BC8016000080D4
(2.676000) can0 401#1A2A9A949C94A494
(2.676000) can0 3C0#0400000000000000
(2.677000) can0 2E5#000013320000DD00
(2.680000) can0 263#700ED29FA74F5F1F
(2.680000) can0 22A#0000D916
(2.681000) can0 139#00
(2.684000) can0 103#22B38804A2EE2032
(2.684000) can0 677#0400000000000000
(2.685000) can0 1D8#29BE40160000A0B6
(2.686000) can0 1E5#286C04000000209E
(2.686000) can0 2D2#ED2EAE4EFB0CE822
(2.688000) can0 292#51A6886595010000
(2.689000) can0 287#31343032D8020000
(2.690000) can0 27A#ADB8FC00B4056202
(2.690000) can0 129#9020F35F0020FF3F
(2.691000) can0 396#091E1F4C4241127D
(2.692000) can0 3A2#6025F3A91C804175
(2.693000) can0 360#0700000000000000
(2.693000) can0 70B#0700000000000000
(2.694000) can0 748#2A1F0A0000
(2.695000) can0 3A3#14D00000380DFC01
(2.695000) can0 1E5#286C0400000040BE
(2.696000) can0 266#1E00123212004401
(2.697000) can0 401#1B2A98949594A194
(2.698000) can0 2E5#000013320000DD00
(2.699000) can0 2E1#FB1F7E19967A0900
(2.702000) can0 393#080001B107B00304
(2.702000) can0 2C1#50407E00008A0200
(2.703000) can0 6A2#0000000000
(2.704000) can0 288#0106184C006091E6
(2.704000) can0 281#2F00FF1F0001
(2.705000) can0 1D8#29BE80160000E036
(2.706000) can0 122#00001392D2000000
(2.707000) can0 20C#8638361231010010
(2.707000) can0 2E5#000013320000DD00
(2.708000) can0 247#520EFF1400FF0200
(2.711000) can0 39A#51FFFDFDFD01000A
(2.713000) can0 2A8#010100000600B062
(2.713000) can0 39D#255C012800
(2.715000) can0 2E1#0400000000202000
(2.715000) can0 132#9D8E37FEAB3C
(2.716000) can0 266#1D00123212004401
(2.717000) can0 719#0C890F0051016000
(2.720000) can0 381#16000400007F0000
(2.720000) can0 282#9C64920920540324
(2.721000) can0 428#20001010000010
(2.722000) can0 545#01000000001060BB
(2.722000) can0 261#05227FC99A42D011
(2.723000) can0 21D#0400B50000000000
(2.724000) can0 400#00E0FBBEEFFB00
(2.725000) can0 118#0167950000C82400
(2.725000) can0 132#988E33FE9F3C
(2.726000) can0 126#2F40313C03
(2.728000) can0 1D6#420800008AC88008
(2.728000) can0 340#0500000000000000
(2.729000) can0 397#F31F80951C140000
(2.730000) can0 129#5F24F35F0020FF3F
(2.731000) can0 3F9#0700000000000000
(2.731000) can0 54F#0000000000000000
(2.732000) can0 318#1A06380B10292BE2
(2.733000) can0 7F4#01
(2.734000) can0 22B#FF000000801F00F8
(2.734000) can0 3AE#0B4000080000B004
(2.735000) can0 1D8#29BE401600004056
(2.736000) can0 420#2801404B00008007
(2.736000) can0 401#1D2A92949F949294
(2.737000) can0 7D5#2BA1FFFE00000000
(2.740000) can0 2E5#000013320000DD00
(2.742000) can0 4E2#03B0010000002800
(2.744000) can0 423#00001000000000
(2.746000) can0 1F9#0000000000000000
(2.748000) can0 1E5#286C0400000060DE
(2.750000) can0 2F1#0AB1010000000000
(2.752000) can0 119#00000000
(2.754000) can0 3A2#92ACFFFF03000000
(2.757000) can0 261#314004008349FA31
(2.761000) can0 3F5#0000C838820C0000
(2.763000) can0 211#BA16710F1001
(2.765000) can0 677#0100000000000000
(2.767000) can0 1D8#29BE80160000A0F6
(2.769000) can0 719#0D00000000000000
(2.771000) can0 129#5228F35F0020FF3F
(2.775000) can0 3C2#2955000000000000
(2.776000) can0 132#A38E33FE993C
(2.777000) can0 3C0#0500010000000000
(2.777000) can0 2E5#000013320000DD00
(2.780000) can0 2E1#026D66021BC60000
(2.782000) can0 22A#0000D916
(2.784000) can0 405#100000000035594A
(2.786000) can0 118#B66D950000C8D4FF
(2.788000) can0 3A2#6045F3A61C804175
(2.790000) can0 2E5#000013320000DD00
(2.792000) can0 129#B12AF35FFF1FFF3F
(2.795000) can0 224#0408004019011008
(2.796000) can0 132#A18E32FEA13C
(2.797000) can0 266#1E00123212004401
(2.798000) can0 359#0202000064828624
(2.799000) can0 221#610555550107A0DB
(2.800000) can0 788#0240CD0700030000
(2.801000) can0 393#0380610000000000
(2.803000) can0 261#3413084B004024F4
(2.803000) can0 677#0200000000000000
(2.804000) can0 288#0106184C0060A1F6
(2.805000) can0 1D5#290000000000C0BF
(2.805000) can0 132#A18E32FE9B3C
(2.806000) can0 257#6058695F0AA83401
(2.809000) can0 2E5#000013320000DD00
(2.809000) can0 39A#181BEB6E07DBB27E
(2.812000) can0 2E1#0400000000202000
(2.812000) can0 4E3#D5028201001C0000
(2.814000) can0 382#3817200000
(2.814000) can0 1D5#290000000000E0DF
(2.815000) can0 1E5#286C0400000040BE
(2.816000) can0 118#FA60950000C82400
(2.817000) can0 401#2100000000000000
(2.817000) can0 2E5#000013320000DD00
(2.818000) can0 719#3302600000000000
(2.819000) can0 261#05227FC99A423071
(2.820000) can0 3A2#0110200000000000
(2.821000) can0 448#20001010000010
(2.821000) can0 3C2#0055555500006A05
(2.822000) can0 75D#5240AE000000B04A
(2.823000) can0 31E#0200000000000000
(2.824000) can0 25D#3741012A04F08803
(2.825000) can0 118#2B61950000C85400
(2.826000) can0 1E5#286C0400000060DE
(2.827000) can0 1D6#420800008AC88008
(2.827000) can0 268#64128F01E9
(2.828000) can0 2E1#658008008436316A
(2.829000) can0 243#0300000033513100
(2.830000) can0 397#F31F80951C160000
(2.830000) can0 129#ED2EF35FFF1FFF3F
(2.831000) can0 441#3185890032002802
(2.832000) can0 113#019701
(2.833000) can0 201#0158980001000000
(2.833000) can0 3AE#0B4000080000E135
(2.834000) can0 289#D20C070388003D0F
(2.835000) can0 1D5#290000000000201F
(2.836000) can0 1E5#286C04000000007E
(2.837000) can0 7D5#2BA0FFFE00000000
(2.838000) can0 2E5#000013320000DD00
(2.839000) can0 7D7#3225000000000000
(2.839000) can0 129#1C2FF35FFF1FFF3F
(2.842000) can0 4E2#04F6C08F20080200
(2.842000) can0 423#00001000000000
(2.843000) can0 2E1#1021040010000004
(2.846000) can0 1F9#0000000000000000
(2.846000) can0 257#625A695F0AA83401
(2.847000) can0 285#02A800000000B200
(2.848000) can0 552#0000000000003087
(2.848000) can0 2F1#2B73008400000000
(2.849000) can0 2C3#0000C04B010040CB
(2.851000) can0 261#31400D0080495A97
(2.852000) can0 3A2#92ACFFFF03000000
(2.854000) can0 7E8#0A01080007001F00
(2.854000) can0 743#22
(2.855000) can0 1D8#29C2C0160000C05A
(2.856000) can0 401#2300000000000000
(2.856000) can0 266#1E00123212004401
(2.857000) can0 2E5#000013320000DD00
(2.860000) can0 439#0000000000185A04
(2.862000) can0 211#BB17710F1001
(2.862000) can0 207#0000000000000000
(2.863000) can0 381#1A00000000000000
(2.866000) can0 118#FF65950000C82400
(2.866000) can0 257#635B695F0AA83401
(2.868000) can0 719#0300000000000000
(2.869000) can0 243#00FCCF0C97440D29
(2.869000) can0 23E#00003AC002FF9FDA
(2.870000) can0 6C8#187C00F412200C00
(2.871000) can0 2E2#0100004F020B0000
(2.874000) can0 3AE#0B4000080000F145
(2.874000) can0 379#0500A4CD800D0006
(2.875000) can0 1E5#286C04000000007E
(2.876000) can0 118#4066950000C86400
(2.876000) can0 3C0#0600000000000000
(2.877000) can0 2E5#000013320000DD00
(2.880000) can0 263#700ED29FA74F5F1F
(2.880000) can0 22A#0000D916
(2.881000) can0 139#00
(2.884000) can0 737#03000000E0F080
(2.885000) can0 718#00000000000000
(2.886000) can0 1E5#286C04000000209E
(2.887000) can0 212#5904000081FF7731
(2.887000) can0 287#31343032D8020000
(2.888000) can0 186#620A0002008D1D25
(2.889000) can0 1A5#00101F5025
(2.889000) can0 27A#C0BA0C01B4056202
(2.890000) can0 352#0100130199069F03
(2.891000) can0 2E1#FB1F791996700900
(2.892000) can0 204#010000FF00000010
(2.892000) can0 360#0900000000000000
(2.895000) can0 25B#D38000056A86C063
(2.895000) can0 1D8#29C200170000401B
(2.896000) can0 1E5#286C0400000040BE
(2.898000) can0 359#03000000FF010000
(2.898000) can0 757#2C3F3E0000000000
(2.899000) can0 285#034A7D5277000000
(2.900000) can0 129#4825F35F0020FF3F
(2.901000) can0 393#080001B907B00304
(2.903000) can0 2C1#50407E00008A0200
(2.903000) can0 6A2#0000000000
(2.904000) can0 288#0106184C0060B106
(2.905000) can0 1D5#29000000000000FF
(2.905000) can0 132#A18E2DFE8E3C
(2.906000) can0 257#655D695F0AA83401
(2.907000) can0 2E1#0400000000202000
(2.908000) can0 201#00324E000080FF00
(2.908000) can0 227#D104300055000081
(2.910000) can0 39A#55FFFDFDFD01000A
(2.911000) can0 2E8#010100000600F0E2
(2.914000) can0 2A8#010100000600D082
(2.914000) can0 261#05227FC99A4290D1
(2.915000) can0 1D8#29C200170000805B
(2.916000) can0 3A1#884C0FCA0010C23F
(2.916000) can0 3AA#0000000000000000
(2.917000) can0 719#140000000000BE00
(2.918000) can0 78A#01000100C45C845D
(2.919000) can0 263#020060C60C333321
(2.919000) can0 129#7127F25F0020FF3F
(2.920000) can0 282#9C6492091C540324
(2.921000) can0 3C2#0055555500006A05
(2.924000) can0 2E1#658008008436316A
(2.925000) can0 677#0000000000000000
(2.926000) can0 108#1709060203B81D25
(2.927000) can0 257#665E695F0AA83401
(2.927000) can0 234#2EF0022BAD0460F7
(2.928000) can0 2B6#000300
(2.929000) can0 395#090F104D0F07077D
(2.929000) can0 3C3#0000000000A50000
(2.930000) can0 249#2A020000
(2.931000) can0 261#00100800FF4FA0FC
(2.932000) can0 553#000000000000C018
(2.932000) can0 318#1A06380B10292FE6
(2.933000) can0 22B#FF000000801F00E0
(2.934000) can0 289#D20C07C3A5003D0F
(2.935000) can0 1D5#290000000000605F
(2.936000) can0 132#908E2FFE973C
(2.937000) can0 383#BD181600ADE2A628
(2.938000) can0 241#36320C0F8F5500
(2.938000) can0 7D7#3225000000000000
(2.941000) can0 129#F329F25F0020FF3F
(2.943000) can0 423#00001000000000
(2.945000) can0 1F9#0000000000000000
(2.945000) can0 4F3#00000000
(2.946000) can0 266#1E00123212004401
(2.947000) can0 261#314017007C49BAFD
(2.947000) can0 2E5#000013320000DD00
(2.950000) can0 2F1#0CF501101F000000
(2.952000) can0 3A2#92ACFFFF03000000
(2.954000) can0 545#020002000000D01E
(2.957000) can0 2E1#398D2AFF0F000000
(2.959000) can0 2E5#000013320000DD00
(2.961000) can0 3F5#0000C838820C0000
(2.963000) can0 211#BC18710F1001
(2.965000) can0 118#596F950000C87400
(2.967000) can0 132#8D8E32FEA13C
(2.967000) can0 2E5#000013320000DD00
(2.968000) can0 243#00FCCF0C97440D29
(2.971000) can0 129#792CF25FFE1FFF3F
(2.971000) can0 3A8#0103000700020100
(2.974000) can0 6A1#0000000000
(2.974000) can0 379#060007F0800D0002
(2.975000) can0 1D8#29BEC016000040D6
(2.976000) can0 118#1A60950000C84400
(2.976000) can0 3C0#0700000000000000
(2.978000) can0 2E5#000013320000DD00
(2.979000) can0 261#E34B0A000040D543
(2.979000) can0 129#802DF15FFD1FFF3F
(2.980000) can0 22A#0000D916
(2.981000) can0 139#00
(2.984000) can0 2C1#0400000000000000
(2.984000) can0 118#AA61950000C8D4FF
(2.985000) can0 1D8#29BE8016000060B6
(2.986000) can0 545#800558D09776E9ED
(2.986000) can0 2D2#ED2EAE4EF70CE822
(2.987000) can0 287#31343032D8020000
(2.988000) can0 2E5#000013320000DD00
(2.989000) can0 123#01000000003F0000
(2.989000) can0 243#01FC354E35005A5A
(2.991000) can0 129#5F2EF15FFD1FFF3F
(2.992000) can0 204#010000FF00000010
(2.993000) can0 2B4#3205470E5901
(2.993000) can0 39D#1C53012800
(2.996000) can0 473#0000030000000000
(2.996000) can0 359#0400000000000000
(2.997000) can0 266#1E00123212004401
(2.998000) can0 788#01000000FFA19812
(2.998000) can0 757#3200000000000000
(2.999000) can0 263#49FED1A7A72F5F1F
(3.000000) can0 129#AE2FF15FFD1FFF3F
(3.003000) can0 2E1#0400000000202000
(3.003000) can0 677#0200000000000000
(3.004000) can0 288#0106184C0060C116
(3.014000) can0 1D8#29BC80160000A0F4
(3.018000) can0 1D5#290000000000605F
(3.020000) can0 2E1#658008008436316A
(3.022000) can0 282#9C64920920540324
(3.024000) can0 53E#1278CEA87F02F3C3
(3.026000) can0 25D#3741012A04F08803
(3.028000) can0 126#2FA030547A
(3.030000) can0 2E5#000013320000DD00
(3.033000) can0 129#4C22F05FFC1FFF3F
(3.034000) can0 318#1A06390B102931E9
(3.035000) can0 1D5#290000000000A09F
(3.035000) can0 55A#0100000000000000
(3.036000) can0 132#9F8E3FFEB83C
(3.037000) can0 118#0066950000C82400
(3.038000) can0 7F1#01000000000800
(3.039000) can0 339#02F1FE008007800F
(3.040000) can0 2B3#033737C80900003C
(3.041000) can0 7D7#3225000000000000
(3.043000) can0 423#00001000000000
(3.043000) can0 381#0400000000000000
(3.044000) can0 1F9#0000000000000000
(3.045000) can0 1D5#290000000000C0BF
(3.045000) can0 334#3F3F1408FF0122F3
(3.046000) can0 3FD#0000003C20000180
(3.052000) can0 1E5#286C04000000209E
(3.055000) can0 1D5#290000000000E0DF
(3.055000) can0 1E5#286C0400000040BE
(3.056000) can0 266#1D00123212004301
(3.058000) can0 2E5#000013320000DD00
(3.058000) can0 439#0000000000185A04
(3.059000) can0 45A#FD07F8FF03009600
(3.060000) can0 129#8F25F15F0020FF3F
(3.063000) can0 207#0000000000000000
(3.065000) can0 118#1369950000C83400
(3.065000) can0 225#5555FA00
(3.066000) can0 257#766569600AB03401
(3.067000) can0 2E1#026D66021BC60000
(3.067000) can0 2E5#000013320000DD00
(3.068000) can0 719#1700000000000000
(3.071000) can0 23E#00003AC002FFEF2A
(3.075000) can0 39D#1E55012800
(3.077000) can0 132#9B8E3AFEB23C
(3.079000) can0 2E5#000013320000DD00
(3.082000) can0 129#1B27F05F0120FF3F
(3.085000) can0 301#1100000000000000
(3.086000) can0 242#55558600
(3.087000) can0 252#F731EF7700FC0F00
(3.087000) can0 2E5#000013320000DD00
(3.088000) can0 195#400000000A002706
(3.089000) can0 123#00001392D2000000
(3.090000) can0 2AA#57F0F3
(3.090000) can0 37A#CBE0010000000000
(3.091000) can0 2C4#03010E20010C8000
(3.092000) can0 264#3A000000A000
(3.093000) can0 360#0000000000000000
(3.095000) can0 22B#FF000000800F0000
(3.095000) can0 3FD#01000A0000080280
(3.102000) can0 1E5#286C0400000040BE
(3.103000) can0 656#1232A63551A0A09F
(3.103000) can0 356#0000000000000000
(3.104000) can0 35B#0000000000000000
(3.105000) can0 118#E76D950000C80400
(3.106000) can0 132#A88E40FEBD3C
(3.106000) can0 122#00001392D2000000
(3.107000) can0 20C#8538361231010010
(3.108000) can0 7A8#0240C807000F0000
(3.109000) can0 227#CB042F0055000081
(3.109000) can0 39A#59FFFDFDFD01000A
(3.112000) can0 2E8#0101000006001002
(3.112000) can0 4E3#01D8050000002800
(3.115000) can0 39D#1F56012800
(3.116000) can0 1E5#286C04000000007E
(3.117000) can0 3A2#0110200000000000
(3.117000) can0 719#0003140F14050E00
(3.118000) can0 343#009268AE94000000
(3.119000) can0 263#020060C60C333321
(3.120000) can0 129#1A2BF05F0020FF3F
(3.120000) can0 428#20001010000010
(3.121000) can0 3E2#040000610FCF00
(3.122000) can0 41D#00
(3.123000) can0 261#00100700FF4F60BB
(3.123000) can0 2F9#BCFB070800000000
(3.126000) can0 118#D86F950000C8F4FF
(3.126000) can0 126#2F482F5C29
(3.127000) can0 1F8#1A000000
(3.128000) can0 279#32BBFC01B4056502
(3.129000) can0 395#090F114D0F07087D
(3.133000) can0 441#31858900320000DA
(3.135000) can0 289#D20C07438C003D0F
(3.137000) can0 132#A88E3CFEA93C
(3.139000) can0 7D5#3200000000000000
(3.141000) can0 129#682DF05F0020FF3F
(3.143000) can0 423#00001000000000
(3.145000) can0 22B#7F00000080070000
(3.145000) can0 266#1D00123212004401
(3.146000) can0 257#7A6969600AB03401
(3.149000) can0 2E5#000013320000DD00
(3.151000) can0 2C3#555BA9B682C112AA
(3.153000) can0 119#00000000
(3.155000) can0 39D#2057012800
(3.158000) can0 261#52293D02805C820E
(3.160000) can0 439#0000000000185A04
(3.162000) can0 207#0000000000000000
(3.165000) can0 2E1#026D66021BC50000
(3.165000) can0 266#1D00123212004401
(3.166000) can0 257#7B6A69600AB03401
(3.167000) can0 719#0100040000000000
(3.170000) can0 243#00FCCF0C97440D29
(3.170000) can0 2D1#FF01
(3.171000) can0 3A8#2A80E1F51F00FFBF
(3.174000) can0 6A1#0000000000
(3.174000) can0 379#080000000B000C03
(3.175000) can0 1E5#286C0400000040BE
(3.176000) can0 118#FE64950000C82400
(3.176000) can0 3C0#0900000000000000
(3.179000) can0 2E5#000013320000DD00
(3.179000) can0 3E8#0200000000000000
(3.180000) can0 3C8#0400000000000000
(3.181000) can0 139#00
(3.181000) can0 421#021A0000002000
(3.184000) can0 103#22B38804A2EE2032
(3.184000) can0 118#9E65950000C8C4FF
(3.185000) can0 1D8#29B8C0150000E06F
(3.186000) can0 1E5#286C0400000060DE
(3.186000) can0 261#3413084B0040A474
(3.187000) can0 2E5#000013320000DD00
(3.188000) can0 2AA#570003
(3.189000) can0 123#01000000003F0000
(3.189000) can0 27A#B2BDFC00B4056202
(3.191000) can0 129#FD22F05F0020FF3F
(3.192000) can0 2B4#3305480E6301
(3.192000) can0 360#0100000000000000
(3.193000) can0 42E#00E0BFFFFEEFBFFF
(3.194000) can0 25B#D38000056A86F093
(3.195000) can0 22B#7F00000080070000
(3.195000) can0 61D#01C178218C150410
(3.196000) can0 2E1#0400000000202000
(3.197000) can0 266#1D00123212004401
(3.198000) can0 401#022AA694AC94AE94
(3.198000) can0 757#3200000000000000
(3.199000) can0 263#49FED1A7A72F5F1F
(3.200000) can0 129#1E23F15F0020FF3F
(3.201000) can0 393#0380610000000000
(3.204000) can0 261#05227FC99A42B0F1
(3.204000) can0 1D5#290000000000C0BF
(3.205000) can0 281#2F00FF1F0001
(3.206000) can0 266#1D00123212004401
(3.206000) can0 257#7D6C69600AB03401
(3.207000) can0 2E5#000013320000DD00
(3.210000) can0 243#02FC5B0E03EB0000
(3.210000) can0 2E1#658008008536316A
(3.213000) can0 2A8#01010000060000B2
(3.215000) can0 1D5#290000000000E0DF
(3.215000) can0 1E5#286C0400000040BE
(3.216000) can0 118#D168950000C8F4FF
(3.217000) can0 401#032AB594AE94A394
(3.217000) can0 2E5#000013320000DD00
(3.219000) can0 343#0092606E94000000
(3.220000) can0 129#7B25F05F0020FF3F
(3.221000) can0 682#000000400411D005
(3.221000) can0 3C2#0055555500006A05
(3.224000) can0 75D#0400000000000000
(3.224000) can0 118#F369950000C81400
(3.225000) can0 1D8#29B6C015000060ED
(3.226000) can0 1E5#286C0400000060DE
(3.226000) can0 128#0000EC0A02
(3.227000) can0 1F8#1A000000
(3.228000) can0 279#33BCFC01B4056502
(3.229000) can0 340#0A00002000000000
(3.229000) can0 397#F31F80951C140000
(3.230000) can0 23E#00003AC002FF2F6A
(3.232000) can0 3E9#008802000000A016
(3.232000) can0 7FF#0191494642041601
(3.233000) can0 458#00002000000000
(3.234000) can0 289#D20E070382003D0F
(3.235000) can0 1D8#29B6C0150000800D
(3.235000) can0 132#9D8E45FECA3C
(3.236000) can0 420#2801404B00000002
(3.237000) can0 383#BD181600ADE2A628
(3.238000) can0 2E5#000013320000DD00
(3.238000) can0 315#0200041700000000
(3.239000) can0 263#0300000000000000
(3.240000) can0 726#020000
(3.240000) can0 7D5#2C3E3F0000000000
(3.241000) can0 4E2#01400E0100002800
(3.243000) can0 335#1232A63551A0A09F
(3.243000) can0 2E1#398D2AFF0F000000
(3.244000) can0 3C5#0000000000000000
(3.245000) can0 1D5#290000000000403F
(3.246000) can0 118#A56B950000C8C400
(3.247000) can0 284#300000004008908E
(3.247000) can0 368#0000000000000000
(3.248000) can0 2E5#000013320000DD00
(3.249000) can0 552#00000000000070C7
(3.249000) can0 243#04FCF3ECE97AFFFF
(3.250000) can0 545#02000100000060AD
(3.251000) can0 7D5#485E68000080175C
(3.254000) can0 238#8839F61C3E004893
(3.255000) can0 1D5#290000000000605F
(3.260000) can0 2E5#000013320000DD00
(3.262000) can0 207#0000000000000000
(3.264000) can0 717#01CBFF52002500
(3.266000) can0 118#F76D950000C81400
