(0.000000) can0 257#C7D67A7602683D01
(0.003000) can0 1D6#400800004A049808
(0.007000) can0 6A1#0000000000
(0.009000) can0 2E5#00001C320000BC00
(0.011000) can0 2E8#010100000600E0D2
(0.013000) can0 261#00100400FF4F60B8
(0.015000) can0 288#0106184C00604196
(0.019000) can0 2E5#00001C320000BC00
(0.019000) can0 212#5904000081FF7731
(0.020000) can0 23E#00003AC002FF8FCA
(0.021000) can0 2C1#215B1D8C02000000
(0.022000) can0 129#C82EEB5F0820FF3F
(0.022000) can0 249#D3030000
(0.023000) can0 396#090F10451104117D
(0.024000) can0 283#000000004000
(0.026000) can0 3A2#6025F3BE1C00C36B
(0.026000) can0 677#0000000000000000
(0.027000) can0 2E5#00001C320000BD00
(0.028000) can0 118#9B61950000C8C400
(0.029000) can0 441#4A85890032001003
(0.029000) can0 201#0104980000000000
(0.030000) can0 757#3200000000000000
(0.031000) can0 129#942FEB5F0920FF3F
(0.032000) can0 78A#0100000016130C0D
(0.034000) can0 102#22B3880494FAA009
(0.034000) can0 2C4#C835603A41DA22AA
(0.035000) can0 227#000000003E000080
(0.036000) can0 247#4B0EFF0000000000
(0.036000) can0 473#0000030000000000
(0.038000) can0 3FD#01000A0000080280
(0.042000) can0 2A4#787F3BDD1B3F793F
(0.043000) can0 21D#0400B50000000000
(0.044000) can0 31A#200100000000003E
(0.044000) can0 3AE#FC3F0008000080C4
(0.045000) can0 2F1#03DAEA8043000100
(0.048000) can0 6A2#0000000000
(0.048000) can0 118#ED63950000C81400
(0.049000) can0 257#CBDA7A7602683D01
(0.052000) can0 129#CB21EB5F0820FF3F
(0.054000) can0 39A#79FFFDFDFD01000A
(0.054000) can0 282#74D0410704F40224
(0.055000) can0 201#0200000000000000
(0.056000) can0 40A#091000000000D0F7
(0.057000) can0 3F5#0000C838820C0000
(0.058000) can0 1E5#286C0400000040BE
(0.059000) can0 118#3E64950000C86400
(0.060000) can0 261#834D0A00004095A5
(0.060000) can0 2C1#1304900000000000
(0.061000) can0 129#8222EB5F0820FF3F
(0.062000) can0 3A1#C1FFFF7B3D005087
(0.065000) can0 132#698E05FD3B3A
(0.065000) can0 4E3#0600000000000000
(0.068000) can0 2F9#BCFB070800000000
(0.068000) can0 289#C6068381A1003D0F
(0.069000) can0 257#CCDB7A7602683D01
(0.070000) can0 128#0000EC0A02
(0.070000) can0 2B6#000300
(0.072000) can0 397#132080C21C180000
(0.075000) can0 3F9#0400000000000000
(0.075000) can0 4E2#00D100FF0F002800
(0.078000) can0 2E5#00001C320000BD00
(0.078000) can0 3E8#0400000000000000
(0.079000) can0 7D5#2B679FFF00000000
(0.080000) can0 2BF#00000000000001
(0.080000) can0 3F6#00050000B6340001
(0.081000) can0 339#02F1FE008007800F
(0.082000) can0 7D7#3234000000000000
(0.085000) can0 2E1#0400000000102007
(0.089000) can0 3FD#0000003C20000180
(0.090000) can0 333#0410890700
(0.091000) can0 129#B825EB5F0520FF3F
(0.093000) can0 263#0300000000000000
(0.093000) can0 7A8#0240BF07000F0000
(0.094000) can0 132#688E07FD473A
(0.097000) can0 221#6105555501056099
(0.097000) can0 1D8#290C4120000040AF
(0.098000) can0 2AA#576063
(0.099000) can0 118#9268950000C8B400
(0.099000) can0 2E1#6580080079DA306A
(0.100000) can0 677#0200000000000000
(0.101000) can0 129#FD26EB5F0320FF3F
(0.102000) can0 281#0000FF1F0000
(0.104000) can0 6A1#0000000000
(0.104000) can0 201#003E3D000080FF00
(0.105000) can0 319#1000000081F3DE61
(0.106000) can0 3C2#2955000000000000
(0.107000) can0 2E5#00001C320000BD00
(0.108000) can0 118#5369950000C87400
(0.109000) can0 257#CEDD7A7602683D01
(0.109000) can0 2E3#02000065010B00
(0.112000) can0 43B#037F00FF00000000
(0.112000) can0 381#EFFFFFCD0300A609
(0.113000) can0 45A#FD07F8FF03003200
(0.114000) can0 288#0106184C006051A6
(0.114000) can0 1D5#290000000000403F
(0.115000) can0 2E1#1021040010000004
(0.116000) can0 292#A2129AAAA9010000
(0.117000) can0 2F2#1201
(0.117000) can0 1D8#290C4120000080EF
(0.118000) can0 195#400800000A002706
(0.120000) can0 118#E46A950000C80400
(0.120000) can0 448#20001010000010
(0.121000) can0 229#310E00
(0.122000) can0 2A8#010100000600E092
(0.125000) can0 3A2#604573BF1C00C36B
(0.125000) can0 372#0900000000F83F00
(0.126000) can0 545#01000000001070CB
(0.129000) can0 2E5#00001C320000BD00
(0.129000) can0 376#014645004E000000
(0.130000) can0 3C0#0A00000000000000
(0.131000) can0 376#04FFFFFFFF454244
(0.131000) can0 263#700ED29FA7AF1A00
(0.132000) can0 557#5A6E190002
(0.133000) can0 757#4645444545364343
(0.136000) can0 757#484547000040115C
(0.138000) can0 247#4B0EFF0000000000
(0.140000) can0 3FD#01000A0000080280
(0.146000) can0 78A#01000100E85CC05D
(0.148000) can0 6A2#0000000000
(0.150000) can0 1E5#286C0400000060DE
(0.151000) can0 263#6136D29F976F9A00
(0.154000) can0 39A#1027EB8AFF0EDB7E
(0.154000) can0 282#74D0410700F40224
(0.155000) can0 201#0200000000000000
(0.156000) can0 318#1A060D0510093FA5
(0.156000) can0 3E2#040000611FCF00
(0.157000) can0 3F5#0000C838820C0000
(0.158000) can0 2E5#00001C320000BD00
(0.161000) can0 458#00002000000000
(0.163000) can0 129#972CEB5FFF1FFF3F
(0.165000) can0 2E1#FB1FB01999A60900
(0.167000) can0 4E3#00AC010000002800
(0.169000) can0 2D1#FF01
(0.171000) can0 126#41802F1C33
(0.173000) can0 249#4C060000
(0.176000) can0 3F9#0500000000000000
(0.178000) can0 2E5#00001C320000BD00
(0.178000) can0 3E8#0500000000000000
(0.179000) can0 118#C960950000C8F4FF
(0.180000) can0 266#350018401700F100
(0.180000) can0 2E1#0400000000102007
(0.181000) can0 129#5A2EEB5FFF1FFF3F
(0.182000) can0 718#02000000000000
(0.183000) can0 552#000000000000C017
(0.184000) can0 132#638E06FD413A
(0.185000) can0 372#0A184806010000AA
(0.188000) can0 2E5#00001C320000BD00
(0.188000) can0 1E5#286C0400000060DE
(0.189000) can0 257#DAE17A7602703D01
(0.190000) can0 3FD#0200B20000000090
(0.192000) can0 422#700010000000
(0.195000) can0 7A8#C4CCC18300008200
(0.195000) can0 2E1#6580080079DA306A
(0.196000) can0 2C2#2040C04B010080CB
(0.197000) can0 7AA#0A8D068D06005800
(0.197000) can0 1D8#290C4120000080EF
(0.200000) can0 118#AC62950000C8D400
(0.201000) can0 129#2720EB5F0020FF3F
(0.202000) can0 281#0000FF1F0000
(0.205000) can0 261#00100400FF4F2078
(0.205000) can0 401#1F2A3D944F944A94
(0.206000) can0 788#01000000FFA1F812
(0.209000) can0 2E5#00001C320000BD00
(0.209000) can0 2E8#01010000060000F2
(0.212000) can0 719#EEC55500625A0014
(0.212000) can0 1FA#1AC001
(0.215000) can0 288#0106184C006061B6
(0.215000) can0 2D2#FE2E914EB907E822
(0.216000) can0 292#A2129AAAA9010000
(0.217000) can0 392#0111A467000A0300
(0.217000) can0 1D8#290C41200000C02F
(0.219000) can0 1E5#286C0400000040BE
(0.220000) can0 23E#00003AC002FFDF1A
(0.221000) can0 2C1#215B1D8C02000000
(0.221000) can0 396#090F10451104117D
(0.222000) can0 249#5E070000
(0.223000) can0 3A2#604573C01C00C36B
(0.223000) can0 54F#0000000000000000
(0.224000) can0 677#0000000000000000
(0.225000) can0 132#618E05FD383A
(0.228000) can0 360#0400000000000000
(0.228000) can0 1E5#286C0400000060DE
(0.229000) can0 22B#FFFFFFFF07000000
(0.230000) can0 201#0104980000000000
(0.230000) can0 78A#0100020060065F06
(0.232000) can0 263#700ED29FA7AF1A00
(0.235000) can0 102#22B3880494FAA009
(0.235000) can0 227#000000003E000080
(0.236000) can0 241#3C3C160F8F5500
(0.237000) can0 61D#0428673B8E150908
(0.237000) can0 2B4#49053E0E6901
(0.238000) can0 1E5#286C04000000007E
(0.239000) can0 118#E066950000C80400
(0.240000) can0 2C1#0219060000D00200
(0.243000) can0 129#0F24EC5F0220FF3F
(0.243000) can0 3DD#95038127C1000000
(0.244000) can0 21D#0400B50000000000
(0.245000) can0 232#8A008F0EC9040000
(0.245000) can0 221#6055551554519178
(0.247000) can0 6A2#0000000000
(0.248000) can0 118#3167950000C85400
(0.248000) can0 266#340018401700F100
(0.251000) can0 129#1825EC5F0220FF3F
(0.252000) can0 263#6136D29F976F9A00
(0.256000) can0 282#74D0410700F40224
(0.258000) can0 318#1A060D0510092187
(0.260000) can0 1D8#290C4120000040AF
(0.262000) can0 2E1#FB1FB02999A60900
(0.264000) can0 45A#24B839386045376F
(0.266000) can0 132#628E0BFD4D3A
(0.269000) can0 2F9#BCFB071800000000
(0.270000) can0 1D6#400800004A049808
(0.271000) can0 395#0916164F150D097D
(0.272000) can0 249#3F080000
(0.275000) can0 3F9#0600000000000000
(0.275000) can0 4E2#025D040000002800
(0.278000) can0 2E5#00001C320000BC00
(0.278000) can0 1E5#286C04000000007E
(0.279000) can0 22B#FFFFFFFF07000000
(0.280000) can0 2BF#00000000000001
(0.280000) can0 7D5#2B679FFF00000000
(0.281000) can0 315#0200011700000000
(0.282000) can0 339#02F1FE008007800F
(0.283000) can0 3B6#E667DB0C0000200D
(0.283000) can0 3D5#4F4F4F4F4F2C034D
(0.284000) can0 553#0000000000003088
(0.285000) can0 1D5#290000000000605F
(0.286000) can0 3A7#0000000000000000
(0.287000) can0 7D7#3234000000000000
(0.288000) can0 1D8#290C01200000A0CF
(0.289000) can0 367#0000000000000000
(0.289000) can0 368#0000000000000000
(0.290000) can0 257#DFE67A7602703D01
(0.291000) can0 36E#0000000000000000
(0.292000) can0 3C8#0200000000000000
(0.292000) can0 2B3#0A2E2C0005000002
(0.293000) can0 422#700010000000
(0.294000) can0 7A8#01000000FFA1E812
(0.295000) can0 7D5#464B496048394849
(0.295000) can0 119#00000000
(0.296000) can0 423#00001000000000
(0.297000) can0 2E5#00001C320000BC00
(0.298000) can0 1D8#290C01200000C0EF
(0.299000) can0 266#340018401700F100
(0.300000) can0 23E#00003AC002FFFF3A
(0.301000) can0 129#E32AED5F0420FF3F
(0.301000) can0 228#0106184C00606156
(0.302000) can0 439#0000000000185A04
(0.305000) can0 6A1#0000000000
(0.305000) can0 1FB#0000000000000000
(0.306000) can0 3C2#2955000000000000
(0.309000) can0 2E5#00001C320000BC00
(0.309000) can0 2E8#0101000006001002
(0.312000) can0 719#0D00000000000000
(0.312000) can0 234#2DE00230C104009F
(0.315000) can0 288#0106184C006071C6
(0.316000) can0 261#31004800AB499AFD
(0.319000) can0 2E5#00001C320000BC00
(0.319000) can0 252#C91DC27800FC0F00
(0.320000) can0 27A#BBC6FC00B4056202
(0.321000) can0 2D2#FE2E924EB907E822
(0.321000) can0 396#090F11451104127D
(0.322000) can0 243#00FCCFCC99260E29
(0.323000) can0 3A2#6025F3C11C00C36B
(0.324000) can0 283#000000004000
(0.324000) can0 545#010000000010D02B
(0.325000) can0 1D5#290000000000E0DF
(0.326000) can0 360#0500000000000000
(0.329000) can0 2E5#00001C320000BC00
(0.329000) can0 757#2C3F3E0000000000
(0.331000) can0 428#20001010000010
(0.332000) can0 263#700ED29FA7AF1A00
(0.334000) can0 102#22B3880494FAA009
(0.334000) can0 2C4#4B8000A2220B0C00
(0.335000) can0 204#010000FF00000010
(0.336000) can0 241#3C3C160F8F5500
(0.336000) can0 264#3A000000A000
(0.337000) can0 2B4#4B05430E5301
(0.338000) can0 2E5#00001C320000BC00
(0.339000) can0 373#064F8D6D74E3181F
(0.339000) can0 3AE#034000080000519D
(0.340000) can0 6D4#0D0000005235E9A9
(0.341000) can0 266#340018401700F100
(0.342000) can0 386#0000000000000000
(0.343000) can0 3A0#0000000000000000
(0.344000) can0 21D#0400B50000000000
(0.345000) can0 132#618E0CFD4B3A
(0.345000) can0 221#605555155451B198
(0.346000) can0 6A2#0000000000
(0.347000) can0 7AA#0C00000000000039
(0.348000) can0 1D8#290A01200000608D
(0.348000) can0 272#080004E907B00304
(0.349000) can0 3A3#18C00000280DFC01
(0.352000) can0 129#BD2FF05F0820FF3F
(0.354000) can0 39A#0C2BEB8AFF0EDB7E
(0.354000) can0 282#74D0410704F40224
(0.355000) can0 201#0200000000000000
(0.356000) can0 419#00
(0.359000) can0 3C2#0055555500006A05
(0.361000) can0 2C1#1304900000000000
(0.363000) can0 1F8#1A000000
(0.365000) can0 261#940E904C0040C478
(0.367000) can0 4E3#0200000000002800
(0.369000) can0 2D1#FF01
(0.371000) can0 108#8D55082A04B02425
(0.374000) can0 2E1#0400000000102007
(0.374000) can0 1D5#290000000000807F
(0.375000) can0 4E2#03B0010000002800
(0.378000) can0 2E5#00001C320000BC00
(0.378000) can0 3E8#0000000000000000
(0.379000) can0 118#EE64950000C81400
(0.380000) can0 201#0300000000000000
(0.380000) can0 266#340018401700F100
(0.382000) can0 677#0400000000000000
(0.383000) can0 718#03000000000000
(0.383000) can0 7D5#3200000000000000
(0.384000) can0 7D7#3234000000000000
(0.385000) can0 320#0400000000000000
(0.386000) can0 355#800C00FF940000
(0.389000) can0 2E5#00001C320000BC00
(0.389000) can0 25B#D38000056A86E083
(0.390000) can0 383#9118320021800003
(0.391000) can0 545#900453F09AA5F959
(0.391000) can0 295#1D2C000000000003
(0.394000) can0 7A8#0240BE07000F0000
(0.394000) can0 132#5A8E09FD4A3A
(0.395000) can0 22A#0000D916
(0.396000) can0 423#00001000000000
(0.397000) can0 2E5#00001C320000BC00
(0.398000) can0 2AA#579093
(0.399000) can0 118#4066950000C86400
(0.399000) can0 2C1#68347E00008A0200
(0.402000) can0 129#2524F25F0A20FF3F
(0.402000) can0 439#0000000000185A04
(0.403000) can0 2E1#1021040010000004
(0.406000) can0 201#003D3D000080FF00
(0.406000) can0 666#0000C800
(0.407000) can0 2E5#00001C320000BC00
(0.408000) can0 118#C167950000C8E400
(0.408000) can0 257#E5EC7A7602703D01
(0.409000) can0 2E8#0101000006002012
(0.411000) can0 719#0300000000000000
(0.411000) can0 263#04000000A0200000
(0.412000) can0 3A1#844C0FCA001CC247
(0.415000) can0 288#0106184C006081D6
(0.415000) can0 2D2#FE2E924EB907E822
(0.416000) can0 292#A2129AAAA9010000
(0.419000) can0 2E5#00001C320000BC00
(0.419000) can0 379#0500B60D000D0000
(0.420000) can0 266#340018401700F100
(0.421000) can0 396#090F11451103127D
(0.421000) can0 229#440100
(0.422000) can0 207#0000000000000000
(0.423000) can0 545#010000000010005B
(0.424000) can0 340#0400000000000000
(0.425000) can0 409#00
(0.426000) can0 360#0600000000000000
(0.429000) can0 2E5#00001C320000BC00
(0.429000) can0 757#2C3F3E0000000000
(0.430000) can0 428#20001010000010
(0.431000) can0 129#8A27F25F0820FF3F
(0.431000) can0 310#1202552524260463
(0.434000) can0 102#22B3880494FAA009
(0.434000) can0 132#6F8E07FD543A
(0.435000) can0 241#3C3C160F8F5500
(0.436000) can0 247#4B0EFF0000000000
(0.436000) can0 2B4#4905420E5201
(0.437000) can0 381#1800000000000000
(0.438000) can0 1E5#286C04000000007E
(0.439000) can0 118#446A950000C86400
(0.440000) can0 2C1#0219060000D00200
(0.441000) can0 129#6028F35F0720FF3F
(0.442000) can0 243#01006F3770009191
(0.442000) can0 25D#3741012A04F08803
(0.443000) can0 75D#0400000000000000
(0.444000) can0 132#668E0BFD4B3A
(0.447000) can0 2F1#0702000000D00000
(0.447000) can0 272#0380610000000000
(0.448000) can0 382#3817200000
(0.449000) can0 257#E7EE7A7602703D01
(0.452000) can0 129#F329F25F0020FF3F
(0.454000) can0 39A#79FFFDFDFD01000A
(0.454000) can0 282#74D0410704F40224
(0.455000) can0 201#0200000000000000
(0.457000) can0 419#00
(0.457000) can0 20E#150500
(0.458000) can0 1E5#286C0400000040BE
(0.459000) can0 118#066C950000C82400
(0.459000) can0 261#940E804C004024C8
(0.460000) can0 23E#00003AC002FF3F7A
(0.461000) can0 129#D82AF35F0020FF3F
(0.462000) can0 243#02FC8B1004A40000
(0.462000) can0 45A#24B839386045376F
(0.465000) can0 132#678E0AFD4C3A
(0.467000) can0 4E3#03FD000000002800
(0.469000) can0 2D1#FF01
(0.471000) can0 126#40E82F34B2
(0.473000) can0 129#292BF35F0020FF3F
(0.475000) can0 3F9#0800000000000000
(0.478000) can0 4E2#04C6E08C1CE00100
(0.480000) can0 441#BF00B6C35800352E
(0.481000) can0 129#492CF35F0020FF3F
(0.482000) can0 7D7#3234000000000000
(0.485000) can0 2E1#6580080079DA306A
(0.487000) can0 3A2#72A5FF7F04000000
(0.487000) can0 1D8#290A01200000204D
(0.488000) can0 118#496F950000C86400
(0.489000) can0 1F9#0000000000000000
(0.489000) can0 266#340018401700F100
(0.490000) can0 383#9118320021800003
(0.491000) can0 285#2445605872000000
(0.492000) can0 263#0300000000000000
(0.495000) can0 7A8#C4CCC18300008200
(0.496000) can0 221#610555550105E019
(0.497000) can0 2E5#00001C320000BC00
(0.498000) can0 1D8#290A01200000406D
(0.500000) can0 118#EA60950000C81400
(0.502000) can0 129#842EF35F0020FF3F
(0.503000) can0 6A1#0000000000
(0.507000) can0 2E2#0714504001000000
(0.509000) can0 261#31004200AC495AB8
(0.511000) can0 2E8#0101000006003022
(0.513000) can0 3A1#844C0FCA001CE267
(0.515000) can0 288#0106184C006091E6
(0.517000) can0 2E1#398D2AFF0F000000
(0.520000) can0 225#5555FA00
(0.521000) can0 545#010000000010308B
(0.522000) can0 207#0000000000000000
(0.523000) can0 340#0500000000000000
(0.524000) can0 283#000000004000
(0.525000) can0 132#628E0CFD513A
(0.527000) can0 360#0700000000000000
(0.527000) can0 441#4A8589003200382B
(0.528000) can0 1E5#286C04000000209E
(0.529000) can0 257#DBE27A7602703D01
(0.530000) can0 201#0104980000000000
(0.530000) can0 428#20001010000010
(0.531000) can0 129#2A21F35F0120FF3F
(0.532000) can0 2B3#CE2B5E0180131900
(0.535000) can0 102#22B3880494FAA009
(0.535000) can0 241#3C3C160F8F5500
(0.537000) can0 247#4B0EFF0000000000
(0.538000) can0 1D8#290A01200000C0ED
(0.538000) can0 39D#045CE12700
(0.539000) can0 118#1F64950000C84401
(0.540000) can0 261#834D0A0000407585
(0.540000) can0 677#0300000000000000
(0.541000) can0 123#00001392D2000000
(0.542000) can0 70B#0500000000000000
(0.543000) can0 25D#3741012A04F08803
(0.546000) can0 3AE#084000080000D122
(0.546000) can0 6A2#0000000000
(0.547000) can0 2E5#00001C320000BC00
(0.548000) can0 1D8#290A01200000E00D
(0.548000) can0 2E1#FB1FAF0999A00900
(0.553000) can0 129#7423F35F0120FF3F
(0.554000) can0 393#080004D107B00304
(0.555000) can0 201#0200000000000000
(0.556000) can0 261#940E804C00408428
(0.556000) can0 3E2#040000712FCF00
(0.557000) can0 7FF#0720000528000000
(0.558000) can0 1D8#290A01200000002D
(0.559000) can0 118#CF66950000C8F4FF
(0.559000) can0 2C1#1304900000000000
(0.562000) can0 719#1619002775010000
(0.564000) can0 2E1#0400000000102007
(0.566000) can0 132#6D8E10FD5B3A
(0.568000) can0 2F9#BCFB07030D1A8B84
(0.570000) can0 266#340018401700F100
(0.572000) can0 2B6#000300
(0.575000) can0 3F9#0000000000000000
(0.577000) can0 4E2#65018F13022F0000
(0.578000) can0 22B#FFFFFFFF07000000
(0.579000) can0 118#2368950000C84401
(0.580000) can0 266#340017401700F100
(0.580000) can0 2E1#6580080079DA306A
(0.581000) can0 381#E10300DE72727200
(0.582000) can0 2D3#5800A6021A105876
(0.583000) can0 421#F21A0000002000
(0.583000) can0 211#B915710F1001
(0.584000) can0 492#2503FF0F280000
(0.585000) can0 132#648E10FD4D3A
(0.586000) can0 372#001F0042D2115C23
(0.586000) can0 401#002A619454944A94
(0.588000) can0 3FD#0000003C20000180
(0.590000) can0 333#0410890700
(0.591000) can0 266#340018401700F100
(0.591000) can0 383#9118320021800003
(0.592000) can0 129#8527F35F0020FF3F
(0.593000) can0 7D5#3200000000000000
(0.596000) can0 3AE#084000080000F041
(0.596000) can0 2C2#2040C04B010080CB
(0.597000) can0 2E5#00001C320000BC00
(0.598000) can0 1E5#286C04000000007E
(0.598000) can0 118#646A950000C88400
(0.599000) can0 2C1#68347E00008A0200
(0.602000) can0 129#5228F35F0020FF3F
(0.602000) can0 439#0000000000185A04
(0.604000) can0 261#31002A00AB49BAFF
(0.605000) can0 1D5#290000000000605F
(0.605000) can0 3A8#0102000700020100
(0.608000) can0 2E5#00001C320000BC00
(0.608000) can0 266#340018401700F100
(0.609000) can0 2E8#0101000006004032
(0.612000) can0 43B#017F00FF00000000
(0.612000) can0 3A1#844C0FCA001C0287
(0.613000) can0 719#1700000000000000
(0.614000) can0 288#0106184C0060A1F6
(0.614000) can0 132#708E0FFD5A3A
(0.615000) can0 381#22A2F027F1209001
(0.616000) can0 3CC#03218318000E0900
(0.619000) can0 2E5#00001C320000BC00
(0.620000) can0 266#340018401700F100
(0.621000) can0 379#07400610D8A01306
(0.622000) can0 129#D82AF35F0020FF3F
(0.622000) can0 243#00FCCFCC99260E29
(0.623000) can0 2D2#FE2E924EB907E822
(0.624000) can0 3A2#602573C20400C36B
(0.625000) can0 3B2#0DE81F24020BF87F
(0.625000) can0 139#00
(0.626000) can0 42E#00E0BFFFFEEFBFFF
(0.627000) can0 360#0800000000000000
(0.627000) can0 6E8#147C00F412200C00
(0.628000) can0 118#176D950000C83400
(0.629000) can0 266#340017401700F100
(0.630000) can0 22B#FFFFFFFF07000000
(0.631000) can0 428#20001010000010
(0.632000) can0 263#700ED29FA7AF1A00
(0.635000) can0 102#22B3880494FAA009
(0.635000) can0 103#22B38804A2EE2032
(0.636000) can0 227#000000003E000080
(0.637000) can0 224#0408004019011008
(0.637000) can0 3FD#01000A0000080280
(0.640000) can0 2B4#4C053D0E4C01
(0.640000) can0 122#00001392D2000000
(0.643000) can0 123#01000000003F0000
(0.643000) can0 2E1#FB1FAF0999A00900
(0.644000) can0 132#6C8E0EFD4D3A
(0.645000) can0 372#0183140340003001
(0.645000) can0 295#C800ABFF00000008
(0.647000) can0 6A2#0000000000
(0.648000) can0 3A3#16C00000280DFC01
(0.648000) can0 1E5#286C04000000209E
(0.653000) can0 129#5B2DF35F0020FF3F
(0.653000) can0 393#0380610000000000
(0.654000) can0 282#74D0410700F40224
(0.655000) can0 1D5#29000000000000FF
(0.655000) can0 348#16000124A3070110
(0.656000) can0 528#6A30DA7A
(0.657000) can0 3F5#0000C838820C0000
(0.658000) can0 414#1133535459323530
(0.658000) can0 666#0000C800
(0.659000) can0 2E5#00001C320000BC00
(0.660000) can0 23E#00003AC002FF8FCA
(0.661000) can0 7FF#0800000100000000
(0.662000) can0 2E1#0400000000102007
(0.663000) can0 243#02FC931004A40000
(0.664000) can0 45A#24B839386045376F
(0.664000) can0 1D5#290000000000201F
(0.665000) can0 4E3#D5028201001C0000
(0.668000) can0 2F9#BCFB070800000000
(0.668000) can0 261#052232CA9A42F0E5
(0.669000) can0 257#FAF97A7602783D01
(0.670000) can0 1D6#400800004A049808
(0.670000) can0 2B6#000300
(0.671000) can0 129#752FF35F0020FF3F
(0.672000) can0 420#2801404B00000003
(0.675000) can0 3F9#0100000000000000
(0.675000) can0 4E2#0600000000000000
(0.677000) can0 2E5#00001C320000BC00
(0.678000) can0 1D8#2908C11F0000806A
(0.678000) can0 441#C200B6C358000501
(0.679000) can0 22B#FFFFFFFF07000000
(0.680000) can0 2BF#00000000000001
(0.681000) can0 7D5#2B659FFF00000000
(0.681000) can0 339#02F1FE008007800F
(0.682000) can0 7D7#3233000000000000
(0.685000) can0 261#00100700FF4F005B
(0.685000) can0 545#E0045DD09AA28920
(0.686000) can0 294#14C1400040000000
(0.689000) can0 3FD#0200B20000000090
(0.690000) can0 2E5#00001C320000BC00
(0.691000) can0 2E1#1021040010000004
(0.695000) can0 7A8#0240BF07000F0000
(0.695000) can0 221#6105555501052059
(0.696000) can0 2C2#555BA90680C112AA
(0.699000) can0 2E5#00001C320000BC00
(0.699000) can0 3E9#F08822210000F097
(0.701000) can0 2C1#68347E00008A0200
(0.703000) can0 2C3#555BA90680C112AA
(0.705000) can0 132#658E14FD553A
(0.707000) can0 3C2#2955000000000000
(0.709000) can0 1D8#2908C11F0000E0CA
(0.711000) can0 2E3#07D44F3F010000
(0.713000) can0 263#04000000A0200000
(0.715000) can0 132#718E16FD5E3A
(0.717000) can0 252#CA1DC27800FC0F00
(0.720000) can0 195#400800000A002706
(0.722000) can0 379#080000000A000C03
(0.724000) can0 249#E8010000
(0.726000) can0 2E1#026D66021B5C0000
(0.728000) can0 54F#0000000000000000
(0.730000) can0 118#A167950000C8C400
(0.732000) can0 428#20001010000010
(0.733000) can0 37A#B00A000000000000
(0.735000) can0 2C4#13A200A70D3FF501
(0.737000) can0 224#0408004019011008
(0.739000) can0 61D#0428673B8E150908
(0.742000) can0 2E1#FB1FAFF998A50900
(0.744000) can0 132#688E12FD663A
(0.746000) can0 287#4F4D5151D6020000
(0.749000) can0 2E5#00001C320000BC00
(0.751000) can0 3AE#0A40000800004194
(0.753000) can0 263#6136D29F976F9A00
(0.763000) can0 282#74D0410700F40224
(0.769000) can0 261#052233CA9A425046
(0.775000) can0 128#0000EC0A02
(0.781000) can0 4E2#00D1000000002800
(0.784000) can0 339#02F1FE008007800F
(0.786000) can0 553#00000000000080D8
(0.788000) can0 284#300000004008201E
(0.790000) can0 1E5#286C0400000060DE
(0.794000) can0 422#700010000000
(0.800000) can0 132#5E8E16FD633A
(0.804000) can0 129#2F2CF55F0020FF3F
(0.810000) can0 3AE#0B400008000070C4
(0.812000) can0 719#0C9B0F005A0A6000
(0.814000) can0 1FA#1AC001
(0.816000) can0 1D5#29000000000000FF
(0.817000) can0 252#CA1DC27800FC0F00
(0.819000) can0 1A5#00101F582D
(0.821000) can0 207#0000000000000000
(0.823000) can0 129#4F2EF55F0120FF3F
(0.825000) can0 677#0000000000000000
(0.827000) can0 372#0400000000009011
(0.829000) can0 118#8B61950000C8B400
(0.833000) can0 24A#03
(0.839000) can0 102#22B3880494FAA009
(0.845000) can0 122#00001392D2000000
(0.849000) can0 221#6055551554515138
(0.852000) can0 129#4C21F55F0120FF3F
(0.854000) can0 39A#75FFFDFDFD01000A
(0.856000) can0 1D5#290000000000807F
(0.858000) can0 3C2#0055555500006A05
(0.860000) can0 3F5#0000C838830C0000
(0.862000) can0 2C1#1304900000000000
(0.863000) can0 234#30E103804300B426
(0.865000) can0 132#778E1AFD623A
(0.867000) can0 2F9#BCFB071800000000
(0.869000) can0 118#BF65950000C8E400
(0.872000) can0 1D6#400800004A049808
(0.874000) can0 343#009268FE97000000
(0.876000) can0 1D5#290000000000C0BF
(0.877000) can0 2E5#00001C320000BC00
(0.880000) can0 1E5#286C04000000007E
(0.882000) can0 7D5#2B629FFF00000000
(0.884000) can0 545#900458509BABE9B5
(0.886000) can0 1D5#290000000000E0DF
(0.892000) can0 3FD#0000003C20000180
(0.895000) can0 285#02A800000000B200
(0.897000) can0 423#00001000000000
(0.903000) can0 1D8#2902411F000040A4
(0.905000) can0 132#768E1DFD6F3A
(0.908000) can0 414#1233585646544756
(0.910000) can0 118#5369950000C87400
(0.911000) can0 719#3302600000000000
(0.913000) can0 1FA#1AC001
(0.915000) can0 132#668E23FD773A
(0.918000) can0 545#010000000010F04B
(0.920000) can0 1E5#286C04000000007E
(0.922000) can0 266#330017401700F100
(0.924000) can0 2A8#0101000006006012
(0.926000) can0 340#0900000000000000
(0.928000) can0 360#0000000000000000
(0.930000) can0 266#330017401700F100
(0.932000) can0 78A#010002005F066106
(0.935000) can0 102#22B3880492FAA009
(0.937000) can0 103#22B38804A2EC2032
(0.941000) can0 247#4D0EFF0000000000
(0.945000) can0 129#8D2AF65F0020FF3F
(0.951000) can0 3FD#01000A0000080280
(0.960000) can0 401#122A7C947D949F94
(0.965000) can0 719#0300000000000000
(0.971000) can0 7AA#0727FD1EFD3CFB48
(0.975000) can0 249#4C060000
(0.980000) can0 4E2#025D040000002800
(0.982000) can0 2E1#1021040010000004
(0.984000) can0 545#900453F09AA51979
(0.986000) can0 7D5#2C3E3E0000000000
(0.988000) can0 7D7#3233000000000000
(0.990000) can0 253#0064A6C66490B505
(0.992000) can0 129#8D2FF65F0120FF3F
(0.994000) can0 7A8#0240BF07000F0000
(0.996000) can0 3FD#0200B20000000090
(0.999000) can0 119#00000000
(1.001000) can0 129#C520F65F0020FF3F
(1.004000) can0 243#04FC5303C680FFFF
(1.017000) can0 1D5#290000000000605F
(1.025000) can0 448#20001010000010
(1.031000) can0 360#0100000000000000
(1.036000) can0 77A#A104D05C0C5DE85C
(1.038000) can0 324#F170D5CE9E010000
(1.041000) can0 1D8#2900C11E000000E1
(1.043000) can0 243#01006F3770009191
(1.045000) can0 2E1#0400000000102007
(1.047000) can0 253#0164A6C66490B505
(1.049000) can0 1D8#2900C11E00002001
(1.051000) can0 3A2#0110200000000000
(1.052000) can0 261#052233CA9A427066
(1.054000) can0 393#0380610000000000
(1.057000) can0 419#00
(1.059000) can0 1D8#2900C11E00004021
(1.061000) can0 2C1#1304900000000000
(1.063000) can0 1F8#1A000000
(1.064000) can0 132#788E26FD893A
(1.066000) can0 372#0800000000000000
(1.069000) can0 2F9#BCFB072800000000
(1.071000) can0 126#3E88306481
(1.073000) can0 395#0916164F150D097D
(1.075000) can0 3F9#0500000000000000
(1.077000) can0 2E1#1021040010000004
(1.079000) can0 1D8#29FEC01E0000805E
(1.081000) can0 22B#FFFFFFFF07000000
(1.083000) can0 129#0728F65F0020FF3F
(1.084000) can0 211#BE1A710F1001
(1.087000) can0 3FD#0000003C20000180
(1.090000) can0 401#192A82947B946994
(1.092000) can0 2E1#398D2AFF0F000000
(1.094000) can0 7A8#C8CCC18300008200
(1.097000) can0 119#00000000
(1.099000) can0 1D8#29FE801E0000C05E
(1.100000) can0 261#322A9001805CA261
(1.102000) can0 281#0000FF1F0000
(1.104000) can0 6A1#0000000000
(1.106000) can0 319#1700000081F3DE61
(1.108000) can0 2E5#00001C320000BC00
(1.110000) can0 257#391F7B760A883D01
(1.112000) can0 43B#037F00FF00000000
(1.114000) can0 1FA#1AC001
(1.116000) can0 1D5#290000000000C0BF
(1.118000) can0 292#A2129AAAA9010000
(1.120000) can0 118#B86E950000C8D400
(1.122000) can0 381#306400C000000000
(1.125000) can0 54F#0000000000000000
(1.127000) can0 372#0900000000F83F00
(1.129000) can0 1D8#29FEC01E000020FE
(1.131000) can0 22B#FFFFFFFF07000000
(1.133000) can0 261#940E984C0040C480
(1.135000) can0 3D6#46474646462C0142
(1.137000) can0 204#010000FF00000010
(1.138000) can0 3FD#01000A0000080280
(1.146000) can0 356#0000000000000000
(1.148000) can0 224#0408004019011008
(1.155000) can0 118#FB61950000C82400
(1.161000) can0 405#100000000035594A
(1.168000) can0 719#1700000000000000
(1.172000) can0 266#320017401700F100
(1.182000) can0 420#2801404B00008005
(1.187000) can0 718#02000000000000
(1.189000) can0 1D8#29FE801E0000E07E
(1.191000) can0 257#25137B7602883D01
(1.192000) can0 3FD#0200B20000000090
(1.195000) can0 381#1200000000000802
(1.197000) can0 3E9#F0882221000000A7
(1.199000) can0 1E5#286C04000000007E
(1.201000) can0 129#2624F75F0320FF3F
(1.203000) can0 281#0000FF1F0000
(1.206000) can0 132#958E2CFD943A
(1.209000) can0 2E5#00001C320000BC00
(1.210000) can0 2E8#010100000600A092
(1.212000) can0 261#834D0A0000401525
(1.214000) can0 45A#FD07F8FF03003100
(1.218000) can0 2E5#00001C320000BC00
(1.220000) can0 1D8#29FE801E000040DE
(1.221000) can0 242#55558600
(1.223000) can0 2D2#FE2E934EB907E822
(1.225000) can0 312#B1214817408DCC00
(1.227000) can0 1D5#290000000000201F
(1.229000) can0 1D8#2900811E00006001
(1.231000) can0 257#0F057B7602803D01
(1.233000) can0 712#0500000000000000
(1.235000) can0 682#0000004004113065
(1.239000) can0 224#0408004019011008
(1.241000) can0 2C1#0219060000D00200
(1.243000) can0 123#01000000003F0000
(1.245000) can0 21D#0400B50000000000
(1.247000) can0 221#605555155451D1B8
(1.253000) can0 6A2#0000000000
(1.255000) can0 282#74D0410704F40224
(1.259000) can0 3C2#0055555500006A05
(1.267000) can0 23E#00003AC002FF7FBA
(1.273000) can0 2D1#FF01
(1.277000) can0 3F9#0700000000000000
(1.280000) can0 3E8#0200000000000000
(1.282000) can0 315#0144440051450000
(1.284000) can0 3B6#0668DB0C0000303E
(1.292000) can0 132#928E25FD883A
(1.294000) can0 368#0000000000000000
(1.296000) can0 7D5#43A1AE947E3F0000
(1.298000) can0 221#610555550105E019
(1.300000) can0 39D#075FE12700
(1.302000) can0 381#1560463E3E000001
(1.304000) can0 439#0000000000185A04
(1.305000) can0 1D5#290000000000201F
(1.307000) can0 788#C8D4C18300009A00
(1.309000) can0 1E5#286C0400000060DE
(1.311000) can0 719#EEC55900625B0014
(1.313000) can0 234#2CE00231C50440E3
(1.315000) can0 288#0106184C00601166
(1.317000) can0 212#5904000081FF7731
(1.325000) can0 186#6500000200932425
(1.327000) can0 360#0400000000000000
(1.329000) can0 1D8#2900C11E0000A081
(1.331000) can0 757#2C3F3E0000000000
(1.333000) can0 129#2E21FC5F0920FF3F
(1.335000) can0 102#22B3880494FAA009
(1.336000) can0 241#3B3CD60E8F5500
(1.338000) can0 286#FFFFFFFF31
(1.340000) can0 39D#F850E12700
(1.342000) can0 118#3E64950000C86400
(1.344000) can0 3A0#0000000000000000
(1.346000) can0 25D#3741012A04F08803
(1.348000) can0 545#020006000000C012
(1.350000) can0 118#0F65950000C83400
(1.353000) can0 129#DD23FC5F0820FF3F
(1.355000) can0 3AE#134000080000B10D
(1.357000) can0 318#1A060E051009379E
(1.359000) can0 2E5#00001C320000BC00
(1.361000) can0 2C1#1304900000000000
(1.363000) can0 243#02FC9B1004A40000
(1.369000) can0 1D5#290000000000E0DF
(1.371000) can0 1D6#400800004A049808
(1.373000) can0 261#31001200B149BAED
(1.375000) can0 3F9#0800000000000000
(1.377000) can0 727#0000
(1.379000) can0 1D8#2902011F00004064
(1.381000) can0 3E3#04000000
(1.385000) can0 129#F226FC5F0620FF3F
(1.391000) can0 320#0400000000000000
(1.396000) can0 263#0300000000000000
(1.400000) can0 709#9A3EC02E00922200
(1.403000) can0 129#7528FC5F0320FF3F
(1.405000) can0 1D5#290000000000605F
(1.407000) can0 414#1133535459323530
(1.409000) can0 1E5#286C04000000209E
(1.411000) can0 3A2#604573C31C00C36B
(1.413000) can0 234#2CE00230C10460FE
(1.415000) can0 1D5#290000000000807F
(1.417000) can0 252#CA1DC27800FC0F00
(1.419000) can0 1D8#2902011F0000C0E4
(1.421000) can0 1A5#00101F08DD
(1.423000) can0 396#090F11451104127D
(1.425000) can0 677#0000000000000000
(1.428000) can0 360#0500000000000000
(1.430000) can0 2E1#0400000000102007
(1.432000) can0 129#7B2BFC5F0120FF3F
(1.434000) can0 102#22B3880492FAA009
(1.436000) can0 132#7B8E19FD6F3A
(1.438000) can0 3DF#0000C00002D0001B
(1.440000) can0 1D8#2904011F00000026
(1.441000) can0 359#3100000000000000
(1.443000) can0 287#4F4D5151D7020000
(1.445000) can0 31A#20010000000070AE
(1.447000) can0 6A2#0000000000
(1.449000) can0 118#586F950000C874FF
(1.452000) can0 129#092DFC5F0120FF3F
(1.454000) can0 39A#7DFFFDFDFD01000A
(1.457000) can0 1D5#29000000000000FF
(1.459000) can0 7FF#0720000528000000
(1.461000) can0 2E1#1021040010000004
(1.463000) can0 1F8#1A000000
(1.464000) can0 1D5#290000000000201F
(1.466000) can0 4E3#0600000000000000
(1.468000) can0 2E5#00001C320000BC00
(1.470000) can0 108#4D20080A04C52425
(1.472000) can0 289#C606830182003D0F
(1.474000) can0 263#0200C049164C5621
(1.476000) can0 1D5#290000000000403F
(1.478000) can0 3A2#72A5FFFF03000000
(1.482000) can0 421#F21A0000002000
(1.486000) can0 7D7#3233000000000000
(1.493000) can0 253#0064A6C66490B505
(1.499000) can0 7A8#01000000FFA1E812
(1.501000) can0 261#834D0A0000403545
(1.503000) can0 228#0106184C00602116
(1.505000) can0 1D5#290000000000A09F
(1.515000) can0 3C2#2955000000000000
(1.523000) can0 261#940E904C004044F8
(1.527000) can0 3B2#10991FBA60FE3301
(1.534000) can0 757#2C3F3E0000000000
(1.536000) can0 204#010000FF00000010
(1.538000) can0 473#0000030000000000
(1.540000) can0 247#4D0EFF0000000000
(1.543000) can0 2E1#658008007ADA306A
(1.544000) can0 3A2#0110200000000000
(1.547000) can0 2F1#3222008700010000
(1.549000) can0 118#2369950000C84400
(1.551000) can0 129#8E27FD5F0020FF3F
(1.553000) can0 2B3#CE2B5E0180131900
(1.555000) can0 393#080004D907B00304
(1.557000) can0 282#74D0410704F40224
(1.559000) can0 3F5#0000C838820C0000
(1.560000) can0 266#330017401700F100
(1.562000) can0 719#140000000000BE00
(1.564000) can0 261#31001A00B0497AB4
(1.566000) can0 4E3#00AC010100002800
(1.568000) can0 2F9#BCFB072000000000
(1.576000) can0 257#30167B760A883D01
(1.582000) can0 2E5#00001C320000BC00
(1.595000) can0 3FD#0000003C20000180
(1.598000) can0 441#D100B6C358000D18
(1.600000) can0 266#330017401700F100
(1.602000) can0 129#422CFD5F0020FF3F
(1.604000) can0 6A1#0000000000
(1.606000) can0 3AE#154000080000308E
(1.608000) can0 788#C4D4C18300009A00
(1.609000) can0 266#340017401700F100
(1.611000) can0 43B#017F00FF00000000
(1.613000) can0 263#04000000A0200000
(1.616000) can0 1D5#29000000000000FF
(1.618000) can0 2E5#00001C320000BC00
(1.624000) can0 39D#FF57E12700
(1.626000) can0 340#0400000000000000
(1.628000) can0 42F#CD773903FA00FF
(1.630000) can0 441#4B85890032001004
(1.632000) can0 757#3200000000000000
(1.634000) can0 102#22B3880494FAA009
(1.636000) can0 204#010000FF00000010
(1.638000) can0 3FD#01000A0000080280
(1.642000) can0 2B4#4B053B0E4101
(1.643000) can0 3A2#0110200000000000
(1.645000) can0 3AE#154000080000409E
(1.648000) can0 6A2#0000000000
(1.650000) can0 3A3#14D00000280DFC01
(1.652000) can0 129#8C21FD5F0020FF3F
(1.654000) can0 39A#81FFFDFDFD01000A
(1.656000) can0 1D5#290000000000807F
(1.659000) can0 528#6A30DA7B
(1.665000) can0 7F4#01
(1.667000) can0 2F9#BCFB072800000000
(1.668000) can0 1D8#2906811F0000E088
(1.670000) can0 3AE#15400008000051AF
(1.672000) can0 2E1#398D2AFF0F000000
(1.674000) can0 343#009264CE97000000
(1.676000) can0 3A2#72A5FF7F04000000
(1.678000) can0 2E5#00001C320000BC00
(1.681000) can0 118#3066950000C85400
(1.682000) can0 339#02F1FE008007800F
(1.684000) can0 211#B410710F1001
(1.686000) can0 2EC#5780C5
(1.688000) can0 3FD#0200B20000000090
(1.691000) can0 2E5#00001C320000BC00
(1.694000) can0 263#0300000000000000
(1.696000) can0 1D5#29000000000000FF
(1.698000) can0 2E5#00001C320000BC00
(1.700000) can0 118#2268950000C84400
(1.702000) can0 677#0200000000000000
(1.704000) can0 439#0000000000185A04
(1.706000) can0 1D5#290000000000201F
(1.708000) can0 2E5#00001C320000BC00
(1.710000) can0 257#371D7B760A883D01
(1.712000) can0 719#1700000000000000
(1.714000) can0 288#0106184C006051A6
(1.716000) can0 2E1#0400000000102007
(1.718000) can0 292#A2129AAAA9010000
(1.720000) can0 1A5#00101F20F5
(1.722000) can0 379#06008F62000D0000
(1.724000) can0 2A8#010100000600E092
(1.726000) can0 1D5#290000000000605F
(1.728000) can0 2E5#00001C320000BC00
(1.730000) can0 266#340018401700F100
(1.732000) can0 129#0C29FD5F0020FF3F
(1.734000) can0 37A#920A000000000000
(1.737000) can0 132#858E11FD4F3A
(1.739000) can0 2E5#00001C320000BC00
(1.741000) can0 118#E66C950000C80400
(1.742000) can0 3A2#0110200000000000
(1.744000) can0 41D#00
(1.746000) can0 2F1#01DAEB8043801200
(1.748000) can0 2E5#00001C320000BC00
(1.751000) can0 257#391F7B760A883D01
(1.752000) can0 263#6136D29F976F9A00
(1.754000) can0 393#080004E107B00304
(1.756000) can0 419#00
(1.759000) can0 3F5#0000C838820C0000
(1.767000) can0 129#422CFD5F0020FF3F
(1.773000) can0 2D1#FF01
(1.779000) can0 3A2#72A5FF7F04000000
(1.785000) can0 266#340018401700F100
(1.791000) can0 2EC#5790D5
(1.795000) can0 263#0300000000000000
(1.797000) can0 423#00001000000000
(1.799000) can0 1E5#286C04000000007E
(1.801000) can0 2C1#68347E00008A0200
(1.802000) can0 281#0000FF1F0000
(1.809000) can0 6A1#0000000000
(1.815000) can0 2E8#01010000060000F2
(1.819000) can0 207#0000000000000000
(1.822000) can0 118#0E64950000C83400
(1.825000) can0 2F2#1201
(1.827000) can0 1D5#290000000000A09F
(1.829000) can0 1D8#290AC11F0000E0CC
(1.831000) can0 757#3200000000000000
(1.833000) can0 263#700ED29FA7AF1A00
(1.835000) can0 682#00000040041190C5
(1.837000) can0 103#22B38804A4EC2032
(1.839000) can0 2E5#00001C320000BC00
(1.841000) can0 359#B63F000009000012
(1.842000) can0 129#5424FD5F0020FF3F
(1.845000) can0 25D#3741012A04F08803
(1.847000) can0 6A2#0000000000
(1.849000) can0 118#6167950000C88400
(1.851000) can0 129#EE25FD5F0120FF3F
(1.853000) can0 263#6136D29F976F9A00
(1.855000) can0 393#0380610000000000
(1.857000) can0 458#00002000000000
(1.859000) can0 3F5#0000C838830C0000
(1.861000) can0 2C1#1304900000000000
(1.863000) can0 234#30E103804300F466
(1.865000) can0 1D5#290000000000201F
(1.867000) can0 2F9#BCFB070800000000
(1.869000) can0 118#E369950000C80400
(1.871000) can0 126#3FE82F24A1
(1.873000) can0 395#0916164F150D097D
(1.875000) can0 1D5#290000000000403F
(1.877000) can0 381#0A00000000000000
(1.879000) can0 1E5#286C04000000007E
(1.881000) can0 2BF#00000000000001
(1.884000) can0 7D5#3200000000000000
(1.886000) can0 372#05493B1500000000
(1.888000) can0 2E5#00001C320000BC00
(1.890000) can0 313#0264640500005035
(1.892000) can0 422#700010000000
(1.894000) can0 7A8#0240BF07000F0000
(1.896000) can0 132#768E0DFD453A
(1.897000) can0 2E5#00001C320000BC00
(1.899000) can0 118#266C950000C84400
(1.901000) can0 677#0200000000000000
(1.904000) can0 2C3#555BA90680C112AA
(1.906000) can0 201#003E3E000080FF00
(1.908000) can0 55A#0200000000000000
(1.910000) can0 1E5#286C0400000060DE
(1.912000) can0 2E3#E7D34F3F010000
(1.914000) can0 45A#FD07F8FF03003000
(1.916000) can0 261#052233CA9A42D0C6
(1.918000) can0 2E5#00001C320000BC00
(1.920000) can0 118#A86E950000C8C400
(1.922000) can0 396#090F10451104117D
(1.924000) can0 54F#0000000000000000
(1.926000) can0 132#768E09FD403A
(1.928000) can0 2E5#00001C320000BC00
(1.930000) can0 266#350018411700F000
(1.932000) can0 78A#010005009D0D0A00
(1.934000) can0 102#22B3880494FAA009
(1.936000) can0 1D5#29000000000000FF
(1.941000) can0 2E5#00001C320000BC00
(1.948000) can0 287#4F4D5151D6020000
(1.952000) can0 261#31001900B149FA34
(1.955000) can0 39A#102BEB8A0717EB7E
(1.957000) can0 282#74D0410704F40224
(1.958000) can0 7FF#0301082861428001
(1.960000) can0 22B#FFFFFF01070000E0
(1.962000) can0 1F8#1A000000
(1.964000) can0 261#322A9001805C02C1
(1.966000) can0 401#132A9C948E948094
(1.968000) can0 2F9#BCFB07100D1A8B84
(1.975000) can0 257#341A7B760A883D01
(1.981000) can0 4E2#65018F13022F0000
(1.986000) can0 129#0222FF5F0020FF3F
(1.992000) can0 3FD#0000003C20000180
(1.996000) can0 4F3#00000000
(1.998000) can0 285#2445605872000000
(1.999000) can0 118#6066950000C88400
(2.001000) can0 129#212400600020FF3F
(2.003000) can0 2C3#0000C04B010040CB
(2.005000) can0 1D5#290000000000E0DF
(2.007000) can0 3C2#2955000000000000
(2.012000) can0 266#350018411700F100
(2.018000) can0 288#0106184C006081D6
(2.024000) can0 1A5#00101F380D
(2.029000) can0 1D5#290000000000201F
(2.035000) can0 257#371D7B760A883D01
(2.036000) can0 682#000000400411B0E5
(2.039000) can0 3FD#01000A0000080280
(2.042000) can0 253#0164A6C66490B505
(2.044000) can0 243#01006F3770009191
(2.046000) can0 132#718E03FD393A
(2.048000) can0 6A2#0000000000
(2.050000) can0 266#350018411800F100
(2.052000) can0 129#792900600020FF3F
(2.054000) can0 39A#85FFFDFDFD01000A
(2.056000) can0 1D5#290000000000807F
(2.058000) can0 40A#0910000000007097
(2.064000) can0 39D#FA52E12700
(2.066000) can0 372#0800000000000000
(2.069000) can0 2E5#00001C320000BC00
(2.071000) can0 1D6#400800004A049808
(2.073000) can0 249#3A0C0000
(2.075000) can0 3F9#0600000000000000
(2.077000) can0 4E2#0600000000000000
(2.079000) can0 1D8#290C41200000006F
(2.081000) can0 266#350018411800F100
(2.082000) can0 129#9A2C00600120FF3F
(2.084000) can0 211#B814710F1001
(2.086000) can0 2EC#57C005
(2.088000) can0 3FD#0000003C20000180
(2.091000) can0 2E5#00001C320000BC00
(2.093000) can0 381#306400C000000000
(2.096000) can0 1D5#29000000000000FF
(2.098000) can0 2E5#00001C320000BC00
(2.100000) can0 2C1#68347E00008A0200
(2.102000) can0 281#0000FF1F0000
(2.104000) can0 6A1#0000000000
(2.106000) can0 201#003E3F000080FF00
(2.108000) can0 2E5#00001C320000BC00
(2.110000) can0 257#43217B760A903D01
(2.112000) can0 43B#037F00FF00000000
(2.114000) can0 1FA#1AC001
(2.116000) can0 132#6F8E04FD473A
(2.118000) can0 7AA#09FD06FD06010000
(2.120000) can0 1A5#00101F4015
(2.121000) can0 266#350018411700F100
(2.124000) can0 243#00FCCFCC99260E29
(2.127000) can0 132#6B8E03FD3F3A
(2.129000) can0 118#2D63950000C85400
(2.131000) can0 376#014645004E000000
(2.133000) can0 263#700ED29FA7AF1A00
(2.135000) can0 102#22B3880494FAA009
(2.136000) can0 241#3E3C960F8F5500
(2.139000) can0 3BB#230F14
(2.140000) can0 3FD#01000A0000080280
(2.144000) can0 23E#00003AC002FFDF1A
(2.145000) can0 25D#3741012A04F08803
(2.147000) can0 221#605555155451F1D8
(2.149000) can0 118#DF65950000C80400
(2.154000) can0 224#0408004019011008
(2.160000) can0 1D5#290000000000C0BF
(2.167000) can0 20C#0098330BE800300C
(2.170000) can0 2D1#FF01
(2.172000) can0 395#0916174F150D0A7D
(2.174000) can0 420#2801404B00008002
(2.176000) can0 4E2#00D1000000002800
(2.178000) can0 2E5#00001C320000BC00
(2.180000) can0 39D#FD55E12700
(2.182000) can0 677#0400000000000000
(2.184000) can0 552#0000000000000057
(2.186000) can0 132#6E8E07FD443A
(2.188000) can0 3FD#0200B20000000090
(2.193000) can0 3E9#00882200000030C6
(2.199000) can0 316#1232A63551A0A09F
(2.203000) can0 2C1#68347E00008A0200
(2.209000) can0 6A1#0000000000
(2.212000) can0 719#1619002775010000
(2.214000) can0 1FA#1AC001
(2.216000) can0 132#668E00FD3E3A
(2.217000) can0 292#A2129AAAA9010000
(2.219000) can0 1A5#00101F481D
(2.221000) can0 242#55558600
(2.223000) can0 229#6D0300
(2.225000) can0 340#0A00002000000000
(2.227000) can0 360#0200000000000000
(2.229000) can0 1E5#286C0400000060DE
(2.232000) can0 3C0#0900000000000000
(2.234000) can0 102#22B3880494FAA009
(2.236000) can0 204#010000FF00000010
(2.238000) can0 61D#0428673B8E150908
(2.240000) can0 545#02000600000070C2
(2.242000) can0 287#4F4D5151D6020000
(2.245000) can0 37D#ACFEABFE01F80F00
(2.246000) can0 25D#3741012A04F08803
(2.248000) can0 2E5#00001C320000BC00
(2.250000) can0 3AE#18400008000061C2
(2.252000) can0 129#632D03600220FF3F
(2.254000) can0 39A#85FFFDFDFD01000A
(2.256000) can0 201#0200000000000000
(2.263000) can0 3F5#0000C838820C0000
(2.275000) can0 22B#FFFFFF0107000000
(2.284000) can0 2E1#FB1FB12999A50900
(2.295000) can0 553#00000000000070C8
(2.297000) can0 2C2#555BA90680C112AA
(2.299000) can0 1E5#286C0400000040BE
(2.302000) can0 23E#00003AC002FF1F5A
(2.304000) can0 3A2#602573BF1C00C36B
(2.305000) can0 132#788EFFFC2F3A
(2.307000) can0 788#01000000FFA1F812
(2.309000) can0 1E5#286C0400000060DE
(2.311000) can0 2E3#01000052010B00
(2.313000) can0 263#04000000A0200000
(2.315000) can0 288#0106184C0060B106
(2.318000) can0 212#5904000081FF7731
(2.320000) can0 1E5#286C04000000007E
(2.322000) can0 396#090F10451104117D
(2.323000) can0 2A8#01010000060040F2
(2.325000) can0 2E1#1021040010000004
(2.327000) can0 360#0300800000000000
(2.330000) can0 1E5#286C04000000209E
(2.332000) can0 129#702503600220FF3F
(2.334000) can0 102#22B3880494FAA009
(2.336000) can0 1D5#29000000000000FF
(2.338000) can0 286#FFFFFFFF31
(2.339000) can0 373#066C8DD674E3181F
(2.341000) can0 545#020007000000A0F3
(2.343000) can0 122#01000000003F0000
(2.346000) can0 41D#00
(2.348000) can0 132#6A8E01FD243A
(2.350000) can0 1E5#286C0400000060DE
(2.352000) can0 7AA#0C00000000000039
(2.354000) can0 39A#142BE78A0F1BEB7E
(2.356000) can0 201#0200000000000000
(2.363000) can0 3C2#0055555500006A05
(2.369000) can0 261#834D0A00004095A5
(2.374000) can0 126#41482F4C2B
(2.376000) can0 4E2#025D04FB0F002800
(2.378000) can0 2E5#00001C320000BC00
(2.380000) can0 421#F21A0000002000
(2.382000) can0 321#2956A86D026C7096
(2.388000) can0 552#0000000000002077
(2.391000) can0 1F9#0000000000000000
(2.392000) can0 263#0300000000000000
(2.395000) can0 7A8#01000000FFA1F812
(2.396000) can0 261#052233CA9A42B0A6
(2.398000) can0 1D8#290C41200000006F
(2.400000) can0 266#350018411800F000
(2.403000) can0 545#010000000010C01B
(2.409000) can0 2E1#658008007BDA306A
(2.411000) can0 719#EEC55D0062610014
(2.413000) can0 261#00100800FF4FC01C
(2.415000) can0 288#0106184C0060C116
(2.417000) can0 381#1900000000000000
(2.418000) can0 186#8F0B000200B22425
(2.420000) can0 212#5904000081FF7731
(2.423000) can0 2C1#215B1D8C02000000
(2.425000) can0 3B2#1332E35BC85D0D5D
(2.427000) can0 38D#4E38AAAAAA244902
(2.429000) can0 1D8#290C4120000060CF
(2.431000) can0 201#0104980000000000
(2.433000) can0 129#382F03600020FF3F
(2.436000) can0 3A2#0110200000000000
(2.437000) can0 2B4#4A053E0E5101
(2.439000) can0 2E5#00001C320000BC00
(2.441000) can0 266#350018411800F000
(2.443000) can0 75D#8000000000000000
(2.445000) can0 1D5#290000000000605F
(2.447000) can0 6A2#0000000000
(2.449000) can0 272#0380610000000000
(2.452000) can0 129#CA2103600020FF3F
(2.453000) can0 381#1A00000000000000
(2.455000) can0 1D5#290000000000807F
(2.457000) can0 318#1A060F0510092D95
(2.459000) can0 1E5#286C0400000040BE
(2.461000) can0 261#834D0A000040F505
(2.468000) can0 243#02FC931004A40000
(2.474000) can0 2D1#FF01
(2.478000) can0 1D5#290000000000C0BF
(2.481000) can0 441#D900B6C358001528
(2.483000) can0 552#0000000000003087
(2.485000) can0 553#00000000000090E8
(2.487000) can0 253#0064A6C66490B505
(2.490000) can0 4F3#00000000
(2.491000) can0 3C8#0300000000000000
(2.493000) can0 7A8#0240C007000F0000
(2.495000) can0 1D5#29000000000000FF
(2.497000) can0 2C2#555BA90680C112AA
(2.499000) can0 2AA#57E0E3
(2.501000) can0 2C1#68347E00008A0200
(2.503000) can0 677#0200000000000000
(2.506000) can0 1D5#290000000000201F
(2.508000) can0 2E5#00001C320000BC00
(2.510000) can0 266#350018401700F000
(2.512000) can0 719#0D00000000000000
(2.513000) can0 1FA#1AC001
(2.516000) can0 132#6E8E06FD513A
(2.525000) can0 195#400800000A002706
(2.531000) can0 360#0500000000000000
(2.535000) can0 2E1#398D2AFF0F000000
(2.537000) can0 103#22B38804A4EE2032
(2.539000) can0 2E5#00001C320000BC00
(2.541000) can0 227#000000003E000080
(2.543000) can0 129#952A03600020FF3F
(2.545000) can0 70B#0700000000000000
(2.547000) can0 2F1#0902000000780400
(2.549000) can0 266#350018401700F000
(2.551000) can0 129#C92B03600120FF3F
(2.553000) can0 39A#142BE78A171BEB7E
(2.555000) can0 3AE#154000080000005E
(2.557000) can0 318#1A060F0510092F97
(2.561000) can0 7FF#09EF000010000000
(2.567000) can0 1F8#1A000000
(2.573000) can0 1D8#290C01200000204F
(2.577000) can0 3F9#0200000000000000
(2.579000) can0 3C3#0000000000A50000
(2.581000) can0 201#0300000000000000
(2.583000) can0 243#030000001A775700
(2.585000) can0 452#6A9401
(2.588000) can0 2EC#571055
(2.590000) can0 3FD#0000003C20000180
(2.593000) can0 7D5#2C3E3E0000000000
(2.595000) can0 7A8#C8CCC18300008200
(2.597000) can0 221#61055555010580B9
(2.599000) can0 1D8#290C0120000080AF
(2.601000) can0 129#DD2003600020FF3F
(2.603000) can0 2C3#0000C04B010040CB
(2.605000) can0 1D5#290000000000605F
(2.607000) can0 3C2#2955000000000000
(2.609000) can0 118#1D63950000C84400
(2.611000) can0 43B#017F00FF00000000
(2.613000) can0 263#04000000A0200000
(2.615000) can0 3AE#154000080000217F
(2.616000) can0 3CC#03218319000E0900
(2.623000) can0 2E5#00001C320000BC00
(2.625000) can0 42E#00E0BFFFFEEFBFFF
(2.627000) can0 139#00
(2.629000) can0 6E8#147C00F412200C00
(2.631000) can0 2E1#398D2AFF0F000000
(2.633000) can0 263#700ED29FA7AF1A00
(2.635000) can0 2C4#4D80000200000000
(2.637000) can0 103#22B38804A4EC2032
(2.639000) can0 3FD#01000A0000080280
(2.643000) can0 1E5#286C04000000007E
(2.645000) can0 2E1#026D66021C5B0000
(2.646000) can0 2F1#0AB1010000000000
(2.648000) can0 1D8#290C41200000208F
(2.652000) can0 129#6C250360FF1FFF3F
(2.654000) can0 39A#81FFFDFDFD01000A
(2.656000) can0 282#74D0410700F40224
(2.658000) can0 405#100000000035594A
(2.665000) can0 3F5#0000C838820C0000
(2.667000) can0 545#90045D209BA749E6
(2.668000) can0 2E5#00001C320000BB00
(2.670000) can0 266#350018411700F000
(2.672000) can0 2B6#000300
(2.674000) can0 395#0916174F150D0A7D
(2.676000) can0 4E2#65018F13022F0000
(2.678000) can0 2E5#00001C320000BB00
(2.680000) can0 118#646A950000C88400
(2.682000) can0 3E9#F0882221000030D7
(2.688000) can0 552#00000000000050A7
(2.691000) can0 3FD#0200B20000000090
(2.694000) can0 25B#D38000056A8650F3
(2.696000) can0 22A#0000D916
(2.698000) can0 2E5#00001C320000BB00
(2.700000) can0 545#01000000001050AB
(2.702000) can0 129#952A03600020FF3F
(2.704000) can0 6A1#0000000000
(2.706000) can0 201#003F3E000080FF00
(2.708000) can0 2E5#00001C320000BB00
(2.710000) can0 257#6A3F7B770A983D01
(2.712000) can0 719#150009B400000000
(2.714000) can0 1FA#1AC001
(2.715000) can0 1D5#290000000000C0BF
(2.717000) can0 2E5#00001C320000BB00
(2.720000) can0 195#400800000A002706
(2.724000) can0 292#A2129AAAA9010000
(2.726000) can0 340#0300000000000000
(2.728000) can0 400#00E0FBBEEFFB00
(2.730000) can0 441#4B8589003200281C
(2.732000) can0 3C0#0300000000000000
(2.734000) can0 263#700ED29FA7AF1A00
(2.736000) can0 1D5#29000000000000FF
(2.738000) can0 2B4#4E053C0E5F01
(2.740000) can0 1E5#286C0400000040BE
(2.741000) can0 3AE#13400008000060BC
(2.743000) can0 677#0300000000000000
(2.745000) can0 1D5#290000000000201F
(2.747000) can0 6A2#0000000000
(2.749000) can0 261#834D0A0000401525
(2.753000) can0 129#382F03600020FF3F
(2.755000) can0 393#080005E107B00304
(2.757000) can0 113#019701
(2.758000) can0 2E5#00001C320000BB00
(2.760000) can0 266#350018411800F000
(2.762000) can0 719#1619002775010000
(2.764000) can0 3A2#72A5FFFF03000000
(2.767000) can0 4E3#D5028201001C0000
(2.775000) can0 108#D17D083A04BC2425
(2.781000) can0 4E2#0600000000000000
(2.785000) can0 339#02F1FE008007800F
(2.787000) can0 453#00000000
(2.789000) can0 118#EF65950000C81400
(2.790000) can0 2E1#658008007CDA306A
(2.798000) can0 263#0300000000000000
(2.802000) can0 118#F066950000C81400
(2.808000) can0 439#0000000000185A04
(2.811000) can0 257#5F347B770A983D01
(2.813000) can0 2B3#0175707D6B707384
(2.815000) can0 1D5#29000000000000FF
(2.817000) can0 252#CB1DC37800FC0F00
(2.819000) can0 195#400800000A002706
(2.821000) can0 266#350018411800F000
(2.823000) can0 409#00
(2.825000) can0 677#0000000000000000
(2.827000) can0 372#0400000000009011
(2.829000) can0 118#5369950000C87400
(2.831000) can0 757#2C3F3E0000000000
(2.838000) can0 129#4A270060FC1FFF3F
(2.844000) can0 118#546A950000C87400
(2.848000) can0 132#6D8EF9FC3E3A
(2.851000) can0 257#61367B770A983D01
(2.853000) can0 39A#81FFFDFDFD01000A
(2.855000) can0 1D5#290000000000807F
(2.857000) can0 3C2#0055555500006A05
(2.859000) can0 1E5#286C0400000040BE
(2.861000) can0 261#940E984C00408440
(2.863000) can0 234#31E10380430034A7
(2.865000) can0 677#0100000000000000
(2.867000) can0 2F9#BCFB072800000000
(2.869000) can0 118#076D950000C82400
(2.871000) can0 126#412030742C
(2.879000) can0 249#3A0C0000
(2.881000) can0 2BF#00000000000001
(2.883000) can0 129#2B2C0060FD1FFF3F
(2.884000) can0 2E1#658008007CDA306A
(2.887000) can0 372#05493B1500000000
(2.888000) can0 1D8#2910C12000002013
(2.891000) can0 422#700010000000
(2.892000) can0 261#00100700FF4FA0FB
(2.894000) can0 7A8#C8CCC18300008200
(2.896000) can0 22A#0000D916
(2.898000) can0 2E5#00001C320000BC00
(2.904000) can0 39D#FF57E12700
(2.906000) can0 201#003F3E000080FF00
(2.909000) can0 666#0000C800
(2.910000) can0 2E8#010100000600B0A2
(2.913000) can0 719#0100040000000000
(2.915000) can0 288#0106184C00601166
(2.917000) can0 252#CC1DC37800FC0F00
(2.919000) can0 1D8#2912C12000008075
(2.921000) can0 242#55558600
(2.923000) can0 229#F60A00
(2.925000) can0 340#0500000000000000
(2.926000) can0 360#0900000000000000
(2.928000) can0 757#2C3F3E0000000000
(2.930000) can0 441#4B8589003200382C
(2.932000) can0 129#90210060FF1FFF3F
(2.934000) can0 102#22B3880494FAA009
(2.937000) can0 204#010000FF00000010
(2.947000) can0 3DF#0000C00002D0001B
(2.952000) can0 1D8#2912C1200000E0D5
(2.955000) can0 39A#182BE78A1B1BE77E
(2.957000) can0 318#1A061005100937A0
(2.959000) can0 709#1F00000000000000
(2.961000) can0 266#360018411800F000
(2.963000) can0 234#31E10380430054C7
(2.965000) can0 2E1#0400000000102007
(2.967000) can0 4E3#00AC01FF0F002800
(2.968000) can0 1D8#2912012100002056
(2.970000) can0 126#41302F7C43
(2.972000) can0 2E5#00001C320000BC00
(2.974000) can0 397#132080C31C180000
(2.981000) can0 4E2#01400E0000002800
(2.987000) can0 339#02F1FE008007800F
(2.995000) can0 3FD#0000003C20000180
(2.998000) can0 1D8#2912012100006096
(3.000000) can0 2C1#68347E00008A0200
(3.002000) can0 129#F728FF5FFF1FFF3F
(3.004000) can0 6A1#0000000000
(3.006000) can0 201#003E3F000080FF00
(3.008000) can0 2E5#00001C320000BC00
(3.010000) can0 257#693E7B770A983D01
(3.012000) can0 129#0F29FF5FFE1FFF3F
(3.013000) can0 2E1#398D2AFF0F000000
(3.015000) can0 1D5#290000000000807F
(3.021000) can0 2E5#00001C320000BC00
(3.030000) can0 409#00
(3.036000) can0 545#020005000000F041
(3.041000) can0 103#22B38804A2EE2032
(3.044000) can0 129#412CFF5FFE1FFF3F
(3.046000) can0 3D3#000000
(3.047000) can0 3FD#01000A0000080280
(3.050000) can0 7AA#0800000018011B0E
(3.052000) can0 261#940E984C00404400
(3.054000) can0 393#0380610000000000
(3.056000) can0 282#74D0410700F40224
(3.058000) can0 318#1A061005100939A2
(3.060000) can0 118#8A60950000C8B400
(3.063000) can0 677#0100000000000000
(3.064000) can0 381#306400C000000000
(3.066000) can0 4E3#01D8050000002800
(3.068000) can0 2F9#BCFB070800000000
(3.070000) can0 257#5C317B770A983D01
(3.073000) can0 129#D02FFF5FFF1FFF3F
(3.075000) can0 3F9#0700000000000000
(3.077000) can0 4E2#025D040500002800
(3.079000) can0 1E5#286C04000000007E
(3.081000) can0 201#0300000000000000
(3.083000) can0 243#030000001A775700
(3.085000) can0 261#00100800FF4F60BC
(3.087000) can0 2EC#5760A5
(3.088000) can0 3FD#0000003C20000180
(3.092000) can0 334#3F3F1408FF01E2B3
(3.094000) can0 3A2#6025F3BE1C00C36B
(3.096000) can0 221#6105555501052059
(3.098000) can0 2E5#00001C320000BC00
(3.104000) can0 39D#045CE12700
(3.106000) can0 201#003F3F000080FF00
(3.108000) can0 1D8#291441210000E058
(3.110000) can0 2E8#010100000600D0C2
(3.112000) can0 3DB#0700000010000000
(3.114000) can0 43B#037F00FF00000000
(3.116000) can0 261#322A9001805C8241
(3.118000) can0 2F2#1201
(3.121000) can0 118#9066950000C8B400
(3.123000) can0 129#9324FF5F0020FF3F
(3.124000) can0 400#00E0FBBEEFFB00
(3.126000) can0 139#00
(3.128000) can0 2E5#00001C320000BB00
(3.130000) can0 376#014645004E000000
(3.132000) can0 129#8425FF5F0020FF3F
(3.134000) can0 545#0200050000002071
(3.139000) can0 3FD#01000A0000080280
(3.149000) can0 132#698EEBFC153A
(3.154000) can0 272#080005E907B00304
(3.156000) can0 201#0200000000000000
(3.158000) can0 55A#0400000000000000
(3.162000) can0 318#1A06100510093BA4
(3.168000) can0 3A1#C1FFFF5D3D003049
(3.174000) can0 266#370018411800F000
(3.178000) can0 1D5#290000000000807F
(3.184000) can0 266#370018411800F000
(3.186000) can0 22B#FFFFFF011F000000
(3.188000) can0 2E5#00001C320000BB00
(3.190000) can0 3FD#0200B20000000090
(3.193000) can0 257#7A477B770AA03D01
(3.196000) can0 304#0000000000000000
(3.198000) can0 7AA#0A8D068D06005900
(3.200000) can0 118#286E950000C84400
(3.202000) can0 129#852CFF5F0020FF3F
(3.204000) can0 439#0000000000185A04
(3.206000) can0 3A8#F4E07FA3FE0F0000
(3.208000) can0 1D8#2914412100002098
(3.210000) can0 257#7B487B770AA03D01
(3.212000) can0 129#FE2DFF5FFF1FFF3F
(3.214000) can0 1FA#1AC001
(3.216000) can0 132#618EEEFC1B3A
(3.218000) can0 252#CC1DC37800FC0F00
(3.220000) can0 1A5#00101F18ED
(3.222000) can0 27A#B9B30C01B4056202
(3.224000) can0 229#2F0D00
(3.226000) can0 132#658EF1FC023A
(3.228000) can0 360#0100000000000000
(3.230000) can0 266#360018411800F000
(3.233000) can0 78A#01000400DF069700
(3.235000) can0 2C4#9782000004106000
(3.237000) can0 241#3D3C560F8F5500
(3.239000) can0 2E1#FB1FB43999AB0900
(3.240000) can0 359#4C00000000000000
(3.242000) can0 123#01000000003F0000
(3.244000) can0 37D#01560B5500000000
(3.246000) can0 232#8A00910EC9040000
(3.248000) can0 6A2#0000000000
(3.250000) can0 3AE#0E400008000080D7
(3.253000) can0 129#A321FE5FFD1FFF3F
(3.255000) can0 393#0380610000000000
(3.257000) can0 40A#091000000000D0F7
(3.259000) can0 1D8#291201210000C0F6
(3.262000) can0 23E#00003AC002FF9FDA
(3.263000) can0 3A1#C1FFFF8D3D005099
(3.265000) can0 1D5#290000000000A09F
(3.268000) can0 2F9#BCFB071800000000
(3.276000) can0 2E1#658008007CDA306A
(3.282000) can0 2E5#00001C320000BB00
(3.286000) can0 339#02F1FE008007800F
(3.288000) can0 1BB#02
(3.290000) can0 1F9#0000000000000000
(3.292000) can0 3C8#0400000000000000
(3.294000) can0 263#0300000000000000
(3.296000) can0 7A8#01000000FFA1F812
(3.298000) can0 2C2#555BA90680C112AA
(3.300000) can0 2AA#576063
(3.303000) can0 677#0200000000000000
(3.305000) can0 1D5#290000000000201F
(3.307000) can0 3C2#2955000000000000
(3.309000) can0 1E5#286C0400000060DE
(3.311000) can0 207#0000000000000000
(3.313000) can0 263#04000000A0200000
(3.315000) can0 288#0106184C006051A6
(3.317000) can0 2E1#026D66021C5A0000
(3.318000) can0 186#A604000200D02425
(3.320000) can0 225#5555FA00
(3.322000) can0 2D2#FE2E914EB907E822
(3.325000) can0 379#0A00000009000C03
(3.327000) can0 400#00E0FBBEEFFB00
(3.329000) can0 118#A56B950000C8C400
(3.332000) can0 201#0104980000000000
(3.334000) can0 102#22B3880494FAA009
(3.336000) can0 132#648EF5FC293A
(3.337000) can0 286#FFFFFFFF31
(3.339000) can0 2E5#00001C320000BB00
(3.341000) can0 118#666C950000C88400
(3.343000) can0 129#E02AFE5F0020FF3F
(3.345000) can0 25D#3741012A04F08803
(3.347000) can0 132#618EF9FC383A
(3.349000) can0 1E5#286C0400000060DE
(3.351000) can0 7AA#0C00000000000039
(3.354000) can0 2B3#0A2E2C0005000002
(3.355000) can0 132#638EF0FC133A
(3.359000) can0 458#00002000000000
(3.365000) can0 266#360018411800F000
(3.371000) can0 4E3#0454A08507800000
(3.376000) can0 249#4C060000
(3.378000) can0 2E5#00001C320000BB00
(3.380000) can0 118#8A60950000C8B400
(3.381000) can0 23E#00003AC002FFCF0A
(3.383000) can0 677#0400000000000000
(3.385000) can0 553#0000000000002078
(3.387000) can0 285#02A800000000B200
(3.389000) can0 1E5#286C0400000060DE
(3.391000) can0 383#9118320021700003
(3.394000) can0 7A8#0240BF07000F0000
(3.396000) can0 119#00000000
(3.398000) can0 2E5#00001C320000BB00
(3.400000) can0 2C1#68347E00008A0200
(3.402000) can0 281#0000FF1F0000
(3.404000) can0 6A1#0000000000
(3.406000) can0 414#1000000000434956
(3.408000) can0 666#0000C800
(3.410000) can0 257#85527B7702A83D01
(3.412000) can0 207#0000000000000000
(3.414000) can0 1FA#1AC001
(3.415000) can0 1D5#290000000000807F
(3.417000) can0 252#CD1DC37800FC0F00
(3.423000) can0 195#400800000A002706
(3.425000) can0 283#000000004000
(3.428000) can0 400#00E0FBBEEFFB00
(3.430000) can0 257#86537B7702A83D01
(3.432000) can0 263#700ED29FA7AF1A00
(3.434000) can0 102#22B3880492FAA009
(3.436000) can0 241#3D3C560F8F5500
(3.438000) can0 287#4F4D5151D6020000
(3.440000) can0 2E5#00001C320000BB00
(3.442000) can0 129#5424FD5F0020FF3F
(3.444000) can0 21D#0400B50000000000
(3.446000) can0 132#668EF8FC2E3A
(3.448000) can0 2E5#00001C320000BB00
(3.450000) can0 257#87547B7702A83D01
(3.451000) can0 129#4325FD5F0020FF3F
(3.453000) can0 263#6136D29F976F9A00
(3.456000) can0 3AE#0D4000080000F046
(3.459000) can0 318#1A0610051009218A
(3.461000) can0 266#360018411800F000
(3.463000) can0 129#9926FD5F0020FF3F
(3.464000) can0 719#0100040000000000
(3.466000) can0 39B#0318FF80B084309C
(3.468000) can0 2F9#BCFB072800000000
(3.470000) can0 257#88557B7702A83D01
(3.472000) can0 129#8E27FD5F0020FF3F
(3.474000) can0 397#130080C31C180000
(3.476000) can0 4E2#0600000000000000
(3.478000) can0 2E5#00001C320000BB00
(3.480000) can0 118#646A950000C88400
(3.482000) can0 7D5#2C3E3E0000000000
(3.487000) can0 211#B612710F1001
(3.494000) can0 2E5#00001C320000BB00
(3.501000) can0 132#6D8E04FD453A
(3.503000) can0 228#0106184C00606156
(3.505000) can0 1D5#290000000000A09F
(3.507000) can0 2E2#E211194949490900
(3.508000) can0 1D8#290E81200000E091
(3.510000) can0 207#0000000000000000
(3.512000) can0 719#EEC35F00625F0014
(3.514000) can0 288#0106184C006071C6
(3.516000) can0 261#834D0A0000401525
(3.519000) can0 186#AB06000200D32425
(3.527000) can0 249#5E090000
(3.533000) can0 1D8#290E412000002091
(3.538000) can0 102#22B3880494FAA009
(3.541000) can0 118#EA60950000C81400
(3.543000) can0 243#01006F3770009292
(3.545000) can0 1D5#290000000000201F
(3.547000) can0 2F1#00DAE98043001700
(3.549000) can0 118#EB61950000C81400
(3.551000) can0 3A3#10D00000280DFC01
(3.553000) can0 263#6136D29F976F9A00
(3.554000) can0 393#080004D907B00304
(3.556000) can0 419#00
(3.558000) can0 7FF#0191494642041601
(3.560000) can0 3F5#0000C838820C0000
(3.562000) can0 129#9B20FD5F0020FF3F
(3.564000) can0 261#00100900FF4F409D
(3.568000) can0 132#698E01FD2C3A
(3.575000) can0 266#350018411800EF00
(3.579000) can0 4E2#00D1000000002800
(3.585000) can0 300#0A016C1004008800
(3.587000) can0 2EC#57B0F5
(3.588000) can0 2E5#00001C320000BB00
(3.590000) can0 3FD#0000003C20000180
(3.593000) can0 25B#D38000056A86E083
(3.595000) can0 7A8#01000000FFA1F812
(3.597000) can0 423#00001000000000
(3.599000) can0 118#9066950000C8B400
(3.601000) can0 129#3D24FD5FFF1FFF3F
(3.603000) can0 243#04FC6303CA80FFFF
(3.606000) can0 381#0400000000000000
(3.608000) can0 2E5#00001C320000BB00
(3.610000) can0 257#8F5C7B7702A83D01
(3.612000) can0 3DB#0601000100000000
(3.614000) can0 45A#FD07F8FF03003100
(3.616000) can0 3CC#0321031A000E0900
(3.618000) can0 2E5#00001C320000BB00
(3.620000) can0 39D#0159E12700
(3.622000) can0 2C1#215B1D8C02000000
(3.624000) can0 129#F026FD5FFF1FFF3F
(3.626000) can0 3A2#0110200000000000
(3.628000) can0 400#00E0FBBEEFFB00
(3.630000) can0 1E5#286C0400000060DE
(3.632000) can0 3C0#0100000000000000
(3.634000) can0 263#700ED29FA7AF1A00
(3.636000) can0 132#848E08FD3F3A
(3.639000) can0 3FD#01000A0000080280
(3.642000) can0 2F3#0D0D0B0400600002
(3.644000) can0 25D#3741012A04F08803
(3.646000) can0 401#032A6A9462945A94
(3.648000) can0 2E5#00001C320000BB00
(3.650000) can0 257#895E7B7702A03D01
(3.652000) can0 129#6529FD5FFF1FFF3F
(3.654000) can0 39A#81FFFDFDFD01000A
(3.656000) can0 201#0200000000000000
(3.658000) can0 528#6A30DA7D
(3.660000) can0 414#1133535459323530
(3.663000) can0 7AA#232FF8700613001C
(3.665000) can0 129#BA2AFD5FFF1FFF3F
(3.667000) can0 132#728E01FD433A
(3.669000) can0 1D8#290A41200000E04D
(3.671000) can0 268#73189201BC
(3.673000) can0 420#2801404B00000002
(3.675000) can0 3F9#0400000000000000
(3.677000) can0 261#3100E8FFB249BAC3
(3.679000) can0 3C3#5555550100000000
(3.681000) can0 201#0300000000000000
(3.683000) can0 243#030000001A775700
(3.685000) can0 1D5#290000000000E0DF
(3.687000) can0 294#14C1400040000000
(3.689000) can0 118#796F950000C89400
(3.691000) can0 3FD#0200B20000000090
(3.694000) can0 545#010000000010308B
(3.696000) can0 22A#0000D916
(3.698000) can0 2E5#00001C320000BB00
(3.701000) can0 118#4A60950000C87400
(3.703000) can0 281#0000FF1F0000
(3.704000) can0 1D5#290000000000201F
(3.706000) can0 401#062A6D948A946D94
(3.708000) can0 1D8#290A01200000608D
(3.710000) can0 207#0000000000000000
(3.712000) can0 129#D32FFD5F0120FF3F
(3.714000) can0 1FA#1AC001
(3.716000) can0 2E1#FB1FB61999A60900
(3.719000) can0 2D2#FF2E914EBA07E822
(3.721000) can0 266#350018411700F000
(3.723000) can0 129#9B20FD5F0020FF3F
(3.725000) can0 712#002AAC0A6A0A8B0A
(3.727000) can0 139#00
(3.729000) can0 1D8#290A01200000A0CD
(3.731000) can0 201#0104980000000000
(3.733000) can0 263#700ED29FA7AF1A00
(3.735000) can0 2C4#03010E40010A8000
(3.737000) can0 103#22B38804A2EC2032
(3.739000) can0 1D8#290A01200000C0ED
(3.740000) can0 359#5800000000000000
(3.742000) can0 123#00001392D2000000
(3.745000) can0 41D#00
(3.747000) can0 221#605555155451F1D8
(3.749000) can0 118#1F65950000C84400
(3.751000) can0 22B#FFFFFFFFFF000000
(3.752000) can0 263#6136D29F976F9A00
(3.754000) can0 3A2#72A5FF7F04000000
(3.761000) can0 282#74D0410704F40224
(3.767000) can0 1F8#1A000000
(3.771000) can0 118#0167950000C82400
(3.778000) can0 3F9#0500000000000000
(3.784000) can0 3E8#0600000000000000
(3.788000) can0 553#00000000000060B8
(3.793000) can0 1E5#286C0400000060DE
(3.795000) can0 132#788E0EFD523A
(3.799000) can0 423#00001000000000
(3.805000) can0 2C1#68347E00008A0200
(3.811000) can0 3A8#2A80E9F51F00FFBF
(3.816000) can0 2E1#FB1FB41999AB0900
(3.818000) can0 292#A20E9AAAA9010000
(3.820000) can0 1A5#00101F481D
(3.821000) can0 3AE#0E4000080000B007
(3.825000) can0 229#6D0300
(3.827000) can0 401#0C2A44943A945E94
(3.829000) can0 2E1#0400000000102007
(3.831000) can0 201#0104980000000000
(3.833000) can0 263#700ED29FA7AF1A00
(3.834000) can0 102#22B3880494FAA009
(3.836000) can0 264#3B000000A000
(3.839000) can0 224#0408004019011008
(3.841000) can0 122#00001392D2000000
(3.843000) can0 227#000000003E000080
(3.845000) can0 25D#3741012A04F08803
(3.847000) can0 221#60555515545111F8
(3.849000) can0 272#0380610000000000
(3.853000) can0 129#502DFD5F0020FF3F
(3.855000) can0 393#0380610000000000
(3.857000) can0 381#0B00000000000000
(3.859000) can0 1E5#286C0400000040BE
(3.861000) can0 3AE#0E4000080000C017
(3.863000) can0 34A#0100000000000020
(3.865000) can0 719#1619002775010000
(3.867000) can0 2E5#00001C320000BB00
(3.870000) can0 118#3B61950000C86400
(3.872000) can0 279#2FB8FC01B4056502
(3.873000) can0 397#130080C31C180000
(3.875000) can0 132#7B8E1CFD7B3A
(3.877000) can0 2E5#00001C320000BB00
(3.879000) can0 323#3B141F0204
(3.881000) can0 201#0300000000000000
(3.888000) can0 243#030000001A775700
(3.890000) can0 7AA#F6D3FF96C003A129
(3.892000) can0 129#BF21FE5F0020FF3F
(3.894000) can0 709#0180808080808080
(3.896000) can0 119#00000000
(3.898000) can0 2C2#555BA90680C112AA
(3.900000) can0 118#AD64950000C8D4FF
(3.902000) can0 677#0200000000000000
(3.904000) can0 6A1#0000000000
(3.906000) can0 20A#F61509821801
(3.908000) can0 788#0240C40700030000
(3.910000) can0 207#0000000000000000
(3.912000) can0 129#4C23FE5F0120FF3F
(3.913000) can0 1FA#1AC001
(3.915000) can0 1D5#290000000000C0BF
(3.918000) can0 2E5#00001C320000BB00
(3.920000) can0 1E5#286C04000000007E
(3.922000) can0 292#A20E9AAAA9010000
(3.924000) can0 2A8#01010000060040F2
(3.926000) can0 1D5#290000000000E0DF
(3.928000) can0 54F#0000000000000000
(3.931000) can0 1E5#286C04000000209E
(3.933000) can0 129#DD25FE5F0120FF3F
(3.934000) can0 102#22B3880494FAA009
(3.936000) can0 31F#74447A467B447B44
(3.941000) can0 285#034A7D5277000000
(3.945000) can0 123#00001392D2000000
(3.951000) can0 2F1#045AEA8043000100
(3.955000) can0 3A2#72A5FFFF03000000
(3.961000) can0 282#74D0410700F40224
(3.967000) can0 3A1#C1FFFF493D003035
(3.971000) can0 1D8#2900011F0000A0C2
(3.975000) can0 129#BE29FF5F0220FF3F
(3.977000) can0 2E5#00001C320000BB00
(3.980000) can0 1E5#286C0400000040BE
(3.982000) can0 39D#FA52E12700
(3.988000) can0 718#01000000000000
(3.990000) can0 266#320017401700F000
(3.992000) can0 383#9118320021700003
(3.993000) can0 7A8#0240C007000F0000
(3.995000) can0 132#818E24FD8B3A
(3.997000) can0 423#00001000000000
(3.999000) can0 118#A76E950000C8C4FF
(4.002000) can0 2C1#68347E00008A0200
(4.004000) can0 439#0000000000185A04
(4.006000) can0 132#7D8E29FD7A3A
(4.008000) can0 788#C4D4C18300009A00
(4.009000) can0 266#320017401700F000
(4.012000) can0 129#972DFF5F0020FF3F
(4.014000) can0 3A1#844C0FCA001C42C7
(4.016000) can0 2D7#8C490105
(4.018000) can0 2F2#1201
(4.026000) can0 225#5555FA00
(4.035000) can0 360#0900000000000000
(4.039000) can0 224#0408004019011008
(4.046000) can0 3A4#0000000000000000
(4.048000) can0 7AA#0800000018011B0E
(4.050000) can0 266#320017401700F000
(4.052000) can0 2E1#1021040010000004
(4.054000) can0 393#0380610000000000
(4.056000) can0 282#74D0410700F40224
(4.058000) can0 2E5#00001C320000BB00
(4.061000) can0 118#CD64950000C8F4FF
(4.063000) can0 243#02FC9B1004A40000
(4.065000) can0 1D5#290000000000A09F
(4.067000) can0 2E5#00001C320000BB00
(4.069000) can0 1E5#286C0400000060DE
(4.071000) can0 268#72179201BD
(4.073000) can0 249#D3040000
(4.075000) can0 3F9#0800000000000000
(4.076000) can0 4E2#65018F13022F0000
(4.078000) can0 1D8#29FA401E0000005A
(4.081000) can0 266#300017401700F000
(4.083000) can0 243#030000001A775700
(4.085000) can0 2E1#026D66021C5A0000
(4.087000) can0 3FD#0000003C20000180
(4.091000) can0 3FD#0000003C20000180
(4.094000) can0 333#0410890700
(4.096000) can0 119#00000000
(4.098000) can0 2C2#555BA90680C112AA
(4.099000) can0 118#2268950000C84400
(4.101000) can0 677#0200000000000000
(4.103000) can0 2C3#555BA90680C112AA
(4.105000) can0 1D5#290000000000201F
(4.107000) can0 788#01000000FFA1F812
(4.109000) can0 1E5#286C0400000060DE
(4.112000) can0 2E3#84D26020850400
(4.114000) can0 1FA#1AC001
(4.116000) can0 132#828E30FD9B3A
(4.118000) can0 2E5#00001C320000BB00
(4.120000) can0 118#246A950000C84400
(4.122000) can0 3A2#0110200000000000
(4.124000) can0 54F#0000000000000000
(4.126000) can0 132#9A8E38FDAD3A
(4.128000) can0 2E5#00001C320000BB00
(4.130000) can0 257#A1667B7702B03D01
(4.132000) can0 129#3F29FE5F0020FF3F
(4.134000) can0 37A#A20A000000000000
(4.136000) can0 132#938E40FDB93A
(4.138000) can0 3FD#01000A0000080280
(4.147000) can0 33A#9CD4F3FBFDFF3761
(4.154000) can0 31E#0300000000000000
(4.159000) can0 132#8F8E40FDAF3A
(4.160000) can0 22B#FFFFFFFFFF070000
(4.162000) can0 129#852CFF5F0020FF3F
(4.164000) can0 2E1#398D2AFF0F000000
(4.166000) can0 3E9#0088220000007006
(4.168000) can0 2F9#BCFB07030D1A8B84
(4.170000) can0 126#3D982F5C87
(4.172000) can0 129#972DFF5F0020FF3F
(4.174000) can0 420#2801404B00008004
(4.176000) can0 4E2#0600000000000000
(4.178000) can0 2E5#00001C320000BB00
(4.179000) can0 3E8#0300000000000000
(4.185000) can0 201#0300000000000000
(4.191000) can0 3FD#0200B20000000090
(4.200000) can0 372#0A184806010000AA
(4.202000) can0 129#F120FF5F0120FF3F
(4.204000) can0 439#0000000000185A04
(4.205000) can0 132#8F8E44FDAF3A
(4.207000) can0 788#0240C40700030000
(4.209000) can0 1E5#286C04000000209E
(4.211000) can0 303#0A01080007002400
(4.213000) can0 234#2FE00231C504E086
(4.215000) can0 288#0106184C0060E136
(4.217000) can0 3A2#0110200000000000
(4.218000) can0 186#BD0D000200DE2425
(4.221000) can0 212#5904000081FF7731
(4.224000) can0 129#C52200600220FF3F
(4.226000) can0 1D5#290000000000A09F
(4.228000) can0 54F#0000000000000000
(4.230000) can0 1E5#286C0400000060DE
(4.232000) can0 712#0500000000000000
(4.234000) can0 37A#CBE0010000000000
(4.236000) can0 132#948E44FDC03A
(4.238000) can0 261#00100700FF4FE03B
(4.239000) can0 118#8F66950000C8B4FF
(4.241000) can0 122#00001392D2000000
(4.243000) can0 33D#1A290ABE874AFA98
(4.245000) can0 1D5#290000000000E0DF
(4.247000) can0 221#6055551554519178
(4.250000) can0 118#3167950000C85400
(4.253000) can0 129#EE2500600320FF3F
(4.254000) can0 39A#81FFFDFDFD01000A
(4.256000) can0 419#00
(4.258000) can0 7FF#0800000100000000
(4.260000) can0 118#8268950000C8A400
(4.262000) can0 129#342600600320FF3F
(4.264000) can0 1D5#290000000000201F
(4.266000) can0 401#2200000000000000
(4.268000) can0 2E5#00001C320000BB00
(4.271000) can0 257#A86D7B7702B03D01
(4.279000) can0 3F9#0100000000000000
(4.285000) can0 7D5#2B649FFF00000000
(4.294000) can0 553#000000000000B008
(4.301000) can0 7D5#449E52605C470050
(4.306000) can0 281#0000FF1F0000
(4.308000) can0 2E5#00001C320000BB00
(4.310000) can0 22B#FFFFFFFFFF1F0000
(4.312000) can0 129#222B00600220FF3F
(4.314000) can0 1FA#1AC001
(4.316000) can0 3A2#0110200000000000
(4.318000) can0 2D2#FE2E934EBA07E822
(4.320000) can0 225#5555FA00
(4.321000) can0 379#080000000A000C03
(4.323000) can0 54F#0000000000000000
(4.325000) can0 1D5#290000000000E0DF
(4.327000) can0 360#0100000000000000
(4.329000) can0 1E5#286C04000000209E
(4.332000) can0 3C0#0800000000000000
(4.334000) can0 102#22B3880494FAA009
(4.345000) can0 132#838E50FDCF3A
(4.347000) can0 221#605555155451B198
(4.349000) can0 261#3100FDFFB0495A76
(4.351000) can0 3A3#12C00000280DFC01
(4.352000) can0 263#6136D29F976F9A00
(4.354000) can0 393#080004D107B00304
(4.356000) can0 419#00
(4.358000) can0 318#1A0611051009339D
(4.360000) can0 22B#FFFFFFFFFF1F0000
(4.362000) can0 407#0B00000000000000
(4.364000) can0 45A#24B839386045376F
(4.366000) can0 372#0D32000C30408F8E
(4.370000) can0 2E5#00001C320000BB00
(4.376000) can0 279#34BDFC01B4056502
(4.383000) can0 2E5#00001C320000BB00
(4.387000) can0 718#03000000000000
(4.389000) can0 118#3F65950000C86400
(4.391000) can0 383#9118320021700003
(4.393000) can0 263#0300000000000000
(4.395000) can0 7A8#C8CCC18300008200
(4.397000) can0 221#610555550105C0F9
(4.398000) can0 1D8#29F0001D0000000F
(4.400000) can0 2C1#68347E00008A0200
(4.402000) can0 281#0000FF1F0000
(4.404000) can0 6A1#0000000000
(4.407000) can0 414#1133535459323530
(4.409000) can0 2E5#00001C320000BB00
(4.411000) can0 2E8#010100000600A092
(4.413000) can0 719#1619002775010000
(4.415000) can0 3A2#0110200000000000
(4.417000) can0 252#CE1DC37800FC0F00
(4.419000) can0 195#400800000A002706
(4.421000) can0 27A#B4BFFC00B4056202
(4.423000) can0 229#A50900
(4.425000) can0 1D5#290000000000201F
(4.427000) can0 7AA#C0E78E3C00088C29
(4.429000) can0 118#4369950000C86400
(4.431000) can0 201#0104980000000000
(4.433000) can0 263#700ED29FA7AF1A00
(4.436000) can0 2C4#2A8080A4831D0C00
(4.437000) can0 682#0000004004113065
(4.439000) can0 3AE#0F4000080000E139
(4.441000) can0 122#00001392D2000000
(4.444000) can0 75D#0300800000000000
(4.446000) can0 2F1#0902000000400300
(4.448000) can0 2E5#00001C320000BB00
(4.450000) can0 257#99667B7702A83D01
(4.452000) can0 129#792900600020FF3F
(4.454000) can0 39A#81FFFDFDFD01000A
(4.456000) can0 39B#0318FF80B08450BC
(4.458000) can0 7F4#01
(4.459000) can0 1E5#286C0400000040BE
(4.461000) can0 39D#065EE12700
(4.465000) can0 243#02FC9B1004A40000
(4.471000) can0 4E3#01D8050000002800
(4.475000) can0 129#572B00600020FF3F
(4.482000) can0 4E2#025D040000002800
(4.485000) can0 552#00000000000070C7
(4.491000) can0 2EC#574085
(4.493000) can0 263#0300000000000000
(4.495000) can0 7A8#01000000FFA1F812
(4.496000) can0 221#610555550105E019
(4.498000) can0 1D8#29EE801C000040CC
(4.500000) can0 2E1#0400000000102007
(4.502000) can0 281#0000FF1F0000
(4.504000) can0 381#22A2F027F1209001
(4.506000) can0 207#0000000000000000
(4.509000) can0 1D8#29EEC01C0000602C
(4.511000) can0 129#0B2F00600020FF3F
(4.513000) can0 263#04000000A0200000
(4.515000) can0 1D5#290000000000403F
(4.518000) can0 709#C375D09D86210200
(4.530000) can0 118#4C62950000C87400
(4.539000) can0 3AA#0000000000000000
(4.543000) can0 261#31001200B5491A51
(4.550000) can0 227#000000003E000080
(4.552000) can0 129#A72300600020FF3F
(4.554000) can0 39A#202BE78A231FE77E
(4.556000) can0 201#0200000000000000
(4.558000) can0 3E2#040000712FCF00
(4.560000) can0 3F5#0000C838830C0000
(4.564000) can0 129#212400600020FF3F
(4.568000) can0 132#A28E5AFDE73A
(4.574000) can0 22B#FFFFFFFFFFFF0000
(4.578000) can0 1D5#29000000000000FF
(4.583000) can0 3E8#0000000000000000
(4.585000) can0 472#FF288002007FFF07
(4.587000) can0 553#000000000000E038
(4.589000) can0 3FD#0000003C20000180
(4.592000) can0 677#0400000000000000
(4.594000) can0 263#0300000000000000
(4.596000) can0 119#00000000
(4.598000) can0 2E5#00001C320000BC00
(4.600000) can0 266#2E0017401700F000
(4.603000) can0 129#2C2800600020FF3F
(4.604000) can0 261#052232CA9A425045
(4.606000) can0 3A8#0103000700020100
(4.608000) can0 1D8#29EA001C0000A0A8
(4.610000) can0 2E8#010100000600C0B2
(4.613000) can0 129#792900600020FF3F
(4.615000) can0 45A#FD07F8FF03003200
(4.617000) can0 3CC#0321831A000E0900
(4.619000) can0 195#400800000A002706
(4.621000) can0 22B#FFFFFFFFFFFF0100
(4.623000) can0 129#0B2A00600120FF3F
(4.624000) can0 35F#00
(4.626000) can0 340#0A00002000000000
(4.628000) can0 2E5#00001C320000BB00
(4.631000) can0 257#B26F7B7702B83D01
(4.633000) can0 129#572B00600020FF3F
(4.635000) can0 102#22B3880494FAA009
(4.637000) can0 3FD#01000A0000080280
(4.640000) can0 264#3B000000A000
(4.642000) can0 129#372C00600020FF3F
(4.645000) can0 41D#00
(4.646000) can0 401#032AA894A0949694
(4.648000) can0 1D8#29E8001C00002026
(4.650000) can0 3A3#14D00000280DFC01
(4.652000) can0 129#7C2D01600120FF3F
(4.654000) can0 39A#81FFFDFDFD01000A
(4.657000) can0 201#0200000000000000
(4.659000) can0 318#1A061205100939A4
(4.661000) can0 458#00002000000000
(4.663000) can0 7F4#01
(4.664000) can0 719#0C9B0F005A0A6000
(4.666000) can0 132#A48E6BFD113B
(4.668000) can0 1D8#29E8C01B00006025
(4.670000) can0 3AE#0E400008000051A8
(4.673000) can0 2D1#FF01
(4.675000) can0 3F9#0500000000000000
(4.677000) can0 4E2#04C0400C1CB80100
(4.679000) can0 3A2#602573C11C00C36B
(4.681000) can0 2BF#00000000000001
(4.683000) can0 339#02F1FE008007800F
(4.685000) can0 7D7#3233000000000000
(4.692000) can0 3FD#0200B20000000090
(4.695000) can0 2E5#00001C320000BB00
(4.697000) can0 423#00001000000000
(4.699000) can0 1E5#286C0400000040BE
(4.701000) can0 261#052232CA9A42B0A5
(4.703000) can0 281#0000FF1F0000
(4.704000) can0 1D5#290000000000A09F
(4.706000) can0 372#025A804030536068
(4.709000) can0 1D8#29E6801B0000E063
(4.711000) can0 2E8#010100000600D0C2
(4.713000) can0 263#04000000A0200000
(4.715000) can0 288#0106184C00603186
(4.717000) can0 261#00100700FF4FC01B
(4.719000) can0 1D8#29E4801B00000081
(4.721000) can0 2C1#215B1D8C02000000
(4.723000) can0 229#490C00
(4.725000) can0 283#000000004000
(4.727000) can0 401#072AA394CB94A494
(4.729000) can0 1E5#286C04000000209E
(4.731000) can0 201#0104980000000000
(4.733000) can0 263#700ED29FA7AF1A00
(4.735000) can0 2C4#4D80000200000000
(4.738000) can0 103#22B38804A2EC2032
(4.740000) can0 266#2D00173F1600F000
(4.741000) can0 677#0300000000000000
(4.743000) can0 21D#0400B50000000000
(4.746000) can0 1D5#290000000000201F
(4.748000) can0 2E5#00001C320000BB00
(4.750000) can0 257#A0657B7702B03D01
(4.752000) can0 129#FB2700600020FF3F
(4.754000) can0 39A#202BE78A271FE77E
(4.756000) can0 201#0200000000000000
(4.758000) can0 3C2#0055555500006A05
(4.760000) can0 20E#100000
(4.762000) can0 129#2C2800600020FF3F
(4.763000) can0 243#02FC931004A40000
(4.768000) can0 132#9D8E72FD153B
(4.779000) can0 266#2C00163F1600F000
(4.787000) can0 2C1#0400000000000000
(4.793000) can0 1D8#29E2001B0000E0DF
(4.801000) can0 7A8#01000000FFA1E812
(4.807000) can0 281#0000FF1F0000
(4.813000) can0 118#E96F950000C80400
(4.818000) can0 288#0106184C00604196
(4.820000) can0 225#5555FA00
(4.821000) can0 242#55558600
(4.823000) can0 243#00FCCFCC99260E29
(4.825000) can0 283#000000004000
(4.827000) can0 401#0C2A839479949A94
(4.829000) can0 1E5#286C0400000060DE
(4.831000) can0 441#4A85890032001003
(4.834000) can0 757#3200000000000000
(4.836000) can0 132#AE8E85FD3E3B
(4.838000) can0 286#FFFFFFFF31
(4.840000) can0 118#0C62950000C83400
(4.842000) can0 129#2A200060FE1FFF3F
(4.844000) can0 3A2#72A5FFFF03000000
(4.846000) can0 247#530EFF0000000000
(4.848000) can0 6A2#0000000000
(4.850000) can0 257#A56A7B7702B03D01
(4.851000) can0 129#3D210060FE1FFF3F
(4.853000) can0 2B3#0175707D6A707384
(4.855000) can0 1D5#290000000000807F
(4.857000) can0 7F4#01
(4.859000) can0 1E5#286C0400000040BE
(4.862000) can0 23E#00003AC002FF1F5A
(4.864000) can0 45A#24B839386045376F
(4.867000) can0 4E3#D5028201001C0000
(4.869000) can0 118#EF65950000C81400
(4.871000) can0 128#0000EC0A02
(4.873000) can0 397#13C0FFC31C180000
(4.875000) can0 726#090000
(4.877000) can0 4E2#0600000000000000
(4.879000) can0 1E5#286C04000000007E
(4.880000) can0 266#2C00163F1600F000
(4.882000) can0 129#48240060FF1FFF3F
(4.885000) can0 211#B410710F1001
(4.886000) can0 2EC#5780C5
(4.888000) can0 285#02A800000000B200
(4.890000) can0 266#2B00163F1600F000
(4.893000) can0 129#F2250060FE1FFF3F
(4.895000) can0 7A8#0240C007000F0000
(4.897000) can0 2C2#555BA90680C112AA
(4.899000) can0 118#5268950000C87400
(4.901000) can0 23E#00003AC002FF2F6A
(4.903000) can0 243#04FC7303CA80FFFF
(4.905000) can0 1D5#290000000000201F
(4.907000) can0 401#102AA4948C949494
(4.909000) can0 1D8#29DC401A00006098
(4.911000) can0 545#02000300000080CF
(4.913000) can0 234#2DE00231C504C064
(4.915000) can0 288#0106184C006051A6
(4.917000) can0 2E1#1021040010000004
(4.919000) can0 186#C304000200ED2425
(4.921000) can0 27A#BEB40C01B8056202
(4.924000) can0 243#00FCCFCC99260E29
(4.926000) can0 132#BB8E86FD453B
(4.928000) can0 2E5#00001C320000BB00
(4.934000) can0 257#B97E7B7702B03D01
(4.936000) can0 132#A98E83FD343B
(4.945000) can0 381#0E00000000E0FF00
(4.951000) can0 2F1#2E00C0211C013004
(4.954000) can0 263#6136D29F976F9A00
(4.956000) can0 419#00
(4.958000) can0 7F4#01
(4.960000) can0 3F5#0000C838830C0000
(4.962000) can0 129#372C00600020FF3F
(4.963000) can0 243#02FC931004A40000
(4.965000) can0 132#B28E8DFD593B
(4.975000) can0 2E5#00001C320000BB00
(4.981000) can0 4E2#00D1000000002800
(4.985000) can0 339#02F1FE008007800F
(4.987000) can0 2E5#00001C320000BB00
(4.989000) can0 3FD#0000003C20000180
(4.992000) can0 1E5#286C0400000060DE
(4.994000) can0 7A8#C4CCC18300008200
(4.996000) can0 22A#0000E916
(4.998000) can0 1D8#29DA001A00008076
(5.000000) can0 266#2B00163F1600F000
(5.002000) can0 129#EE2000600020FF3F
(5.004000) can0 439#0000000000185A04
(5.006000) can0 201#003E3F000080FF00
(5.009000) can0 2E5#00001C320000BB00
(5.011000) can0 2E8#01010000060000F2
(5.013000) can0 263#04000000A0200000
(5.015000) can0 1D5#290000000000807F
(5.017000) can0 212#5904000081FF7731
(5.019000) can0 1D8#29D8001A0000C0B4
(5.022000) can0 23E#00003AC002FF5F9A
(5.030000) can0 54F#0000000000000000
(5.036000) can0 428#20001010000010
(5.043000) can0 3FD#01000A0000080280
(5.051000) can0 324#3280D5CE9E010000
(5.055000) can0 261#834D0A0000401525
(5.059000) can0 113#019701
(5.062000) can0 2E1#FB1FB10999A70900
(5.063000) can0 3A1#C1FFFF8F3D0090DB
(5.066000) can0 132#A98E8DFD4D3B
(5.068000) can0 2E5#00001C320000BB00
(5.070000) can0 108#69C4066203E82425
(5.072000) can0 289#C6068381A1003D0F
(5.073000) can0 420#2801404B00000001
(5.075000) can0 132#B48E8FFD6A3B
(5.077000) can0 2E5#00001C320000BB00
(5.079000) can0 3C3#5555550100000000
(5.081000) can0 201#0300000000000000
(5.083000) can0 243#030000001A775700
(5.085000) can0 7D7#3232000000000000
(5.087000) can0 3FD#0000003C20000180
(5.090000) can0 2EC#57A0E5
(5.092000) can0 2E1#658008007EDA306A
(5.095000) can0 7A8#01000000FFA1E812
(5.097000) can0 423#00001000000000
(5.099000) can0 2AA#578083
(5.101000) can0 2C1#68347E00008A0200
(5.103000) can0 281#0000FF1F0000
(5.105000) can0 1D5#290000000000A09F
(5.106000) can0 2E2#E211294949490900
(5.108000) can0 1D8#29D8C0190000E093
(5.110000) can0 2E8#0101000006001002
(5.112000) can0 129#D52BFE5FFE1FFF3F
(5.115000) can0 1FA#1AC001
(5.117000) can0 261#3100CDFFB4495A4A
(5.119000) can0 2E5#00001C320000BB00
(5.121000) can0 3AE#0A40000800004093
(5.122000) can0 396#090F10451104117D
(5.125000) can0 2A8#01010000060000B2
(5.127000) can0 400#00E0FBBEEFFB00
(5.129000) can0 1E5#286C04000000209E
(5.131000) can0 201#0104980000000000
(5.133000) can0 261#322A9001805C6221
(5.135000) can0 757#4645444545364343
(5.137000) can0 264#3A000000A000
(5.139000) can0 3FD#01000A0000080280
(5.144000) can0 356#0000000000000000
(5.150000) can0 25D#3741012A04F08803
(5.154000) can0 3A3#16D00000280DFC01
(5.163000) can0 132#B68E9AFD5F3B
(5.165000) can0 261#940E784C00408420
(5.166000) can0 4E3#01D8050000002800
(5.173000) can0 1D8#29D680190000A011
(5.179000) can0 1D5#290000000000807F
(5.185000) can0 441#CE00B6C358002D35
(5.187000) can0 294#14C1400040000000
(5.189000) can0 3FD#0200B20000000090
(5.192000) can0 1F9#0000000000000000
(5.194000) can0 524#86730302201001
(5.197000) can0 119#00000000
(5.198000) can0 1E5#286C04000000007E
(5.200000) can0 3AE#09400008000071C3
(5.202000) can0 281#0000FF1F0000
(5.204000) can0 207#0000000000000000
(5.206000) can0 401#1F2A769484948294
(5.208000) can0 2E5#00001C320000BC00
(5.211000) can0 2E8#0101000006002012
(5.213000) can0 261#3100DAFFB249BAB5
(5.215000) can0 1D5#29000000000000FF
(5.217000) can0 2D2#FE2E954EB907E822
(5.223000) can0 186#AB07000200D22425
(5.225000) can0 283#000000004000
(5.227000) can0 139#00
(5.230000) can0 118#D269950000C8F4FF
(5.231000) can0 757#3200000000000000
(5.233000) can0 102#22B3880492FAA009
(5.235000) can0 1D5#290000000000403F
(5.237000) can0 103#22B38804A2EC2032
(5.239000) can0 2E5#00001C320000BC00
(5.241000) can0 2C1#0219060000D00200
(5.244000) can0 33D#1A290ABE874AFA98
(5.246000) can0 227#000000003E000080
(5.248000) can0 2E5#00001C320000BC00
(5.250000) can0 266#2A00163F1600F000
(5.252000) can0 129#C829FD5FFE1FFF3F
(5.254000) can0 39A#85FFFDFDFD01000A
(5.256000) can0 201#0200000000000000
(5.259000) can0 7F4#01
(5.261000) can0 20C#0098330BE800300C
(5.263000) can0 1F8#1A000000
(5.265000) can0 1D5#290000000000A09F
(5.266000) can0 4E3#0200000000002800
(5.268000) can0 1D8#29D480190000E04F
(5.270000) can0 126#35A0303460
(5.273000) can0 129#E62BFD5FFE1FFF3F
(5.282000) can0 1D5#290000000000C0BF
(5.288000) can0 7D5#3200000000000000
(5.292000) can0 118#E96F950000C80400
(5.294000) can0 36E#0000000000000000
(5.296000) can0 1D5#29000000000000FF
(5.298000) can0 423#00001000000000
(5.300000) can0 262#0B00A8B200B09010
(5.302000) can0 129#4B2EFD5FFE1FFF3F
(5.304000) can0 6A1#0000000000
(5.306000) can0 372#0C0000FF0F000000
(5.308000) can0 2E5#00001C320000BC00
(5.310000) can0 788#01000000FFA1F812
(5.312000) can0 129#BA2FFD5FFE1FFF3F
(5.314000) can0 1FA#1AC001
(5.316000) can0 288#0106184C006091E6
(5.318000) can0 2E5#00001C320000BC00
(5.320000) can0 266#2A00163F1600F000
(5.322000) can0 448#20001010000010
(5.324000) can0 340#0500000000000000
(5.327000) can0 132#C38E9CFD763B
(5.329000) can0 118#BC63950000C8E4FF
(5.331000) can0 201#0104980000000000
(5.333000) can0 2E1#026D66021C590000
(5.335000) can0 102#22B3880494FAA009
(5.336000) can0 224#0408004019011008
(5.343000) can0 353#FB0F39801A10FA03
(5.345000) can0 682#000000400411C0F5
(5.347000) can0 247#540EFF0000000000
(5.349000) can0 7AA#0C00000000000039
(5.351000) can0 129#BB23FD5FFF1FFF3F
(5.353000) can0 39A#202BE78A231FEB7E
(5.355000) can0 1D5#290000000000C0BF
(5.357000) can0 3C2#0055555500006A05
(5.361000) can0 1E5#286C04000000007E
(5.367000) can0 34A#0007000000000020
(5.373000) can0 1D8#29D440190000204F
(5.378000) can0 1D5#29000000000000FF
(5.380000) can0 39D#FD55E12700
(5.382000) can0 2E1#658008007EDA306A
(5.388000) can0 552#0000000000000057
(5.390000) can0 266#2900163F1600F000
(5.392000) can0 129#8E27FD5F0020FF3F
(5.395000) can0 7A8#01000000FFA1E812
(5.397000) can0 221#6105555501050039
(5.398000) can0 1D8#29D24019000080AD
(5.400000) can0 2C1#68347E00008A0200
(5.402000) can0 281#0000FF1F0000
(5.405000) can0 6A1#0000000000
(5.407000) can0 405#1246333638353739
(5.409000) can0 1E5#286C04000000209E
(5.411000) can0 129#0C29FD5F0020FF3F
(5.413000) can0 234#2FE00231C5046006
(5.415000) can0 1D5#290000000000807F
(5.417000) can0 2D2#FE2E954EB907E822
(5.419000) can0 186#BA09000200DF2425
(5.421000) can0 225#5555FA00
(5.423000) can0 379#07000A10D8C01406
(5.425000) can0 448#20001010000010
(5.427000) can0 677#0000000000000000
(5.429000) can0 1E5#286C0400000060DE
(5.431000) can0 201#0104980000000000
(5.434000) can0 310#0B00040204001100
(5.436000) can0 3AE#084000080000E132
(5.438000) can0 293#020C55905514CFC0
(5.440000) can0 1D8#29D240190000002D
(5.442000) can0 2C1#0219060000D00200
(5.443000) can0 75D#0100000000000080
(5.450000) can0 132#C28E9FFD763B
(5.452000) can0 129#502DFD5F0020FF3F
(5.454000) can0 7E8#1303000000000000
(5.455000) can0 201#0200000000000000
(5.458000) can0 3C2#0055555500006A05
(5.464000) can0 266#2900163F1600F000
(5.466000) can0 4E3#0454A08507800000
(5.468000) can0 2E5#00001C320000BC00
(5.472000) can0 108#2298064A03E52425
(5.482000) can0 3A2#604573C01C00C36B
(5.489000) can0 552#0000000000001067
(5.491000) can0 422#700010000000
(5.492000) can0 2E1#1021040010000004
(5.494000) can0 7A8#0240C007000F0000
(5.496000) can0 22A#0000E916
(5.498000) can0 2E5#00001C320000BC00
(5.500000) can0 118#AD64950000C8D4FF
(5.502000) can0 129#C522FD5F0020FF3F
(5.505000) can0 207#0000000000000000
(5.507000) can0 2E2#1000009B010B0000
(5.509000) can0 118#0F65950000C83400
(5.511000) can0 2E8#0101000006005042
(5.513000) can0 263#04000000A0200000
(5.515000) can0 1D5#290000000000C0BF
(5.517000) can0 212#5904000081FF7731
(5.519000) can0 195#400800000A002706
(5.521000) can0 242#55558600
(5.541000) can0 2A8#01010000060040F2
(5.546000) can0 123#00001392D2000000
(5.552000) can0 2E5#00001C320000BC00
(5.556000) can0 39A#242BE78A1B1BEB7E
(5.562000) can0 318#1A06120510092B96
(5.567000) can0 261#052232CA9A421005
(5.573000) can0 1D8#29D440190000A0CF
(5.579000) can0 1D5#290000000000807F
(5.584000) can0 266#2A00163F1600F100
(5.586000) can0 22B#FFFFFFFFFFFFFFFF
(5.592000) can0 3FD#0000003C20000180
(5.595000) can0 718#04000000000000
(5.597000) can0 221#6105555501054079
(5.599000) can0 2AA#57D0D3
(5.601000) can0 2C1#68347E00008A0200
(5.602000) can0 228#0106184C0060B1A6
(5.604000) can0 545#020004000000D020
(5.606000) can0 401#012AD294C994D494
(5.608000) can0 1D8#29D440190000204F
(5.611000) can0 2E8#0101000006006052
(5.613000) can0 3DB#0A1D100D0F000000
(5.615000) can0 45A#FD07F8FF03003300
(5.617000) can0 3CC#0321031B000E0900
(5.623000) can0 1D8#29D440190000406F
(5.625000) can0 396#090F11451104127D
(5.627000) can0 139#00
(5.629000) can0 677#0000000000000000
(5.631000) can0 441#4A85890032001003
(5.633000) can0 757#3200000000000000
(5.635000) can0 102#22B3880494FAA009
(5.636000) can0 241#3D3C560F8F5500
(5.638000) can0 3FD#01000A0000080280
(5.641000) can0 1D8#29D44019000080AF
(5.648000) can0 75D#5236AE0000008049
(5.651000) can0 129#8C21FD5F0020FF3F
(5.652000) can0 2E1#0400000000102007
(5.654000) can0 393#0380610000000000
(5.656000) can0 282#74D0410700F40224
(5.658000) can0 414#1000000000434956
(5.664000) can0 458#00002000000000
(5.666000) can0 1D5#290000000000A09F
(5.668000) can0 2E5#00001C320000BC00
(5.670000) can0 257#9E637B7702B03D01
(5.672000) can0 2B6#000300
(5.674000) can0 3A2#604573BF1C00C36B
(5.675000) can0 3F9#0600000000000000
(5.677000) can0 2E5#00001C320000BC00
(5.680000) can0 118#3F66950000C864FF
(5.683000) can0 129#5424FD5F0020FF3F
(5.685000) can0 1D5#290000000000E0DF
(5.687000) can0 2E5#00001C320000BC00
(5.689000) can0 118#C067950000C8E4FF
(5.691000) can0 422#700010000000
(5.693000) can0 261#31000D00B1499AC8
(5.699000) can0 3FD#0200B20000000090
(5.702000) can0 7A8#01000000FFA1E812
(5.704000) can0 439#0000000000185A04
(5.706000) can0 372#02744041F069086E
(5.708000) can0 2E5#00001C320000BC00
(5.710000) can0 743#22
(5.712000) can0 129#8E27FD5F0020FF3F
(5.714000) can0 1FA#1AC001
(5.717000) can0 2E1#026D66021C590000
(5.719000) can0 1A5#00101F6035
(5.721000) can0 312#D4E466443CD11517
(5.723000) can0 229#DD0600
(5.725000) can0 340#0900000000000000
(5.727000) can0 287#4F4D5151D8020000
(5.729000) can0 1E5#286C04000000209E
(5.731000) can0 3C0#0000000000000000
(5.733000) can0 263#700ED29FA7AF1A00
(5.735000) can0 545#90045D209BAB19BA
(5.737000) can0 224#0408004019011008
(5.739000) can0 2E5#00001C320000BC00
(5.741000) can0 359#1000000000000000
(5.743000) can0 41D#00
(5.745000) can0 1D5#290000000000A09F
(5.748000) can0 227#000000003E000080
(5.750000) can0 257#A2677B7702B03D01
(5.752000) can0 129#BF2BFC5FFF1FFF3F
(5.753000) can0 39A#242BE78A1B1BEB7E
(5.755000) can0 132#C18E97FD5F3B
(5.757000) can0 3C2#0055555500006A05
(5.759000) can0 1E5#286C04000000007E
(5.761000) can0 2C1#1304900000000000
(5.763000) can0 243#02FC9B1004A40000
(5.765000) can0 1D5#290000000000E0DF
(5.767000) can0 545#010000000010207B
(5.771000) can0 1E5#286C04000000209E
(5.782000) can0 397#13C0FFC31C180000
(5.795000) can0 132#C08E92FD5F3B
(5.802000) can0 22A#0000E916
(5.805000) can0 439#0000000000185A04
(5.807000) can0 3C2#2955000000000000
(5.809000) can0 266#2B00163F1600F100
(5.811000) can0 129#F621FB5FFD1FFF3F
(5.813000) can0 234#2CE00232C904E088
(5.815000) can0 1D5#290000000000807F
(5.817000) can0 2D2#FE2E954EB807E822
(5.819000) can0 1D8#29DAC0190000C075
(5.821000) can0 1A5#00101F683D
(5.823000) can0 2C1#215B1D8C02000000
(5.827000) can0 448#20001010000010
(5.833000) can0 757#2C3F3E0000000000
(5.839000) can0 102#22B3880494FAA009
(5.844000) can0 2C1#0219060000D00200
(5.846000) can0 2F1#045AEA8043000100
(5.848000) can0 1D8#29DC001A00002018
(5.850000) can0 3A3#16D00000280DFC01
(5.852000) can0 129#2525FB5F0020FF3F
(5.854000) can0 39A#85FFFDFDFD01000A
(5.860000) can0 201#0200000000000000
(5.866000) can0 407#0E03000000000000
(5.868000) can0 2E5#00001C320000BC00
(5.870000) can0 108#80EC067203C72425
(5.872000) can0 279#33BCFC01B4056502
(5.874000) can0 2B3#0175707D6A707384
(5.876000) can0 345#0D00000084DBF2D4
(5.878000) can0 1D8#29DC401A000080B8
(5.881000) can0 266#2C00163F1600F100
(5.883000) can0 243#030000001A775700
(5.885000) can0 261#3100F8FFB0495A71
(5.887000) can0 7AA#86DBFF96C003A129
(5.889000) can0 313#026464050000D0B5
(5.891000) can0 3FD#0000003C20000180
(5.894000) can0 387#FFFFFFFFFFFF0040
(5.896000) can0 119#00000000
(5.898000) can0 2C2#555BA90680C112AA
(5.900000) can0 39D#FA52E12700
(5.902000) can0 261#322A9001805C6221
(5.904000) can0 1D5#290000000000A09F
(5.906000) can0 401#102ADE94C894D094
(5.908000) can0 788#01000000FFA1F812
(5.911000) can0 2E1#026D66021C590000
(5.913000) can0 234#30E00231C50400A7
(5.915000) can0 1D5#290000000000C0BF
(5.917000) can0 261#834D0A0000407585
(5.919000) can0 195#400800000A002706
(5.921000) can0 27A#B7BEFC00B8056202
(5.923000) can0 129#242CFB5F0020FF3F
(5.925000) can0 340#0B40000000000000
(5.926000) can0 139#00
(5.928000) can0 1D8#29DE801A0000209A
(5.931000) can0 757#3200000000000000
(5.933000) can0 2B3#C248000050800000
(5.935000) can0 102#22B3880494FAA009
(5.937000) can0 103#22B38804A4EE2032
(5.946000) can0 3FD#01000A0000080280
(5.954000) can0 285#034A7D5277000000
(5.956000) can0 132#B28E7BFD363B
(5.957000) can0 3C2#0055555500006A05
(5.959000) can0 1E5#286C04000000007E
(5.961000) can0 2C1#1304900000000000
(5.963000) can0 243#02FC931004A40000
(5.965000) can0 1D5#290000000000605F
(5.967000) can0 2E5#00001C320000BC00
(5.971000) can0 1E5#286C04000000209E
(5.975000) can0 129#7821FC5F0020FF3F
(5.981000) can0 4E2#03B0010000002800
(5.987000) can0 129#9C22FC5F0120FF3F
(5.989000) can0 4F3#00000000
(5.992000) can0 3FD#0200B20000000090
(5.995000) can0 383#9118320021700003
(5.997000) can0 423#00001000000000
(5.999000) can0 2AA#571013
(6.001000) can0 2C1#68347E00008A0200
(6.003000) can0 228#0106184C0060F1E6
(6.009000) can0 2E1#026D66021C590000
(6.012000) can0 129#1A25FC5F0120FF3F
(6.013000) can0 3A1#844C0FCA001CC247
(6.015000) can0 288#0106184C00600156
(6.017000) can0 252#C71DC67800FC0F00
(6.019000) can0 1A5#00101F784D
(6.021000) can0 27A#C9BF0C01B8056202
(6.026000) can0 129#C026FC5F0120FF3F
(6.033000) can0 2E5#00001C320000BC00
(6.040000) can0 102#22B3880494FAA009
(6.044000) can0 122#00001392D2000000
(6.049000) can0 31A#200100000000E01E
(6.051000) can0 129#5529FC5F0120FF3F
(6.053000) can0 2E1#658008007FDA306A
(6.054000) can0 393#0380610000000000
(6.057000) can0 419#00
(6.059000) can0 20E#150500
(6.061000) can0 20C#0098330BE800300C
(6.063000) can0 234#31E10380430034A7
(6.065000) can0 545#010000000010B00B
(6.066000) can0 4E3#03FD000000002800
(6.068000) can0 118#376D950000C85400
(6.070000) can0 128#0000EC0A02
(6.073000) can0 129#7B2BFC5F0120FF3F
(6.075000) can0 1D5#290000000000C0BF
(6.077000) can0 4E2#04C6408C1CB80100
(6.079000) can0 3C3#5555550100000000
(6.081000) can0 201#0300000000000000
(6.083000) can0 243#030000001A775700
(6.086000) can0 1D5#290000000000E0DF
(6.087000) can0 3FD#0000003C20000180
(6.091000) can0 333#0410890700
(6.092000) can0 261#322A9001805C22E1
(6.094000) can0 7A8#0240BF07000F0000
(6.096000) can0 22A#0000D916
(6.098000) can0 2C2#555BA90680C112AA
(6.104000) can0 118#EA60950000C81400
(6.106000) can0 201#003E3D000080FF00
(6.109000) can0 1D8#29E6801B000060E3
(6.111000) can0 2E8#010100000600B0A2
(6.112000) can0 3DB#0B380F0000030000
(6.114000) can0 45A#FD07F8FF03003300
(6.117000) can0 2E1#FB1FAE1999A00900
(6.119000) can0 1A5#00101F00D5
(6.121000) can0 379#02000A48333F2100
(6.123000) can0 712#0400000000000000
(6.125000) can0 1D5#290000000000605F
(6.127000) can0 381#3410A00000002FFE
(6.129000) can0 118#1D63950000C84400
(6.131000) can0 441#4A8589003200382B
(6.133000) can0 2E1#0400000000102007
(6.135000) can0 757#2C3F3E0000000000
(6.144000) can0 3FD#01000A0000080280
(6.153000) can0 757#3200000000000000
(6.155000) can0 393#080004D107B00304
(6.159000) can0 3C2#0055555500006A05
(6.165000) can0 3F5#0000C838830C0000
(6.171000) can0 4E3#0454A08507800000
(6.176000) can0 129#B625FF5F0720FF3F
(6.178000) can0 1D8#29EAC01B00004007
(6.180000) can0 118#1168950000C834FF
(6.182000) can0 677#0400000000000000
(6.184000) can0 552#00000000000080D7
(6.186000) can0 132#9B8E66FD0A3B
(6.188000) can0 2E5#00001C320000BC00
(6.190000) can0 3FD#0200B20000000090
(6.194000) can0 261#322A9001805C8241
(6.195000) can0 132#9B8E63FDFD3A
(6.198000) can0 381#1600040000640000
(6.200000) can0 207#0000000000000000
(6.202000) can0 129#D928FF5F0520FF3F
(6.204000) can0 6A1#0000000000
(6.206000) can0 401#1F2AB394BF94BD94
(6.208000) can0 1D8#29EA001C0000A0A8
(6.210000) can0 2E8#010100000600C0B2
(6.212000) can0 129#2129FF5F0420FF3F
(6.214000) can0 1FA#1AC001
(6.216000) can0 2D2#FD2E954EB807E822
(6.218000) can0 252#C61DC67800FC0F00
(6.220000) can0 39D#025AE12700
(6.222000) can0 409#00
(6.225000) can0 249#CE0F0000
(6.227000) can0 401#2000000000000000
(6.229000) can0 757#2C3F3E0000000000
(6.231000) can0 441#4A858900320000F3
(6.233000) can0 78A#0100060003000000
(6.235000) can0 2C4#4708C190810C0007
(6.237000) can0 103#22B38804A4EE2032
(6.239000) can0 1E5#286C04000000007E
(6.241000) can0 122#00001392D2000000
(6.243000) can0 243#01006F3770009292
(6.245000) can0 2E1#658008007FDA306A
(6.247000) can0 31A#200100000000F02E
(6.249000) can0 1D8#29EC001C0000202A
(6.250000) can0 257#83507B7702A83D01
(6.254000) can0 261#00100500FF4FC019
(6.256000) can0 201#0200000000000000
(6.258000) can0 7FF#0191494642041601
(6.260000) can0 39D#035BE12700
(6.262000) can0 2E1#1021040010000004
(6.263000) can0 243#02FC931004A40000
(6.265000) can0 132#988E5AFDF13A
(6.267000) can0 2E5#00001C320000BC00
(6.269000) can0 1E5#286C0400000060DE
(6.271000) can0 128#0000EC0A02
(6.278000) can0 263#0200608915495321
(6.284000) can0 421#F21A0000002000
(6.288000) can0 3FE#7588030E36D800CD
(6.294000) can0 3C5#0000000000000000
(6.301000) can0 1D5#290000000000807F
(6.303000) can0 281#0000FF1F0000
(6.309000) can0 381#1900000000000000
(6.311000) can0 2E3#03000037010B00
(6.313000) can0 234#2EE00230C1048020
(6.315000) can0 1D5#290000000000C0BF
(6.317000) can0 261#940E904C004004B8
(6.319000) can0 186#A402000200D02425
(6.321000) can0 409#00
(6.322000) can0 129#FA24FF5FFF1FFF3F
(6.324000) can0 340#0300000000000000
(6.326000) can0 139#00
(6.328000) can0 2E5#00001C320000BC00
(6.330000) can0 441#4A858900320008FB
(6.333000) can0 78A#010000001A13050D
(6.336000) can0 2C4#6836A03901D922AA
(6.337000) can0 286#FFFFFFFF31
(6.339000) can0 373#07238E6475E3181F
(6.341000) can0 3A0#0000000000000000
(6.343000) can0 2E1#658008007FDA306A
(6.345000) can0 41D#00
(6.347000) can0 2F1#0902000000280400
(6.349000) can0 1E5#286C0400000060DE
(6.351000) can0 3E9#F08822210000B057
(6.353000) can0 263#6136D29F976F9A00
(6.355000) can0 393#080004D107B00304
(6.357000) can0 113#019701
(6.359000) can0 7FF#024612289C5181C2
(6.363000) can0 20C#0098330BE800300C
(6.368000) can0 261#3100D9FFB0493A32
(6.372000) can0 108#767107BA03EF2425
(6.376000) can0 420#2801404B00008007
(6.382000) can0 2E5#00001C320000BC00
(6.388000) can0 7D5#2C3E3E0000000000
(6.390000) can0 266#2F0017401700F000
(6.392000) can0 129#E52BFF5F0020FF3F
(6.394000) can0 7A8#0240BF07000F0000
(6.396000) can0 545#020003000000509F
(6.398000) can0 2C2#2040C04B010080CB
(6.400000) can0 207#0000000000000000
(6.401000) can0 129#EC2CFF5FFF1FFF3F
(6.403000) can0 2C3#0000C04B010040CB
(6.406000) can0 1D5#290000000000E0DF
(6.409000) can0 788#C4D4C18300009A00
(6.411000) can0 2E8#010100000600E0D2
(6.412000) can0 234#2EE00231C504A045
(6.414000) can0 45A#FD07F8FF03003300
(6.416000) can0 2E5#00001C320000BC00
(6.418000) can0 186#9103000200BC2425
(6.424000) can0 212#5904000081FF7731
(6.426000) can0 54F#0000000000000000
(6.428000) can0 7AA#C0E78E3C00088C29
(6.429000) can0 266#2F0017401700F000
(6.432000) can0 3C0#0700000000000000
(6.433000) can0 37A#A10A000000000000
(6.436000) can0 1D5#290000000000403F
(6.438000) can0 293#020C55905514EFE0
(6.441000) can0 118#BB62950000C8E4FF
(6.443000) can0 123#01000000003F0000
(6.445000) can0 31A#200100000000003E
(6.447000) can0 2F1#0AB1010000000000
(6.448000) can0 118#2D63950000C85400
(6.450000) can0 22B#FFFFFF01FFFF7F00
(6.452000) can0 2E1#1021040010000004
(6.454000) can0 39A#85FFFDFDFD01000A
(6.456000) can0 282#74D0410700F40224
(6.458000) can0 2E5#00001C320000BB00
(6.464000) can0 266#2F0017401700F000
(6.466000) can0 4E3#00AC010000002800
(6.470000) can0 2E5#00001C320000BB00
(6.476000) can0 2D1#FF01
(6.481000) can0 2E5#00001C320000BB00
(6.485000) can0 339#02F1FE008007800F
(6.489000) can0 2EC#5780C5
(6.491000) can0 3C8#0100000000000000
