(0.000000) can0 405#100000000035594A
(0.005000) can0 263#0200A0460D343421
(0.010000) can0 129#0E2B01600120FF3F
(0.012000) can0 2AA#574043
(0.014000) can0 207#0000000000000000
(0.016000) can0 719#1619002677010000
(0.018000) can0 2E1#65800800854E316A
(0.020000) can0 788#01000000FFA1C812
(0.022000) can0 2F9#BCFB07030D1A8B84
(0.024000) can0 1D5#290000000000605F
(0.025000) can0 401#2100000000000000
(0.026000) can0 118#0369950000C82400
(0.026000) can0 249#AF0E0000
(0.027000) can0 257#A545605402203001
(0.028000) can0 3F9#0600000000000000
(0.030000) can0 381#16000400007F0000
(0.030000) can0 281#0C00FF1F0001
(0.033000) can0 2E1#1021040010000004
(0.033000) can0 263#89E6D1AFAF4F5F1F
(0.036000) can0 2A8#010100000600C072
(0.036000) can0 287#30322F31D9020000
(0.037000) can0 266#2D00133613005E01
(0.038000) can0 3A2#0110200000000000
(0.041000) can0 261#3140FCFF9249BAF7
(0.043000) can0 1F9#0000000000000000
(0.045000) can0 422#700010000000
(0.047000) can0 118#846B950000C8A4FF
(0.049000) can0 126#4BA0300C4E
(0.051000) can0 2E1#398D2AFF0F000000
(0.055000) can0 318#1A06150D10183DC2
(0.056000) can0 129#73200160FF1FFF3F
(0.056000) can0 195#000000000A002706
(0.057000) can0 261#B2291A02805CC28B
(0.058000) can0 3AE#244000080000B01D
(0.059000) can0 7D5#2B593F0000000000
(0.059000) can0 3C2#2955000000000000
(0.060000) can0 7D5#2C3F3F0000000000
(0.061000) can0 213#E8FD
(0.062000) can0 234#3220032DB504C096
(0.064000) can0 1D5#290000000000E0DF
(0.064000) can0 2E1#026D66021C7D0000
(0.065000) can0 553#0000000000004098
(0.066000) can0 129#F92100600020FF3F
(0.067000) can0 227#69030D0054000081
(0.068000) can0 757#3200000000000000
(0.071000) can0 3AA#0000000000000000
(0.071000) can0 383#A7181E00E7E0620B
(0.074000) can0 261#8B4C0A000040D5EC
(0.074000) can0 2F1#AE004021C4012804
(0.075000) can0 1D8#293E8126000000E7
(0.076000) can0 129#442201600020FF3F
(0.076000) can0 545#010000000010B00B
(0.077000) can0 423#00001000000000
(0.078000) can0 3AE#244000080000C12E
(0.081000) can0 3E8#0000000000000000
(0.083000) can0 211#B410710F1001
(0.083000) can0 2C3#0000C04B010040CB
(0.085000) can0 132#E58E70FD0E3B
(0.085000) can0 118#D86F950000C8F4FF
(0.086000) can0 2B4#38054E0E6F01
(0.087000) can0 2E5#00000F320000DD00
(0.088000) can0 37A#D10C000000000000
(0.088000) can0 23E#00003AC002FF1F5A
(0.089000) can0 3F5#0000C838830C0000
(0.092000) can0 3A1#C1FFFF193D00D0A5
(0.094000) can0 359#2B00000000000000
(0.094000) can0 122#01000000003F0000
(0.095000) can0 2D2#F22EAD4E8813E822
(0.096000) can0 129#BC240160FF1FFF3F
(0.096000) can0 292#4A8E18A593010000
(0.097000) can0 2E1#0400000000202600
(0.100000) can0 7A8#0240C007000F0000
(0.102000) can0 381#1800000000000000
(0.104000) can0 3C8#0100000000000000
(0.106000) can0 261#0522CCC99A42F07E
(0.108000) can0 266#2D00143713005E01
(0.110000) can0 361#2C0E1A0200
(0.112000) can0 2AA#575053
(0.115000) can0 234#2DE103804300D443
(0.116000) can0 129#182601600020FF3F
(0.116000) can0 118#9B62950000C8C4FF
(0.117000) can0 103#22B38804A2F02032
(0.118000) can0 21D#0400B50000000000
(0.119000) can0 75D#0300800000000000
(0.119000) can0 448#20001010000010
(0.120000) can0 261#00100C00FF4F0060
(0.122000) can0 289#CA0C064394003D8F
(0.122000) can0 3E9#F088022100009017
(0.123000) can0 123#01000000003F0000
(0.124000) can0 132#E28E6AFD053B
(0.127000) can0 31A#200100000000A0DE
(0.127000) can0 288#0106184C00602176
(0.128000) can0 3F9#0700000000000000
(0.129000) can0 2C1#D0647E00008A0200
(0.129000) can0 4E2#00D300FF0F002800
(0.130000) can0 281#0C00FF1F0001
(0.133000) can0 22B#FFFFFF033C00FEFF
(0.133000) can0 201#006C6C0000E4FF00
(0.136000) can0 2A8#010100000600D082
(0.136000) can0 287#30322F31D9020000
(0.138000) can0 266#2D00143713005E01
(0.141000) can0 3A1#884C0FCA0014E263
(0.143000) can0 1F9#0000000000000000
(0.143000) can0 243#02FCB30D05D90000
(0.144000) can0 372#0D3200D01E5BD38E
(0.147000) can0 1D8#294201270000E04C
(0.147000) can0 128#0000EC0A02
(0.148000) can0 4E3#0200000000002800
(0.149000) can0 119#00000000
(0.151000) can0 2C2#2040404B010080CB
(0.151000) can0 318#1A06150D10183FC4
(0.152000) can0 7FF#0301082861428001
(0.153000) can0 340#0A00002000000000
(0.153000) can0 2B3#08FA0000DA780000
(0.155000) can0 420#2801404B00000001
(0.156000) can0 129#522A01600020FF3F
(0.157000) can0 195#000000000A002706
(0.157000) can0 27A#A8B3FC00B4056202
(0.158000) can0 396#091E1E5750570B7D
(0.159000) can0 7D5#2B543F0000000000
(0.159000) can0 3C2#2955000000000000
(0.160000) can0 7D7#3223000000000000
(0.161000) can0 3FD#0000003C20000180
(0.163000) can0 334#3F3F1408FF01F2C3
(0.164000) can0 241#7374D41C1D4500
(0.166000) can0 719#0100040000000000
(0.166000) can0 1FA#1AC001
(0.167000) can0 266#2E00143714005F01
(0.168000) can0 3CC#03210319000E0900
(0.169000) can0 2C1#0219160000D09201
(0.170000) can0 78A#0100060003000000
(0.173000) can0 383#A7181E00E7E0620B
(0.173000) can0 263#0300000000000000
(0.176000) can0 2F1#0F59599699433900
(0.176000) can0 545#010000000010E03B
(0.177000) can0 266#2E00143714005F01
(0.178000) can0 423#00001000000000
(0.178000) can0 3AE#244000080000F05D
(0.181000) can0 3E8#0100000000000000
(0.183000) can0 211#B511710F1001
(0.183000) can0 243#04FC23F16D7CFFFF
(0.184000) can0 2C4#6C000100CAF50B00
(0.186000) can0 1D8#294441270000600E
(0.186000) can0 224#0408004019011008
(0.187000) can0 102#22B3480494FAA009
(0.188000) can0 2EC#5790D5
(0.188000) can0 2C1#531A900000000000
(0.191000) can0 3A1#C1FFFF293D00F0D5
(0.193000) can0 2E1#0400000000202600
(0.193000) can0 263#04000000901C0000
(0.194000) can0 122#00001392D2000000
(0.195000) can0 2D2#F22EAE4E8813E822
(0.195000) can0 1E5#286C04000000007E
(0.196000) can0 252#B24B467D00FC0F00
(0.197000) can0 266#2E00143714005F01
(0.198000) can0 3B2#2759AE0367CE1A00
(0.199000) can0 225#5555FA00
(0.202000) can0 261#0522CCC99A4250DE
(0.204000) can0 3C8#0200000000000000
(0.204000) can0 372#0E00000C067D0000
(0.205000) can0 283#000000004000
(0.206000) can0 129#522F01600120FF3F
(0.206000) can0 2E5#00000F320000DD00
(0.207000) can0 39A#1C13EF7A0F2FEB7E
(0.208000) can0 282#9C40F20810040324
(0.209000) can0 737#03000000E0F080
(0.209000) can0 2E1#65800800854E316A
(0.210000) can0 40A#0910000000006087
(0.211000) can0 545#020003000000F03F
(0.212000) can0 718#00000000000000
(0.213000) can0 1D5#290000000000C0BF
(0.214000) can0 3FD#01000A0000080280
(0.216000) can0 2B3#0900F02C00000A05
(0.217000) can0 261#00100C00FF4F60C0
(0.217000) can0 103#22B38804A2F02032
(0.218000) can0 3AE#244000080000006D
(0.219000) can0 719#EE7F63004C630014
(0.220000) can0 448#20001010000010
(0.220000) can0 2F9#BCFB07100D1A8B84
(0.223000) can0 289#CA10880388003D8F
(0.223000) can0 123#00001392D2000000
(0.226000) can0 2E1#1021040010000004
(0.226000) can0 249#2A020000
(0.227000) can0 2E5#00000F320000DD00
(0.228000) can0 3F9#0800000000000000
(0.229000) can0 2C1#D0647E00008A0200
(0.232000) can0 281#0C00FF1F0001
(0.232000) can0 261#3140100091497ACB
(0.233000) can0 1D5#29000000000000FF
(0.234000) can0 132#E08E65FD073B
(0.234000) can0 2A8#010100000600E092
(0.235000) can0 393#080001C107B00304
(0.236000) can0 129#442201600020FF3F
(0.237000) can0 2E5#00000F320000DD00
(0.237000) can0 3A2#0110200000000000
(0.242000) can0 2E1#398D2AFF0F000000
(0.244000) can0 428#20001010000010
(0.246000) can0 381#C104001095969600
(0.248000) can0 2E5#00000F320000DD00
(0.251000) can0 4E3#03FD000000002800
(0.253000) can0 7FF#04857EDD5C010100
(0.258000) can0 1D8#29424127000040EC
(0.260000) can0 396#091E1E5750570B7D
(0.262000) can0 7D5#2C3F3F0000000000
(0.264000) can0 1D5#290000000000605F
(0.266000) can0 261#8B4C0A00004095AC
(0.268000) can0 3FD#02005A0000000090
(0.272000) can0 1FA#1AC001
(0.274000) can0 2E1#FB1F8F6997870900
(0.275000) can0 221#60555515545111F8
(0.275000) can0 1E5#286C04000000007E
(0.276000) can0 7AA#04000FC000260000
(0.277000) can0 266#2E00143714005D01
(0.279000) can0 25B#D38000056A86F093
(0.281000) can0 3E8#0200000000000000
(0.283000) can0 211#B612710F1001
(0.283000) can0 243#04FC23F16D7CFFFF
(0.284000) can0 204#010000FF00000010
(0.285000) can0 224#0408004019011008
(0.285000) can0 118#CC63950000C8F4FF
(0.286000) can0 266#2D00143713005D01
(0.287000) can0 39D#F951E12700
(0.288000) can0 31F#794D7E4B7E4B7E4A
(0.288000) can0 3F5#0000C838820C0000
(0.289000) can0 23E#00003AC002FF6FAA
(0.292000) can0 3A1#C1FFFF233D0010EF
(0.292000) can0 6C8#0100000000000000
(0.294000) can0 1D5#290000000000C0BF
(0.297000) can0 2D2#F22EAE4E8813E822
(0.297000) can0 2D1#FF01
(0.298000) can0 400#00E0FBBEEFFB00
(0.301000) can0 225#5555FA00
(0.303000) can0 3A2#6025F3B11C00C26F
(0.303000) can0 228#0106184C0060F1E6
(0.306000) can0 2E1#65800800854E316A
(0.306000) can0 266#2D00143713005D01
(0.307000) can0 39A#99FFFDFDFD01000A
(0.308000) can0 545#020003000000206F
(0.308000) can0 2C1#0400000000000000
(0.309000) can0 3C2#0055555500006A05
(0.310000) can0 207#0000000000000000
(0.312000) can0 3C0#0400000000000000
(0.312000) can0 261#00100C00FF4FC020
(0.313000) can0 1D5#29000000000000FF
(0.314000) can0 132#E38E67FD073B
(0.314000) can0 719#0D00000000000000
(0.315000) can0 1D8#29424127000000AC
(0.316000) can0 2E5#00000F320000DD00
(0.317000) can0 118#6F66950000C894FF
(0.317000) can0 31E#0200000000000000
(0.318000) can0 75D#0400000000000000
(0.319000) can0 788#01000000FFA1C812
(0.322000) can0 2E1#1021040010000004
(0.324000) can0 1D5#290000000000201F
(0.324000) can0 221#610555550107205B
(0.326000) can0 31A#200100000000B0EE
(0.327000) can0 266#2D00143713005D01
(0.327000) can0 257#A444605402203001
(0.330000) can0 23E#00003AC002FF7FBA
(0.330000) can0 281#0C00FF1F0001
(0.333000) can0 22B#FFFFFF03FC000000
(0.333000) can0 2B3#0B43DEFEFF01A014
(0.336000) can0 2A8#010100000600F0A2
(0.336000) can0 22A#0000E916
(0.337000) can0 266#2D00143714005D01
(0.338000) can0 552#000000000000E037
(0.341000) can0 545#E0045D10998A39F7
(0.343000) can0 1F9#0000000000000000
(0.343000) can0 362#000000
(0.344000) can0 45A#A4C03FC15F2C4836
(0.345000) can0 1D8#294441270000600E
(0.346000) can0 266#2E00143713005D01
(0.347000) can0 126#4C383024FF
(0.348000) can0 268#2314A101FF
(0.348000) can0 395#091112610902037D
(0.349000) can0 397#F33F807E1C220000
(0.350000) can0 2C2#2040404B010080CB
(0.353000) can0 113#019701
(0.353000) can0 1D5#290000000000807F
(0.354000) can0 381#0400000000000000
(0.357000) can0 1D8#294441270000802E
(0.357000) can0 27A#AAB5FC00B4056202
(0.358000) can0 439#0000000000185A04
(0.359000) can0 311#FF03
(0.360000) can0 3A8#0103000700020100
(0.361000) can0 3F2#059AAF99F0DA9701
(0.362000) can0 234#3220032FBD042000
(0.362000) can0 7D5#2C3F3F0000000000
(0.363000) can0 7D7#3223000000000000
(0.364000) can0 132#D78E64FD033B
(0.365000) can0 372#0020802D12120424
(0.365000) can0 1D8#294481270000A08E
(0.366000) can0 1E5#286C04000000209E
(0.367000) can0 266#2E00143714006001
(0.368000) can0 2E5#00000F320000DD00
(0.368000) can0 757#2C003E0000000000
(0.369000) can0 2E1#FB1F8F59978A0900
(0.370000) can0 78A#01000100AC5C9C5D
(0.371000) can0 383#A7181E00E1E0620B
(0.374000) can0 1D5#290000000000C0BF
(0.374000) can0 2F1#113F011201F60900
(0.375000) can0 1D8#294681270000C0B0
(0.376000) can0 129#B72001600120FF3F
(0.376000) can0 261#9401A84B004004C2
(0.377000) can0 423#00001000000000
(0.378000) can0 25B#D38000056A8600A3
(0.381000) can0 3E8#0300000000000000
(0.383000) can0 211#B713710F1001
(0.383000) can0 243#04FC23F1717CFFFF
(0.384000) can0 2C4#12BB00630E478502
(0.385000) can0 401#012AEC94EA94F194
(0.385000) can0 118#A66D950000C8C4FF
(0.387000) can0 224#0408004019011008
(0.388000) can0 2EC#57B0F5
(0.388000) can0 3F5#0000C838820C0000
(0.389000) can0 3F5#0000C838830C0000
(0.392000) can0 3A1#C1FFFF3D3D003029
(0.392000) can0 261#0522CCC99A42109E
(0.393000) can0 1D5#29000000000000FF
(0.394000) can0 132#E28E5FFDF33A
(0.397000) can0 1D8#29468127000000F0
(0.397000) can0 252#B24B457D00FC0F00
(0.398000) can0 35F#00
(0.399000) can0 400#00E0FBBEEFFB00
(0.401000) can0 2E1#65800800854E316A
(0.401000) can0 3A2#602573AD1C00C26F
(0.404000) can0 3C8#0400000000000000
(0.405000) can0 283#000000004000
(0.406000) can0 129#532301600020FF3F
(0.407000) can0 257#A848605402203001
(0.407000) can0 39A#1817EF7A0F33EF7E
(0.408000) can0 421#021A0000002000
(0.409000) can0 301#21000000FFFFFFFF
(0.409000) can0 2C1#0400000000000000
(0.410000) can0 40A#0910000000007097
(0.411000) can0 3D8#62005E00
(0.412000) can0 373#069B1DDD52E3101F
(0.412000) can0 234#2EE10380430034A4
(0.413000) can0 263#700ED29FA74F5F1F
(0.416000) can0 719#0300000000000000
(0.416000) can0 2E1#1021040010000004
(0.418000) can0 266#2E00143714006001
(0.419000) can0 788#0240C60700030000
(0.421000) can0 448#20001010000010
(0.423000) can0 289#CA12880399003D8F
(0.423000) can0 243#01FC364836005B5B
(0.424000) can0 401#032AEC94E194DA94
(0.425000) can0 261#3140130093493A90
(0.425000) can0 118#AA61950000C8D4FF
(0.426000) can0 249#4C060000
(0.427000) can0 257#A149605402183001
(0.428000) can0 3F9#0100000000000000
(0.428000) can0 2C1#D0647E00008A0200
(0.429000) can0 3A3#14C00000380DFC01
(0.432000) can0 281#0C00FF1F0001
(0.435000) can0 2E1#398D2AFF0F000000
(0.437000) can0 1D8#2948C127000080B2
(0.439000) can0 20E#160600
(0.441000) can0 545#E0045890998F69A7
(0.443000) can0 1F9#0000000000000000
(0.445000) can0 422#700010000000
(0.448000) can0 118#FD63950000C82400
(0.448000) can0 2B6#000300
(0.449000) can0 2C1#216B186402000000
(0.450000) can0 397#F33F807E1C220000
(0.450000) can0 2C2#5523AA0680C112AA
(0.451000) can0 52F#0006545EDC6C2D80
(0.452000) can0 414#1233585646544756
(0.453000) can0 666#0000C800
(0.453000) can0 263#0200A0460D353521
(0.456000) can0 343#0092685E95000000
(0.458000) can0 2E5#00000F320000DD00
(0.460000) can0 396#091E1E5751570B7D
(0.462000) can0 7D5#2B543F0000000000
(0.464000) can0 1D5#290000000000E0DF
(0.466000) can0 3FD#0000003C20000180
(0.470000) can0 2E1#FB1F915997890900
(0.473000) can0 383#A7181E00E1E0620B
(0.474000) can0 132#E58E5AFDED3A
(0.474000) can0 2F1#321E008500010000
(0.475000) can0 682#00000040041180B5
(0.476000) can0 129#522A01600020FF3F
(0.476000) can0 54F#0000000000000000
(0.477000) can0 423#00001000000000
(0.479000) can0 139#00
(0.479000) can0 3E8#0400000000000000
(0.480000) can0 2E1#0400000000202600
(0.483000) can0 211#B814710F1001
(0.483000) can0 243#04FC23F1717CFFFF
(0.484000) can0 2C4#13A4003F0E353502
(0.485000) can0 401#062ADA94EC94D494
(0.485000) can0 118#4167950000C86400
(0.486000) can0 224#0408004019011008
(0.487000) can0 39D#FE56E12700
(0.488000) can0 257#AC4C605402203001
(0.488000) can0 37A#D10D000000000000
(0.489000) can0 23E#00003AC002FFBFFA
(0.490000) can0 677#0100000000000000
(0.493000) can0 359#2FE1AEB7AD9A607D
(0.494000) can0 263#04000000901C0000
(0.495000) can0 2D2#F12EAD4E8813E822
(0.496000) can0 1E5#286C0400000040BE
(0.496000) can0 252#B24B457D00FC0F00
(0.497000) can0 266#2F00143714005E01
(0.498000) can0 2F2#1201
(0.498000) can0 381#0800000000000000
(0.499000) can0 400#00E0FBBEEFFB00
(0.500000) can0 782#3C9A40CB51385E07
(0.501000) can0 272#080003E107B00304
(0.511000) can0 3C8#0500000000000000
(0.513000) can0 293#020C559055146F60
(0.515000) can0 2B3#CE2B5E0180151900
(0.517000) can0 3FD#01000A0000080280
(0.527000) can0 1E5#286C04000000007E
(0.529000) can0 2E5#00000F320000DD00
(0.531000) can0 677#0200000000000000
(0.533000) can0 381#0900000000000000
(0.535000) can0 3A2#0110200000000000
(0.537000) can0 1D8#294A01280000C035
(0.538000) can0 545#E0046260998B99AD
(0.541000) can0 3A1#884C0FCA001462E3
(0.543000) can0 1F9#0000000000000000
(0.543000) can0 422#700010000000
(0.544000) can0 372#0310075000010000
(0.547000) can0 1D8#294A41280000E095
(0.547000) can0 128#0000EC0A02
(0.548000) can0 268#2314A101FF
(0.549000) can0 119#00000000
(0.552000) can0 113#019701
(0.552000) can0 261#8B4C0A000040B5CC
(0.553000) can0 340#0200000000000000
(0.554000) can0 263#0200A0460D353521
(0.557000) can0 1D8#294A4128000000B5
(0.557000) can0 27A#ACB7FC00B4056202
(0.558000) can0 396#091E1E5750570B7D
(0.559000) can0 201#0118980000000000
(0.559000) can0 3C2#2955000000000000
(0.560000) can0 7D7#3223000000000000
(0.563000) can0 234#3420032EB904603D
(0.563000) can0 243#0300008029462600
(0.564000) can0 320#0100000800000000
(0.566000) can0 719#1619002677010000
(0.566000) can0 1FA#1AC001
(0.567000) can0 3FD#02005A0000000090
(0.569000) can0 247#560EFF0B00A40100
(0.570000) can0 38B#FEFE771EC4802203
(0.571000) can0 3AA#0100000000000000
(0.571000) can0 77A#A104A05CD05CB85C
(0.572000) can0 78A#01000300AE048902
(0.573000) can0 1D5#290000000000403F
(0.574000) can0 2B3#AF03293AED0E8004
(0.574000) can0 2F1#00DA368142001700
(0.575000) can0 1D8#294A4128000040F5
(0.576000) can0 129#782401600120FF3F
(0.577000) can0 118#8960950000C8B4FF
(0.577000) can0 2E1#0400000000202600
(0.579000) can0 25B#D38000056A8620C3
(0.580000) can0 3E8#0500000000000000
(0.582000) can0 211#B915710F1001
(0.584000) can0 1D5#290000000000605F
(0.584000) can0 204#010000FF00000010
(0.585000) can0 264#3E000000A000
(0.586000) can0 118#BA61950000C8E4FF
(0.587000) can0 224#0408004019011008
(0.587000) can0 102#22B3480494FAA009
(0.588000) can0 2EC#57D015
(0.589000) can0 2C1#531A900000000000
(0.592000) can0 3A1#C1FFFF213D00704D
(0.592000) can0 2E1#65800800864E316A
(0.593000) can0 1D5#290000000000807F
(0.595000) can0 132#DE8E5CFDEB3A
(0.595000) can0 1D8#29480128000080F3
(0.596000) can0 212#5904000081FF7731
(0.597000) can0 118#9C62950000C8C400
(0.597000) can0 2F2#1201
(0.598000) can0 7A8#01000000FFA1B812
(0.599000) can0 3A2#604573B01C00C26F
(0.602000) can0 261#00100C00FF4FE040
(0.602000) can0 3C8#0600000000000000
(0.603000) can0 243#00FCCF0C91440D29
(0.604000) can0 132#E48E5DFDEE3A
(0.604000) can0 381#0B00000000000000
(0.605000) can0 1D8#294801280000A013
(0.606000) can0 1E5#286C04000000209E
(0.607000) can0 39D#0159E12700
(0.608000) can0 724#030064
(0.609000) can0 207#0000000000000000
(0.610000) can0 2E1#1021040010000004
(0.610000) can0 677#0400000000000000
(0.611000) can0 473#0000030000000000
(0.612000) can0 2E8#0101000006004032
(0.613000) can0 253#0164A6C66490B505
(0.613000) can0 132#E68E5DFDEE3A
(0.616000) can0 719#1700000000000000
(0.616000) can0 261#3140DBFF9649FA1A
(0.617000) can0 266#2E00143714006001
(0.618000) can0 3E9#F08802210000A027
(0.618000) can0 788#01000000FFA1C812
(0.621000) can0 448#20001010000010
(0.622000) can0 289#CA12880382003D8F
(0.623000) can0 1D5#290000000000E0DF
(0.624000) can0 243#01FC364835005B5B
(0.624000) can0 6A2#0000000000
(0.625000) can0 1D8#2948C1270000E012
(0.626000) can0 129#8D2901600020FF3F
(0.626000) can0 257#8B33605402183001
(0.627000) can0 726#0C0000
(0.630000) can0 2C1#D0647E00008A0200
(0.630000) can0 281#0C00FF1F0001
(0.633000) can0 3A2#0110200000000000
(0.633000) can0 263#89E6D1AFAF4F5F1F
(0.634000) can0 2B3#1000000000110000
(0.635000) can0 339#02F1FE008007800F
(0.636000) can0 419#00
(0.637000) can0 552#0000000000001067
(0.638000) can0 20E#100000
(0.641000) can0 39B#1310DFA0B00CC1BD
(0.645000) can0 20C#047837181F01000E
(0.649000) can0 118#3167950000C85400
(0.653000) can0 2C1#216B186402000000
(0.657000) can0 263#0200A0460D353521
(0.661000) can0 27A#ADB8FC00B4056202
(0.663000) can0 234#3320032EB904805C
(0.665000) can0 3FD#0000003C20000180
(0.668000) can0 243#0300008029462600
(0.669000) can0 376#FBFFFBFFFB0FA005
(0.670000) can0 3D6#6060605F5F2B134D
(0.671000) can0 545#010000000010D02B
(0.672000) can0 656#2300000008000000
(0.673000) can0 1D5#290000000000807F
(0.674000) can0 35A#0000000000000000
(0.674000) can0 757#3200000000000000
(0.675000) can0 682#000000400411A0D5
(0.676000) can0 129#0E2E01600020FF3F
(0.677000) can0 757#465D5C5F5C41595A
(0.677000) can0 381#0D00000000000000
(0.678000) can0 54F#0000000000000000
(0.679000) can0 139#00
(0.680000) can0 3E8#0600000000000000
(0.680000) can0 261#0522CCC99A4230BE
(0.683000) can0 211#BA16710F1001
(0.683000) can0 39B#0310DF80B00CD19D
(0.685000) can0 201#0200000000000000
(0.686000) can0 118#756B950000C89400
(0.686000) can0 224#0408004019011008
(0.687000) can0 257#A646605402203001
(0.688000) can0 2E5#00000F320000DD00
(0.688000) can0 3F5#0000C838820C0000
(0.689000) can0 2E1#65800800864E316A
(0.692000) can0 3A1#C1FFFF113D00905D
(0.694000) can0 359#3100000000000000
(0.694000) can0 122#01000000003F0000
(0.695000) can0 2D2#F22EAD4E8813E822
(0.696000) can0 129#1A2001600020FF3F
(0.696000) can0 292#4A8E18A593010000
(0.697000) can0 266#2D00143713005D01
(0.699000) can0 400#00E0FBBEEFFB00
(0.702000) can0 272#080002D107B00304
(0.702000) can0 3C8#0000000000000000
(0.703000) can0 1D5#290000000000E0DF
(0.704000) can0 228#0106184C00603126
(0.704000) can0 2E1#1021040010000004
(0.705000) can0 118#C66D950000C8E4FF
(0.706000) can0 266#2D00143713005D01
(0.707000) can0 2E5#00000F320000DD00
(0.707000) can0 421#021A0000002000
(0.708000) can0 207#0000000000000000
(0.709000) can0 2BF#00000000000001
(0.710000) can0 3E2#040000811FCF00
(0.710000) can0 3BB#230F14
(0.712000) can0 273#81E13000C8021011
(0.713000) can0 3FD#01000A0000080280
(0.714000) can0 261#3140E5FF91495A7F
(0.715000) can0 1D8#29424127000000AC
(0.716000) can0 1F8#1A000000
(0.717000) can0 266#2D00143714005D01
(0.717000) can0 103#22B38804A2F02032
(0.718000) can0 25D#3741012A04F08803
(0.721000) can0 448#20001010000010
(0.723000) can0 289#CA1288439D003D8F
(0.723000) can0 123#01000000003F0000
(0.724000) can0 372#06C50B20E22B9F05
(0.725000) can0 6A2#0000000000
(0.725000) can0 1E5#286C04000000209E
(0.727000) can0 249#3A0C0000
(0.728000) can0 3F9#0400000000000000
(0.728000) can0 23E#00003AC002FF1F5A
(0.729000) can0 3A3#16C00000380DFC01
(0.732000) can0 281#0B00FF1F0001
(0.732000) can0 304#0000000000000000
(0.733000) can0 1D5#290000000000403F
(0.734000) can0 132#DF8E66FD023B
(0.734000) can0 2A8#01010000060030E2
(0.735000) can0 1D8#29404127000040EA
(0.736000) can0 129#782401600120FF3F
(0.737000) can0 118#0A60950000C83400
(0.737000) can0 545#E0046B10998AF9C5
(0.738000) can0 7AA#0A7D067D06005300
(0.741000) can0 3A1#884C0FCA0014A223
(0.750000) can0 1F9#0000000000000000
(0.751000) can0 113#019701
(0.752000) can0 458#00002000000000
(0.756000) can0 132#DE8E6CFD133B
(0.758000) can0 195#000000000A002706
(0.760000) can0 315#015A5B00635B0000
(0.762000) can0 3C3#5555550100000000
(0.764000) can0 3FD#02005A0000000090
(0.770000) can0 7D5#2C3F3F0000000000
(0.770000) can0 36B#0000000000000000
(0.771000) can0 39B#1310DFA0B00CE1DD
(0.772000) can0 553#000000000000B008
(0.773000) can0 379#080000000B000C03
(0.773000) can0 757#2C003E0000000000
(0.776000) can0 263#0300000000000000
(0.778000) can0 129#D82801600020FF3F
(0.780000) can0 423#00001000000000
(0.782000) can0 360#0A00000000000000
(0.784000) can0 717#01CBFF3D002500
(0.786000) can0 2C3#555BA9B682C112AA
(0.788000) can0 129#E4290160FF1FFF3F
(0.790000) can0 37A#C00D000000000000
(0.792000) can0 3A1#C1FFFF3D3D00B0A9
(0.793000) can0 1D5#29000000000000FF
(0.794000) can0 22B#FFFFFF07FC000000
(0.797000) can0 2D2#F22EAE4E8813E822
(0.797000) can0 2E5#00000F320000DD00
(0.798000) can0 400#00E0FBBEEFFB00
(0.800000) can0 7A8#B8CCB18300008200
(0.800000) can0 2E1#1021040010000004
(0.801000) can0 272#0380610000000000
(0.804000) can0 3C8#0100000000000000
(0.806000) can0 1D8#293A4126000020C3
(0.806000) can0 257#B44C605402283001
(0.807000) can0 39A#1817EF7A0F2FEB7E
(0.808000) can0 421#021A0000002000
(0.808000) can0 23E#00003AC002FF3F7A
(0.809000) can0 261#3140EAFF9849BAEB
(0.810000) can0 40A#09100000000090B7
(0.811000) can0 718#03000000000000
(0.811000) can0 3C0#0900000000000000
(0.814000) can0 1D5#290000000000403F
(0.815000) can0 554#D08403051ED000
(0.816000) can0 384#0000000000000000
(0.817000) can0 2E5#00000F320000DD00
(0.817000) can0 380#0000000000000000
(0.818000) can0 21D#0400B50000000000
(0.819000) can0 41D#00
(0.819000) can0 7AA#0B50002849004100
(0.820000) can0 381#1100000000000000
(0.823000) can0 289#CA12088490003D8F
(0.823000) can0 123#00001392D2000000
(0.824000) can0 401#172AF494FC94FA94
(0.825000) can0 221#610555550107C0FB
(0.825000) can0 1E5#286C0400000060DE
(0.826000) can0 249#AF0E0000
(0.828000) can0 2E5#00000F320000DD00
(0.828000) can0 2C1#D0647E00008A0200
(0.829000) can0 3A3#12C00000380DFC01
(0.830000) can0 3A2#0110200000000000
(0.833000) can0 2E1#026D66021C7E0000
(0.833000) can0 201#006D6D0000E4FF00
(0.836000) can0 2A8#01010000060040F2
(0.836000) can0 2E5#00000F320000DD00
(0.837000) can0 545#90045870999029F8
(0.842000) can0 261#8B4C0A000040D5EC
(0.844000) can0 428#20001010000010
(0.846000) can0 401#182A0495D994E094
(0.848000) can0 257#C65E605402283001
(0.850000) can0 2B6#000300
(0.853000) can0 2C2#5523AA0680C112AA
(0.855000) can0 1D5#290000000000C0BF
(0.856000) can0 186#D40A000200021A25
(0.857000) can0 1A5#00101F5025
(0.857000) can0 27A#AFBAFC00B4056202
(0.858000) can0 396#091E1E5751560B7D
(0.859000) can0 441#3D85890032003016
(0.860000) can0 3C3#0000000000A50000
(0.860000) can0 7D5#2B4F3F0000000000
(0.861000) can0 1BB#02
(0.862000) can0 234#3420032DB504C098
(0.863000) can0 1D5#290000000000E0DF
(0.863000) can0 243#0300008029462600
(0.864000) can0 401#192ADE94DD94DC94
(0.865000) can0 719#0D00000000000000
(0.866000) can0 1E5#286C0400000060DE
(0.867000) can0 227#62030C0054000081
(0.868000) can0 757#3200000000000000
(0.869000) can0 545#010000000010308B
(0.871000) can0 78A#0100060003000000
(0.873000) can0 379#090000000D000C03
(0.873000) can0 263#0300000000000000
(0.876000) can0 2F1#03DA2E0143800400
(0.876000) can0 229#F60A00
(0.877000) can0 266#2B00133613005E01
(0.878000) can0 25B#D38000056A8650F3
(0.878000) can0 139#00
(0.881000) can0 3E8#0100000000000000
(0.883000) can0 211#BC18710F1001
(0.884000) can0 243#04FC23F1717CFFFF
(0.885000) can0 2C4#1782000004006000
(0.886000) can0 118#586F950000C874FF
(0.886000) can0 224#0408004019011008
(0.887000) can0 2B4#3D054F0E7B01
(0.888000) can0 37A#D10D000000000000
(0.888000) can0 3F5#0000C838820C0000
(0.889000) can0 2C1#531A900000000000
(0.890000) can0 7AA#0C00000000000039
(0.893000) can0 381#130000000020FCFF
(0.893000) can0 263#04000000901C0000
(0.894000) can0 132#EE8E81FD373B
(0.895000) can0 387#FFFFFFFFFFFF0040
(0.895000) can0 1E5#286C0400000040BE
(0.897000) can0 252#B14B447D00FC0F00
(0.898000) can0 2E5#00000F320000DD00
(0.898000) can0 712#0400000000000000
(0.903000) can0 272#080002D107B00304
(0.905000) can0 228#0106184C00605146
(0.905000) can0 283#000000004000
(0.906000) can0 1E5#286C0400000060DE
(0.907000) can0 2E5#00000F320000DD00
(0.907000) can0 207#0000000000000000
(0.908000) can0 2C1#0400000000000000
(0.909000) can0 2BF#00000000000001
(0.912000) can0 2AA#57D0D3
(0.912000) can0 2E1#398D2AFF0F000000
(0.913000) can0 1D5#290000000000807F
(0.914000) can0 132#E58E84FD433B
(0.915000) can0 719#3302600000000000
(0.916000) can0 2E5#00000F320000DD00
(0.917000) can0 266#2B00133613005E01
(0.917000) can0 75D#8000000000000000
(0.918000) can0 788#01000000FFA1C812
(0.921000) can0 448#20001010000010
(0.923000) can0 289#CA12074486003D8F
(0.923000) can0 243#01FC364835005B5B
(0.924000) can0 401#1C2AE494EC94DF94
(0.925000) can0 1D8#293041250000A038
(0.925000) can0 118#8C63950000C8B4FF
(0.926000) can0 249#9B000000
(0.927000) can0 257#BA52605402283001
(0.928000) can0 3F9#0600000000000000
(0.929000) can0 23E#00003AC002FF6FAA
(0.930000) can0 3A3#10C00000380DFC01
(0.931000) can0 281#0B00FF1F0001
(0.934000) can0 287#30322F31DA020000
(0.934000) can0 2A8#0101000006005002
(0.935000) can0 339#02F1FE008007800F
(0.936000) can0 1E5#286C0400000040BE
(0.936000) can0 393#0380610000000000
(0.937000) can0 266#2B00133613005E01
(0.942000) can0 3A1#884C0FCA0014E263
(0.942000) can0 428#20001010000010
(0.943000) can0 422#700010000000
(0.944000) can0 132#E98E8DFD5A3B
(0.944000) can0 2E1#FB1F8F59977F0900
(0.946000) can0 1D8#292E01250000E036
(0.947000) can0 108#9C7A09BA04131A25
(0.947000) can0 1D6#02080000CA7FF507
(0.948000) can0 4E3#03FD000000002800
(0.949000) can0 119#00000000
(0.952000) can0 2C2#2040404B010080CB
(0.952000) can0 318#1A06160D10182FB5
(0.953000) can0 420#2801404B00000005
(0.954000) can0 7FF#024612289C5181C2
(0.954000) can0 343#00925CFE95000000
(0.955000) can0 1D8#292E012500000056
(0.956000) can0 2E5#00000F320000DD00
(0.957000) can0 118#8F66950000C8B4FF
(0.957000) can0 266#2A00133613005E01
(0.959000) can0 441#3D8589003200381E
(0.960000) can0 3C2#2955000000000000
(0.961000) can0 7D7#3222000000000000
(0.961000) can0 234#3220032EB904E0BB
(0.962000) can0 3A2#62A7FFFF03000000
(0.963000) can0 355#800C00FF940000
(0.963000) can0 243#0300008029462600
(0.964000) can0 320#0300000000000000
(0.965000) can0 381#15C05C6D6D000001
(0.966000) can0 129#572B00600020FF3F
(0.966000) can0 266#2A00133613005E01
(0.967000) can0 2E5#00000F320000DD00
(0.968000) can0 3DB#0400001705000000
(0.969000) can0 23E#00003AC002FF7FBA
(0.970000) can0 545#01000000001060BB
(0.971000) can0 757#3200000000000000
(0.972000) can0 78A#010000002013070D
(0.975000) can0 1D5#290000000000403F
(0.975000) can0 1E5#286C0400000040BE
(0.976000) can0 229#8C0B00
(0.977000) can0 266#2A00133613005E01
(0.977000) can0 423#00001000000000
(0.978000) can0 139#00
(0.981000) can0 3E8#0200000000000000
(0.983000) can0 211#BD19710F1001
(0.983000) can0 243#04FC23F1717CFFFF
(0.984000) can0 2C3#555BA9B682C112AA
(0.985000) can0 261#00100B00FF4F60BF
(0.985000) can0 118#B269950000C8D4FF
(0.987000) can0 264#3E000000A000
(0.988000) can0 2E5#00000F320000DD00
(0.988000) can0 37A#D20D000000000000
(0.989000) can0 3F5#0000C838820C0000
(0.992000) can0 3A1#C1FFFF153D00F0C1
(0.992000) can0 2E1#1021040010000004
(0.993000) can0 1D5#290000000000807F
(0.994000) can0 2B3#05000000ED808100
(0.994000) can0 45A#FD07F8FF0300252E
(0.995000) can0 1D8#292CC12400008093
(0.996000) can0 212#5904000081FF7731
(0.997000) can0 118#936A950000C8B4FF
(0.997000) can0 2E5#00000F320000DD00
(0.998000) can0 392#0111A467000A0300
(1.000000) can0 400#00E0FBBEEFFB00
(1.001000) can0 381#16000400007F0000
(1.012000) can0 3C8#0300000000000000
(1.014000) can0 1D5#290000000000C0BF
(1.016000) can0 39B#0310DF80B00C11DD
(1.018000) can0 118#656C950000C884FF
(1.022000) can0 788#0240C60700030000
(1.024000) can0 3AE#21400008000090FA
(1.026000) can0 372#0B9BFB0000481500
(1.028000) can0 1E5#286C0400000060DE
(1.030000) can0 2C1#D0647E00008A0200
(1.032000) can0 281#0B00FF1F0001
(1.034000) can0 261#8B4C0A00004095AC
(1.037000) can0 2A8#0101000006006012
(1.038000) can0 20E#140400
(1.041000) can0 2E1#FB1F8F69978A0900
(1.043000) can0 1F9#0000000000000000
(1.045000) can0 243#02FCB30D05D90000
(1.047000) can0 118#F96F950000C81400
(1.049000) can0 128#0000EC0A02
(1.051000) can0 2C1#216B186402000000
(1.053000) can0 318#1A06160D101831B7
(1.056000) can0 262#0B00A9B300B09010
(1.057000) can0 118#B960950000C8E4FF
(1.057000) can0 27A#B5BCFC00B8056202
(1.058000) can0 439#0000000000185A04
(1.059000) can0 201#0118980000000000
(1.060000) can0 3C2#2955000000000000
(1.061000) can0 7D7#3222000000000000
(1.064000) can0 1D5#290000000000605F
(1.064000) can0 261#0522CBC99A42B03D
(1.065000) can0 213#081D
(1.066000) can0 1D8#29280124000060AF
(1.066000) can0 129#362500600020FF3F
(1.067000) can0 257#A949605402203001
(1.068000) can0 247#580EFF0B00A20100
(1.069000) can0 2C1#0219160000D09201
(1.071000) can0 3AA#0000000000000000
(1.071000) can0 383#A7181E00E1E0620B
(1.074000) can0 2E1#65800800864E316A
(1.074000) can0 2F1#05DA2B8142000100
(1.075000) can0 1D8#292841240000800F
(1.077000) can0 2E5#00000F320000DD00
(1.077000) can0 54F#0000000000000000
(1.080000) can0 139#00
(1.080000) can0 261#00100A00FF4FC01E
(1.083000) can0 211#BE1A710F1001
(1.083000) can0 243#04FC23F1717CFFFF
(1.084000) can0 201#0200000000000000
(1.085000) can0 264#3E000000A000
(1.085000) can0 118#1D63950000C84400
(1.086000) can0 224#0408004019011008
(1.087000) can0 39D#0165D52700
(1.088000) can0 2E5#00000F320000DD00
(1.088000) can0 3F5#0000C838820C0000
(1.089000) can0 23E#00003AC002FFAFEA
(1.090000) can0 677#0100000000000000
(1.093000) can0 22B#FFFFFF07FC000000
(1.093000) can0 263#04000000901C0000
(1.094000) can0 122#01000000003F0000
(1.095000) can0 2D2#F22EAE4E8813E822
(1.095000) can0 1E5#286C0400000040BE
(1.096000) can0 252#B14B437D00FC0F00
(1.097000) can0 266#2A00133613006001
(1.098000) can0 2E5#00000F320000DD00
(1.098000) can0 7A8#B8CCB18300008200
(1.099000) can0 545#020003000000A0EF
(1.102000) can0 272#080002D107B00304
(1.104000) can0 3C8#0400000000000000
(1.106000) can0 2E1#398D2AFF0F000000
(1.108000) can0 266#2900133613006001
(1.111000) can0 282#8C40020918040324
(1.113000) can0 3C0#0100000000000000
(1.115000) can0 263#700ED29FA74F5F1F
(1.118000) can0 253#0164A6C66490B505
(1.118000) can0 788#B8CCB1830000B600
(1.121000) can0 448#20001010000010
(1.123000) can0 289#CA1207C49C003D8F
(1.123000) can0 123#01000000003F0000
(1.124000) can0 6A2#0000000000
(1.127000) can0 1D8#292601240000206D
(1.127000) can0 31A#200100000000F02E
(1.128000) can0 7C8#0A01080007001F00
(1.129000) can0 261#8B4C0A000040F50C
(1.129000) can0 3A3#1CC00000380DFC01
(1.131000) can0 281#0B00FF1F0001
(1.134000) can0 545#90045D60998FB97C
(1.134000) can0 2A8#0101000006007022
(1.135000) can0 1D8#292601240000408D
(1.136000) can0 129#5E2C0060FF1FFF3F
(1.136000) can0 118#7268950000C89400
(1.137000) can0 552#00000000000060B7
(1.140000) can0 39B#0310DF80B00C31FD
(1.140000) can0 3A1#884C0FCA001422A3
(1.141000) can0 20C#007837181F01000E
(1.142000) can0 1F9#0000000000000000
(1.142000) can0 22B#FFFFFF07FC000000
(1.143000) can0 243#02FCB30D05D90000
(1.144000) can0 372#0D3200D01E5BE38E
(1.146000) can0 381#1A00000000000000
(1.146000) can0 257#AD4D605402203001
(1.147000) can0 126#47A03064A2
(1.148000) can0 4E3#D5028201001C0000
(1.148000) can0 395#091112610902037D
(1.149000) can0 397#F3FF7F7E1C220000
(1.150000) can0 2C2#2040404B010080CB
(1.153000) can0 113#019701
(1.153000) can0 1D5#290000000000807F
(1.154000) can0 132#FC8EA3FD813B
(1.157000) can0 1D8#2924C1230000808A
(1.157000) can0 27A#C7BD0C01B8056202
(1.158000) can0 441#3D858900320008EE
(1.159000) can0 201#0104980000000000
(1.160000) can0 3C2#2955000000000000
(1.161000) can0 234#3220032EB90420FB
(1.164000) can0 3FD#0000003C20000180
(1.166000) can0 333#0410590700
(1.166000) can0 1FA#1AC001
(1.167000) can0 39D#0367D52700
(1.168000) can0 545#010000000010C01B
(1.168000) can0 247#5A0EFF0C00A00100
(1.169000) can0 2E1#65800800864E316A
(1.170000) can0 757#3200000000000000
(1.173000) can0 383#A7181E00E1E0620B
(1.173000) can0 263#0300000000000000
(1.174000) can0 132#FD8EA3FD823B
(1.175000) can0 221#6055551554513118
(1.176000) can0 129#EE2000600020FF3F
(1.177000) can0 266#2900133613005E01
(1.178000) can0 25B#D38000056A868023
(1.178000) can0 139#00
(1.181000) can0 3E8#0400000000000000
(1.183000) can0 211#BF1B710F1001
(1.183000) can0 243#04FC23F1717CFFFF
(1.184000) can0 204#010000FF00000010
(1.185000) can0 2E1#1021040010000004
(1.185000) can0 118#B66D950000C8D4FF
(1.186000) can0 266#2900133613005E01
(1.187000) can0 2E5#00000F320000DD00
(1.188000) can0 2EC#573075
(1.188000) can0 3F5#0000C838830C0000
(1.191000) can0 3AE#204000080000F059
(1.194000) can0 261#3140120095493A91
(1.194000) can0 122#00001392D2000000
(1.195000) can0 2D2#F22EAE4E8813E822
(1.196000) can0 129#D9220060FF1FFF3F
(1.196000) can0 292#4A8E18A593010000
(1.197000) can0 2D1#FF01
(1.200000) can0 545#020003000000D01F
(1.200000) can0 2E1#398D2AFF0F000000
(1.201000) can0 272#0380610000000000
(1.202000) can0 55A#0500000000000000
(1.202000) can0 3C8#0500000000000000
(1.203000) can0 243#00FCCF0C91440D29
(1.204000) can0 372#0E00000C067D0000
(1.205000) can0 1D8#29224123000020A8
(1.206000) can0 1E5#286C04000000209E
(1.207000) can0 39D#0468D52700
(1.208000) can0 441#BE00B6C358000D05
(1.208000) can0 23E#00003AC002FFDF1A
(1.209000) can0 261#B2291A02805C420B
(1.210000) can0 40A#091000000000B0D7
(1.211000) can0 2AA#570003
(1.211000) can0 234#2EE10380430034A4
(1.214000) can0 3FD#01000A0000080280
(1.215000) can0 2F3#07070B0400600002
(1.216000) can0 1F8#1A000000
(1.217000) can0 266#2800133613005E01
(1.218000) can0 31E#0100000000000000
(1.218000) can0 25D#3741012A04F08803
(1.219000) can0 719#0003140F14070E00
(1.221000) can0 2F9#BCFB07030D1A8B84
(1.223000) can0 289#CA12078490003D8F
(1.223000) can0 243#01FC364835005B5B
(1.226000) can0 261#8B4C0A000040556C
(1.226000) can0 249#4C060000
(1.227000) can0 2E5#00000F320000DD00
(1.228000) can0 3F9#0000000000000000
(1.228000) can0 3AE#2040000800000069
(1.229000) can0 3A3#12C00000380DFC01
(1.232000) can0 281#0000FF1F0001
(1.232000) can0 2E1#FB1F8D5997840900
(1.233000) can0 263#89E6D1AFAF4F5F1F
(1.234000) can0 201#006D6D0000E4FF00
(1.234000) can0 2A8#0101000006008032
(1.236000) can0 1E5#286C04000000007E
(1.237000) can0 266#2800133613005E01
(1.242000) can0 261#9401A04B0040641A
(1.244000) can0 428#20001010000010
(1.246000) can0 1D8#292001230000A0E6
(1.248000) can0 257#9A42605402183001
(1.250000) can0 23E#00003AC002FFEF2A
(1.252000) can0 2C2#5523AA0680C112AA
(1.261000) can0 22B#FFFFFF07FC010000
(1.266000) can0 3FD#02005A0000000090
(1.272000) can0 294#14C1400040000000
(1.274000) can0 261#00100A00FF4F80DE
(1.276000) can0 2F1#0702000000D00000
(1.278000) can0 7AA#04000FC000260000
(1.281000) can0 25B#D38000056A869033
(1.282000) can0 211#C01C710F1001
(1.283000) can0 1D5#290000000000201F
(1.284000) can0 201#0200000000000000
(1.284000) can0 2C4#020001D200000000
(1.285000) can0 1D8#291E012300002064
(1.286000) can0 129#212BFF5FFE1FFF3F
(1.287000) can0 257#A444605402203001
(1.287000) can0 39D#066AD52700
(1.288000) can0 2EC#574085
(1.289000) can0 261#31400F0095499AEE
(1.289000) can0 23E#00003AC002FFFF3A
(1.290000) can0 3A1#C1FFFF333D00503F
(1.293000) can0 3A2#60E572B21C00C26F
(1.294000) can0 409#00
(1.295000) can0 2D2#F12EAE4E8813E822
(1.295000) can0 1E5#286C0400000040BE
(1.296000) can0 252#B14B437D00FC0F00
(1.297000) can0 292#4A8E18A593010000
(1.298000) can0 2E5#00000F320000DD00
(1.298000) can0 7A8#0240C107000F0000
(1.303000) can0 272#080003D907B00304
(1.303000) can0 22B#FFFFFF07FC030000
(1.304000) can0 132#FF8EAEFD943B
(1.305000) can0 1D8#291E0123000060A4
(1.305000) can0 118#5269950000C874FF
(1.306000) can0 207#0000000000000000
(1.307000) can0 257#A545605402203001
(1.308000) can0 421#021A0000002000
(1.309000) can0 3C2#0055555500006A05
(1.310000) can0 2AA#571013
(1.313000) can0 3C0#0300000000000000
(1.313000) can0 263#700ED29FA74F5F1F
(1.316000) can0 719#EE87630054630014
(1.316000) can0 118#646A950000C88400
(1.317000) can0 103#22B38804A2F02032
(1.318000) can0 31E#0200000000000000
(1.318000) can0 788#0240C60700030000
(1.321000) can0 448#20001010000010
(1.323000) can0 289#CA12074486003D8F
(1.323000) can0 243#01FC364835005B5B
(1.326000) can0 381#0400000000000000
(1.326000) can0 249#3F080000
(1.328000) can0 288#0106184C0060E136
(1.328000) can0 23E#00003AC002FF0F4A
(1.329000) can0 3A3#12C00000380DFC01
(1.330000) can0 287#30322F31DA020000
(1.331000) can0 545#400458109987192F
(1.334000) can0 1D5#290000000000C0BF
(1.334000) can0 2A8#0101000006009042
(1.335000) can0 1D8#291EC1220000C0C3
(1.336000) can0 129#3520FF5FFF1FFF3F
(1.337000) can0 118#156C950000C834FF
(1.340000) can0 3D8#62005E00
(1.342000) can0 3A1#884C0FCA001462E3
(1.344000) can0 428#20001010000010
(1.346000) can0 2E1#0400000000202600
(1.349000) can0 257#9F47605402183001
(1.351000) can0 7AA#1522880C50081300
(1.353000) can0 318#1A06160D101837BD
(1.355000) can0 1D5#29000000000000FF
(1.356000) can0 186#E80F000200111A25
(1.357000) can0 1A5#00101F784D
(1.358000) can0 396#091E1E5751570B7D
(1.358000) can0 300#0A016C1004008800
(1.359000) can0 332#D91D72073815
(1.360000) can0 3A8#0102000700020100
(1.361000) can0 3D2#680D080388B02A03
(1.361000) can0 381#0500000000D96408
(1.362000) can0 452#4E3403
(1.363000) can0 7D5#2B4F3F0000000000
(1.364000) can0 1D5#290000000000201F
(1.365000) can0 372#001F4029E2118C23
(1.366000) can0 553#0000000000001068
(1.366000) can0 1E5#286C04000000209E
(1.367000) can0 2E5#00000F320000DD00
(1.368000) can0 757#2C003E0000000000
(1.369000) can0 227#55030B0054000085
(1.369000) can0 3AE#1D400008000061C7
(1.370000) can0 7D5#3200000000000000
(1.371000) can0 24A#03
(1.372000) can0 379#02000A48333F2100
(1.374000) can0 1D5#290000000000403F
(1.374000) can0 2F1#0802002804D80200
(1.375000) can0 1D8#291CC12200004041
(1.376000) can0 2E5#00000F320000DD00
(1.377000) can0 118#6960950000C894FF
(1.378000) can0 25B#D38000056A86A043
(1.381000) can0 3E8#0600000000000000
(1.383000) can0 211#C11D710F1001
(1.383000) can0 243#04FC23F1717CFFFF
(1.384000) can0 204#010000FF00000010
(1.385000) can0 264#3D000000A000
(1.385000) can0 224#0408004019011008
(1.386000) can0 1E5#286C0400000060DE
(1.387000) can0 2B4#3C05480E7E01
(1.388000) can0 37A#D20D000000000000
(1.388000) can0 3F5#0000C838820C0000
(1.391000) can0 3AE#1D400008000070D6
(1.391000) can0 2E3#84D26020850400
(1.393000) can0 2E1#398D2AFF0F000000
(1.394000) can0 45A#FD07F8FF0300262D
(1.396000) can0 1D8#291C412200008001
(1.396000) can0 118#9B62950000C8C4FF
(1.397000) can0 381#0600000000000000
(1.398000) can0 252#B14B437D00FC0F00
(1.398000) can0 35F#00
(1.399000) can0 42E#00E0BFFFFEEFBFFF
(1.400000) can0 42F#A662FE02FA00FF
(1.403000) can0 272#0380610000000000
(1.403000) can0 243#00FCCF0C91440D29
(1.404000) can0 401#022AFD9404950095
(1.405000) can0 207#0000000000000000
(1.405000) can0 1E5#286C04000000209E
(1.407000) can0 283#000000004000
(1.408000) can0 282#9440020910040324
(1.408000) can0 23E#00003AC002FF2F6A
(1.409000) can0 2C1#0400000000000000
(1.410000) can0 40A#091000000000C0E7
(1.411000) can0 285#61018E0308002E00
(1.411000) can0 373#06FB1DD652E3101F
(1.412000) can0 234#2EE10380430074E4
(1.413000) can0 1D5#290000000000C0BF
(1.414000) can0 132#058FBDFDB63B
(1.414000) can0 719#0D00000000000000
(1.415000) can0 1D8#291A01220000C0FF
(1.416000) can0 2E5#00000F320000DD00
(1.417000) can0 261#8B4C0A000040152C
(1.418000) can0 31E#0300000000000000
(1.421000) can0 448#20001010000010
(1.423000) can0 289#CA120784A1003D8F
(1.423000) can0 243#01FC364835005B5B
(1.424000) can0 372#0132540340003401
(1.425000) can0 2E1#FB1F904997890900
(1.425000) can0 118#3E65950000C864FF
(1.426000) can0 249#E20A0000
(1.427000) can0 257#AB4B605402203001
(1.428000) can0 6A2#0000000000
(1.428000) can0 2C1#D0647E00008A0200
(1.429000) can0 4E2#0600000000000000
(1.430000) can0 287#30322F31DA020000
(1.433000) can0 261#9401A04B004024DA
(1.436000) can0 263#89E6D1AFAF4F5F1F
(1.438000) can0 393#080001C107B00304
(1.442000) can0 2E1#0400000000202600
(1.444000) can0 428#20001010000010
(1.446000) can0 20A#F61509821801
(1.448000) can0 257#AC4C605402203001
(1.448000) can0 23E#00003AC002FF3F7A
(1.449000) can0 261#0522CBC99A4230BD
(1.450000) can0 397#F3FF7F7E1C220000
(1.453000) can0 52F#0006545EDC7B6FC0
(1.455000) can0 1D5#290000000000403F
(1.457000) can0 7FF#0720000528000000
(1.459000) can0 195#000000000A002706
(1.461000) can0 441#3D85890032002006
(1.464000) can0 7D5#3200000000000000
(1.466000) can0 261#00100A00FF4F409E
(1.468000) can0 1E5#286C0400000060DE
(1.469000) can0 3FD#0000003C20000180
(1.471000) can0 2C1#0219160000D09201
(1.474000) can0 2E1#1021040010000004
(1.474000) can0 2F1#0902000000F00300
(1.475000) can0 1D8#29184122000080FD
(1.476000) can0 2E5#00000F320000DD00
(1.476000) can0 118#E46A950000C80400
(1.477000) can0 423#00001000000000
(1.480000) can0 25B#D38000056A86B053
(1.480000) can0 261#3140090097495AAA
(1.483000) can0 211#C21E710F1001
(1.484000) can0 2C3#0000C04B010040CB
(1.485000) can0 372#0263403ED081C872
(1.486000) can0 224#0408004019011008
(1.486000) can0 1E5#286C04000000209E
(1.487000) can0 257#AE4E605402203001
(1.488000) can0 3AE#1A4000080000B114
(1.488000) can0 3F5#0000C838820C0000
(1.489000) can0 2E1#398D2AFF0F000000
(1.490000) can0 677#0100000000000000
(1.493000) can0 359#3A00000000000000
(1.493000) can0 263#04000000901C0000
(1.494000) can0 122#01000000003F0000
(1.495000) can0 2D2#F22EAE4E8813E822
(1.496000) can0 1E5#286C0400000040BE
(1.497000) can0 252#B14B427D00FC0F00
(1.498000) can0 312#00E56644B1011D1A
(1.499000) can0 545#02000200000060AE
(1.499000) can0 225#5555FA00
